# KERNEL: UVM_INFO @ 0: reporter [RNTST] Running test test_002_CSR_write_read_back...
# KERNEL: ===================================================Test_002: CSR Write-Readback - Start=================================================================
# KERNEL: UVM_INFO /home/runner/accel_scoreboard.sv(230) @ 0: uvm_test_top.env.sco [SCO] Queues flushed
# KERNEL:                 WRITE : CSR_TILE_CFG REG                 
# KERNEL: UVM_INFO /home/runner/accel_axil_agent.sv(42) @ 102500: uvm_test_top.env.axil_a.drv [axil_csr_drv] DUT RESET COMPLETED
# KERNEL: =========================================================================================================================================
# KERNEL: UVM_INFO /home/runner/accel_axis_weight_agent.sv(35) @ 102500: uvm_test_top.env.weight_a.drv [WEIGHT_DRV] Reset done
# KERNEL: =========================================================================================================================================
# KERNEL: UVM_INFO /home/runner/accel_axis_act_agent.sv(35) @ 102500: uvm_test_top.env.act_a.drv [ACT_DRV] Reset done
# KERNEL: =========================================================================================================================================
# KERNEL: UVM_INFO /home/runner/accel_axil_agent.sv(56) @ 102500: uvm_test_top.env.axil_a.drv [axil_csr_drv] WRITE addr=0x8 data=0x320032
# KERNEL: UVM_INFO /home/runner/accel_scoreboard.sv(71) @ 127500: uvm_test_top.env.sco [SCO] WRITE addr=0x8 data=0x320032
# KERNEL: UVM_INFO /home/runner/accel_axil_agent.sv(121) @ 127500: uvm_test_top.env.axil_a.drv [axil_csr_drv] [CSR] Write Data transaction completed
# KERNEL: UVM_INFO /home/runner/accel_sequences.sv(31) @ 127500: uvm_test_top.env.axil_a.seqr@@wr_seq [CSR_WRITE_SEQ] Written addr=0x8 data=0x320032
# KERNEL:                 READ : CSR_TILE_CFG REG                 
# KERNEL: UVM_INFO /home/runner/accel_axil_agent.sv(90) @ 132500: uvm_test_top.env.axil_a.drv [AXIL_DRV] READ addr=0x8
# KERNEL: UVM_INFO /home/runner/accel_scoreboard.sv(101) @ 147500: uvm_test_top.env.sco [SCO] PASS addr=0x8 exp=0x320032 got=0x320032
# KERNEL: UVM_INFO /home/runner/accel_axil_agent.sv(126) @ 147500: uvm_test_top.env.axil_a.drv [axil_csr_drv] [CSR] Read Data transaction completed
# KERNEL:                 WRITE : CSR_SPARSITY REG                 
# KERNEL: UVM_INFO /home/runner/accel_axil_agent.sv(56) @ 152500: uvm_test_top.env.axil_a.drv [axil_csr_drv] WRITE addr=0xc data=0xd
# KERNEL: UVM_INFO /home/runner/accel_scoreboard.sv(71) @ 177500: uvm_test_top.env.sco [SCO] WRITE addr=0xc data=0xd
# KERNEL: UVM_INFO /home/runner/accel_axil_agent.sv(121) @ 177500: uvm_test_top.env.axil_a.drv [axil_csr_drv] [CSR] Write Data transaction completed
# KERNEL: UVM_INFO /home/runner/accel_sequences.sv(31) @ 177500: uvm_test_top.env.axil_a.seqr@@wr_seq [CSR_WRITE_SEQ] Written addr=0xc data=0xd
# KERNEL:                 READ : CSR_SPARSITY REG                 
# KERNEL: UVM_INFO /home/runner/accel_axil_agent.sv(90) @ 182500: uvm_test_top.env.axil_a.drv [AXIL_DRV] READ addr=0xc
# KERNEL: UVM_INFO /home/runner/accel_scoreboard.sv(101) @ 197500: uvm_test_top.env.sco [SCO] PASS addr=0xc exp=0xd got=0xd
# KERNEL: UVM_INFO /home/runner/accel_axil_agent.sv(126) @ 197500: uvm_test_top.env.axil_a.drv [axil_csr_drv] [CSR] Read Data transaction completed
# KERNEL:                 WRITE : CSR_IRQ_EN  REG                 
# KERNEL: UVM_INFO /home/runner/accel_axil_agent.sv(56) @ 202500: uvm_test_top.env.axil_a.drv [axil_csr_drv] WRITE addr=0x10 data=0x9
# KERNEL: UVM_INFO /home/runner/accel_scoreboard.sv(71) @ 227500: uvm_test_top.env.sco [SCO] WRITE addr=0x10 data=0x9
# KERNEL: UVM_INFO /home/runner/accel_axil_agent.sv(121) @ 227500: uvm_test_top.env.axil_a.drv [axil_csr_drv] [CSR] Write Data transaction completed
# KERNEL: UVM_INFO /home/runner/accel_sequences.sv(31) @ 227500: uvm_test_top.env.axil_a.seqr@@wr_seq [CSR_WRITE_SEQ] Written addr=0x10 data=0x9
# KERNEL:                 READ : CSR_IRQ_EN  REG                 
# KERNEL: UVM_INFO /home/runner/accel_axil_agent.sv(90) @ 232500: uvm_test_top.env.axil_a.drv [AXIL_DRV] READ addr=0x10
# KERNEL: UVM_INFO /home/runner/accel_scoreboard.sv(101) @ 247500: uvm_test_top.env.sco [SCO] PASS addr=0x10 exp=0x9 got=0x9
# KERNEL: UVM_INFO /home/runner/accel_axil_agent.sv(126) @ 247500: uvm_test_top.env.axil_a.drv [axil_csr_drv] [CSR] Read Data transaction completed
# KERNEL:                 WRITE : CSR_PP_CTRL   REG                 
# KERNEL: UVM_INFO /home/runner/accel_axil_agent.sv(56) @ 252500: uvm_test_top.env.axil_a.drv [axil_csr_drv] WRITE addr=0xb0 data=0x184
# KERNEL: UVM_INFO /home/runner/accel_scoreboard.sv(71) @ 277500: uvm_test_top.env.sco [SCO] WRITE addr=0xb0 data=0x184
# KERNEL: UVM_INFO /home/runner/accel_axil_agent.sv(121) @ 277500: uvm_test_top.env.axil_a.drv [axil_csr_drv] [CSR] Write Data transaction completed
# KERNEL: UVM_INFO /home/runner/accel_sequences.sv(31) @ 277500: uvm_test_top.env.axil_a.seqr@@wr_seq [CSR_WRITE_SEQ] Written addr=0xb0 data=0x184
# KERNEL:                 READ : CSR_PP_CTRL   REG                 
# KERNEL: UVM_INFO /home/runner/accel_axil_agent.sv(90) @ 282500: uvm_test_top.env.axil_a.drv [AXIL_DRV] READ addr=0xb0
# KERNEL: UVM_INFO /home/runner/accel_scoreboard.sv(101) @ 297500: uvm_test_top.env.sco [SCO] PASS addr=0xb0 exp=0x184 got=0x184
# KERNEL: UVM_INFO /home/runner/accel_axil_agent.sv(126) @ 297500: uvm_test_top.env.axil_a.drv [axil_csr_drv] [CSR] Read Data transaction completed
# KERNEL:                 WRITE : CSR_PP_SCALE   REG                 
# KERNEL: UVM_INFO /home/runner/accel_axil_agent.sv(56) @ 302500: uvm_test_top.env.axil_a.drv [axil_csr_drv] WRITE addr=0xb4 data=0x2
# KERNEL: UVM_INFO /home/runner/accel_scoreboard.sv(71) @ 327500: uvm_test_top.env.sco [SCO] WRITE addr=0xb4 data=0x2
# KERNEL: UVM_INFO /home/runner/accel_axil_agent.sv(121) @ 327500: uvm_test_top.env.axil_a.drv [axil_csr_drv] [CSR] Write Data transaction completed
# KERNEL: UVM_INFO /home/runner/accel_sequences.sv(31) @ 327500: uvm_test_top.env.axil_a.seqr@@wr_seq [CSR_WRITE_SEQ] Written addr=0xb4 data=0x2
# KERNEL:                 READ : CSR_PP_SCALE   REG                 
# KERNEL: UVM_INFO /home/runner/accel_axil_agent.sv(90) @ 332500: uvm_test_top.env.axil_a.drv [AXIL_DRV] READ addr=0xb4
# KERNEL: UVM_INFO /home/runner/accel_scoreboard.sv(101) @ 347500: uvm_test_top.env.sco [SCO] PASS addr=0xb4 exp=0x2 got=0x2
# KERNEL: UVM_INFO /home/runner/accel_axil_agent.sv(126) @ 347500: uvm_test_top.env.axil_a.drv [axil_csr_drv] [CSR] Read Data transaction completed
# KERNEL:                 WRITE : CSR_PP_SAT_MAX    REG                 
# KERNEL: UVM_INFO /home/runner/accel_axil_agent.sv(56) @ 352500: uvm_test_top.env.axil_a.drv [axil_csr_drv] WRITE addr=0xbc data=0xff
# KERNEL: UVM_INFO /home/runner/accel_scoreboard.sv(71) @ 377500: uvm_test_top.env.sco [SCO] WRITE addr=0xbc data=0xff
# KERNEL: UVM_INFO /home/runner/accel_axil_agent.sv(121) @ 377500: uvm_test_top.env.axil_a.drv [axil_csr_drv] [CSR] Write Data transaction completed
# KERNEL: UVM_INFO /home/runner/accel_sequences.sv(31) @ 377500: uvm_test_top.env.axil_a.seqr@@wr_seq [CSR_WRITE_SEQ] Written addr=0xbc data=0xff
# KERNEL:                 READ : CSR_PP_SAT_MAX    REG                 
# KERNEL: UVM_INFO /home/runner/accel_axil_agent.sv(90) @ 382500: uvm_test_top.env.axil_a.drv [AXIL_DRV] READ addr=0xbc
# KERNEL: UVM_INFO /home/runner/accel_scoreboard.sv(101) @ 397500: uvm_test_top.env.sco [SCO] PASS addr=0xbc exp=0xff got=0xff
# KERNEL: UVM_INFO /home/runner/accel_axil_agent.sv(126) @ 397500: uvm_test_top.env.axil_a.drv [axil_csr_drv] [CSR] Read Data transaction completed
# KERNEL:                 WRITE : CSR_PP_SAT_MIN    REG                 
# KERNEL: UVM_INFO /home/runner/accel_axil_agent.sv(56) @ 402500: uvm_test_top.env.axil_a.drv [axil_csr_drv] WRITE addr=0xc0 data=0xffffff00
# KERNEL: UVM_INFO /home/runner/accel_scoreboard.sv(71) @ 427500: uvm_test_top.env.sco [SCO] WRITE addr=0xc0 data=0xffffff00
# KERNEL: UVM_INFO /home/runner/accel_axil_agent.sv(121) @ 427500: uvm_test_top.env.axil_a.drv [axil_csr_drv] [CSR] Write Data transaction completed
# KERNEL: UVM_INFO /home/runner/accel_sequences.sv(31) @ 427500: uvm_test_top.env.axil_a.seqr@@wr_seq [CSR_WRITE_SEQ] Written addr=0xc0 data=0xffffff00
# KERNEL:                 READ : CSR_PP_SAT_MIN    REG                 
# KERNEL: UVM_INFO /home/runner/accel_axil_agent.sv(90) @ 432500: uvm_test_top.env.axil_a.drv [AXIL_DRV] READ addr=0xc0
# KERNEL: UVM_INFO /home/runner/accel_scoreboard.sv(101) @ 447500: uvm_test_top.env.sco [SCO] PASS addr=0xc0 exp=0xffffff00 got=0xffffff00
# KERNEL: UVM_INFO /home/runner/accel_axil_agent.sv(126) @ 447500: uvm_test_top.env.axil_a.drv [axil_csr_drv] [CSR] Read Data transaction completed
# KERNEL: ===================================================Test_002 : End of the test=================================================================
# KERNEL: UVM_INFO /home/runner/test_002_CSR_write_read_back.sv(136) @ 447500: uvm_test_top [COVERAGE] Coverage = 100.00%
# KERNEL: UVM_INFO ./uvm-1.2/src/base/uvm_objection.svh(1271) @ 447500: reporter [TEST_DONE] 'run' phase is ready to proceed to the 'extract' phase
# KERNEL: UVM_INFO /home/runner/accel_scoreboard.sv(239) @ 447500: uvm_test_top.env.sco [SCO] FINAL: pass=7 fail=0
# KERNEL: UVM_INFO /home/runner/accel_scoreboard.sv(244) @ 447500: uvm_test_top.env.sco [SCO] TEST PASSED
# KERNEL: UVM_INFO ./uvm-1.2/src/base/uvm_report_server.svh(869) @ 447500: reporter [UVM/REPORT/SERVER] 
# KERNEL: --- UVM Report Summary ---
# KERNEL: 
# KERNEL: ** Report counts by severity
# KERNEL: UVM_INFO :   59
# KERNEL: UVM_WARNING :    0
# KERNEL: UVM_ERROR :    0
# KERNEL: UVM_FATAL :    0
# KERNEL: ** Report counts by id
# KERNEL: [ACT_DRV]     1
# KERNEL: [AXIL_DRV]     7
# KERNEL: [COVERAGE]     1
# KERNEL: [CSR_WRITE_SEQ]     7
# KERNEL: [RNTST]     1
# KERNEL: [SCO]    17
# KERNEL: [TEST_DONE]     1
# KERNEL: [UVM/RELNOTES]     1
# KERNEL: [WEIGHT_DRV]     1
# KERNEL: [axil_csr_drv]    22
# KERNEL: 
# RUNTIME: Info: RUNTIME_0068 uvm_root.svh (521): $finish called.