# KERNEL: ASDB file was created in location /home/runner/dataset.asdb
# KERNEL: UVM_INFO @ 0: reporter [RNTST] Running test test_060_soft_reset_from_stream...
# KERNEL: UVM_INFO @ 0: reporter [MAXQUITSET] '+UVM_MAX_QUIT_COUNT=1,YES' provided on the command line is being applied.
# KERNEL: ===================================================Test_060 : Soft Reset from STREAM State - Start=================================================================
# KERNEL: UVM_INFO /home/runner/accel_scoreboard.sv(297) @ 0: uvm_test_top.env.sco [SCO] Queues flushed
# KERNEL:                 Step 1 : Soft Reset + Clear                 
# KERNEL: UVM_INFO /home/runner/accel_axil_agent.sv(42) @ 102500: uvm_test_top.env.axil_a.drv [axil_csr_drv] DUT RESET COMPLETED
# KERNEL: =========================================================================================================================================
# KERNEL: UVM_INFO /home/runner/accel_axis_weight_agent.sv(35) @ 102500: uvm_test_top.env.weight_a.drv [WEIGHT_DRV] Reset done
# KERNEL: =========================================================================================================================================
# KERNEL: UVM_INFO /home/runner/accel_axis_act_agent.sv(35) @ 102500: uvm_test_top.env.act_a.drv [ACT_DRV] Reset done
# KERNEL: =========================================================================================================================================
# KERNEL: UVM_INFO /home/runner/accel_axil_agent.sv(56) @ 102500: uvm_test_top.env.axil_a.drv [axil_csr_drv] WRITE addr=0x0 data=0x48
# KERNEL: UVM_INFO /home/runner/accel_scoreboard.sv(109) @ 127500: uvm_test_top.env.sco [SCO] WRITE addr=0x0 data=0x48
# KERNEL: UVM_INFO /home/runner/accel_axil_agent.sv(121) @ 127500: uvm_test_top.env.axil_a.drv [axil_csr_drv] [CSR] Write Data transaction completed
# KERNEL: UVM_INFO /home/runner/accel_sequences.sv(31) @ 127500: uvm_test_top.env.axil_a.seqr@@wr_seq [CSR_WRITE_SEQ] Written addr=0x0 data=0x48
# KERNEL: UVM_INFO /home/runner/accel_axil_agent.sv(56) @ 177500: uvm_test_top.env.axil_a.drv [axil_csr_drv] WRITE addr=0x0 data=0x8
# KERNEL: UVM_INFO /home/runner/accel_scoreboard.sv(109) @ 202500: uvm_test_top.env.sco [SCO] WRITE addr=0x0 data=0x8
# KERNEL: UVM_INFO /home/runner/accel_axil_agent.sv(121) @ 202500: uvm_test_top.env.axil_a.drv [axil_csr_drv] [CSR] Write Data transaction completed
# KERNEL: UVM_INFO /home/runner/accel_sequences.sv(31) @ 202500: uvm_test_top.env.axil_a.seqr@@wr_seq [CSR_WRITE_SEQ] Written addr=0x0 data=0x8
# KERNEL:                 Step 2 : Configure                 
# KERNEL: UVM_INFO /home/runner/accel_axil_agent.sv(56) @ 227500: uvm_test_top.env.axil_a.drv [axil_csr_drv] WRITE addr=0x8 data=0x10064
# KERNEL: UVM_INFO /home/runner/accel_scoreboard.sv(109) @ 252500: uvm_test_top.env.sco [SCO] WRITE addr=0x8 data=0x10064
# KERNEL: UVM_INFO /home/runner/accel_axil_agent.sv(121) @ 252500: uvm_test_top.env.axil_a.drv [axil_csr_drv] [CSR] Write Data transaction completed
# KERNEL: UVM_INFO /home/runner/accel_sequences.sv(31) @ 252500: uvm_test_top.env.axil_a.seqr@@wr_seq [CSR_WRITE_SEQ] Written addr=0x8 data=0x10064
# KERNEL: UVM_INFO /home/runner/accel_axil_agent.sv(56) @ 257500: uvm_test_top.env.axil_a.drv [axil_csr_drv] WRITE addr=0xe4 data=0x10000
# KERNEL: UVM_INFO /home/runner/accel_scoreboard.sv(109) @ 282500: uvm_test_top.env.sco [SCO] WRITE addr=0xe4 data=0x10000
# KERNEL: UVM_INFO /home/runner/accel_axil_agent.sv(121) @ 282500: uvm_test_top.env.axil_a.drv [axil_csr_drv] [CSR] Write Data transaction completed
# KERNEL: UVM_INFO /home/runner/accel_sequences.sv(31) @ 282500: uvm_test_top.env.axil_a.seqr@@wr_seq [CSR_WRITE_SEQ] Written addr=0xe4 data=0x10000
# KERNEL: UVM_INFO /home/runner/accel_axil_agent.sv(56) @ 287500: uvm_test_top.env.axil_a.drv [axil_csr_drv] WRITE addr=0xc data=0x1
# KERNEL: UVM_INFO /home/runner/accel_scoreboard.sv(109) @ 312500: uvm_test_top.env.sco [SCO] WRITE addr=0xc data=0x1
# KERNEL: UVM_INFO /home/runner/accel_axil_agent.sv(121) @ 312500: uvm_test_top.env.axil_a.drv [axil_csr_drv] [CSR] Write Data transaction completed
# KERNEL: UVM_INFO /home/runner/accel_sequences.sv(31) @ 312500: uvm_test_top.env.axil_a.seqr@@wr_seq [CSR_WRITE_SEQ] Written addr=0xc data=0x1
# KERNEL: UVM_INFO /home/runner/accel_axil_agent.sv(56) @ 317500: uvm_test_top.env.axil_a.drv [axil_csr_drv] WRITE addr=0x0 data=0x1
# KERNEL: UVM_INFO /home/runner/accel_scoreboard.sv(109) @ 342500: uvm_test_top.env.sco [SCO] WRITE addr=0x0 data=0x1
# KERNEL: UVM_INFO /home/runner/accel_axil_agent.sv(121) @ 342500: uvm_test_top.env.axil_a.drv [axil_csr_drv] [CSR] Write Data transaction completed
# KERNEL: UVM_INFO /home/runner/accel_sequences.sv(31) @ 342500: uvm_test_top.env.axil_a.seqr@@wr_seq [CSR_WRITE_SEQ] Written addr=0x0 data=0x1
# KERNEL:                 Step 3 : Stream weights                 
# KERNEL: UVM_INFO /home/runner/accel_axis_weight_agent.sv(179) @ 607500: uvm_test_top.env.weight_a.mon [WEIGHT_MON] w0[0]=1 w1[0]=1 idx0[0]=0 idx1[0]=1
# KERNEL: UVM_INFO /home/runner/accel_axis_weight_agent.sv(180) @ 607500: uvm_test_top.env.weight_a.mon [WEIGHT_MON] Weight tile captured
# KERNEL: UVM_INFO /home/runner/accel_scoreboard.sv(149) @ 607500: uvm_test_top.env.sco [SCO] Weight tile stored â€” queue=1
# KERNEL: UVM_INFO /home/runner/accel_axis_weight_agent.sv(101) @ 607500: uvm_test_top.env.weight_a.drv [WEIGHT_DRV] Tile complete
# KERNEL: UVM_INFO /home/runner/accel_sequences.sv(89) @ 607500: uvm_test_top.env.weight_a.seqr@@w_tile_seq [WEIGHT_TILE_SEQ] Weight tile streamed
# KERNEL:                 Step 4 : Enable + Start                 
# KERNEL: UVM_INFO /home/runner/accel_axil_agent.sv(56) @ 622500: uvm_test_top.env.axil_a.drv [axil_csr_drv] WRITE addr=0x0 data=0x3
# KERNEL: UVM_INFO /home/runner/accel_scoreboard.sv(109) @ 647500: uvm_test_top.env.sco [SCO] WRITE addr=0x0 data=0x3
# KERNEL: UVM_INFO /home/runner/accel_axil_agent.sv(121) @ 647500: uvm_test_top.env.axil_a.drv [axil_csr_drv] [CSR] Write Data transaction completed
# KERNEL: UVM_INFO /home/runner/accel_sequences.sv(31) @ 647500: uvm_test_top.env.axil_a.seqr@@wr_seq [CSR_WRITE_SEQ] Written addr=0x0 data=0x3
# KERNEL:                 Step 5 : Stream activations with soft reset at vector 50                 
# KERNEL: UVM_INFO /home/runner/accel_axis_act_agent.sv(69) @ 737500: uvm_test_top.env.act_a.drv [ACT_DRV] Beat 1/2 sent mode=DENSE last=0
# KERNEL: UVM_INFO /home/runner/accel_scoreboard.sv(154) @ 742500: uvm_test_top.env.sco [SCO] Act vector stored â€” queue=1
# KERNEL: UVM_INFO /home/runner/accel_axis_act_agent.sv(143) @ 742500: uvm_test_top.env.act_a.mon [ACT_MON] Vector captured a0=1 a1=1 a2=1 a3=1 last=0 mode=DENSE
# KERNEL: UVM_INFO /home/runner/accel_axis_act_agent.sv(69) @ 742500: uvm_test_top.env.act_a.drv [ACT_DRV] Beat 2/2 sent mode=DENSE last=0
# KERNEL: UVM_INFO /home/runner/accel_sequences.sv(115) @ 742500: uvm_test_top.env.act_a.seqr@@a_stream_seq [ACT_STREAM_SEQ] Activation vector streamed
# KERNEL: UVM_INFO /home/runner/accel_axis_act_agent.sv(69) @ 747500: uvm_test_top.env.act_a.drv [ACT_DRV] Beat 1/2 sent mode=DENSE last=0
# KERNEL: UVM_INFO /home/runner/accel_scoreboard.sv(154) @ 752500: uvm_test_top.env.sco [SCO] Act vector stored â€” queue=2
# KERNEL: UVM_INFO /home/runner/accel_axis_act_agent.sv(143) @ 752500: uvm_test_top.env.act_a.mon [ACT_MON] Vector captured a0=1 a1=1 a2=1 a3=1 last=0 mode=DENSE
# KERNEL: UVM_INFO /home/runner/accel_axis_act_agent.sv(69) @ 752500: uvm_test_top.env.act_a.drv [ACT_DRV] Beat 2/2 sent mode=DENSE last=0
# KERNEL: UVM_INFO /home/runner/accel_sequences.sv(115) @ 752500: uvm_test_top.env.act_a.seqr@@a_stream_seq [ACT_STREAM_SEQ] Activation vector streamed
# KERNEL: UVM_INFO /home/runner/accel_axis_act_agent.sv(69) @ 757500: uvm_test_top.env.act_a.drv [ACT_DRV] Beat 1/2 sent mode=DENSE last=0
# KERNEL: UVM_INFO /home/runner/accel_scoreboard.sv(154) @ 762500: uvm_test_top.env.sco [SCO] Act vector stored â€” queue=3
# KERNEL: UVM_INFO /home/runner/accel_axis_act_agent.sv(143) @ 762500: uvm_test_top.env.act_a.mon [ACT_MON] Vector captured a0=1 a1=1 a2=1 a3=1 last=0 mode=DENSE
# KERNEL: UVM_INFO /home/runner/accel_axis_act_agent.sv(69) @ 762500: uvm_test_top.env.act_a.drv [ACT_DRV] Beat 2/2 sent mode=DENSE last=0
# KERNEL: UVM_INFO /home/runner/accel_sequences.sv(115) @ 762500: uvm_test_top.env.act_a.seqr@@a_stream_seq [ACT_STREAM_SEQ] Activation vector streamed
# KERNEL: UVM_INFO /home/runner/accel_axis_act_agent.sv(69) @ 767500: uvm_test_top.env.act_a.drv [ACT_DRV] Beat 1/2 sent mode=DENSE last=0
# KERNEL: UVM_INFO /home/runner/accel_scoreboard.sv(154) @ 772500: uvm_test_top.env.sco [SCO] Act vector stored â€” queue=4
# KERNEL: UVM_INFO /home/runner/accel_axis_act_agent.sv(143) @ 772500: uvm_test_top.env.act_a.mon [ACT_MON] Vector captured a0=1 a1=1 a2=1 a3=1 last=0 mode=DENSE
# KERNEL: UVM_INFO /home/runner/accel_axis_act_agent.sv(69) @ 772500: uvm_test_top.env.act_a.drv [ACT_DRV] Beat 2/2 sent mode=DENSE last=0
# KERNEL: UVM_INFO /home/runner/accel_sequences.sv(115) @ 772500: uvm_test_top.env.act_a.seqr@@a_stream_seq [ACT_STREAM_SEQ] Activation vector streamed
# KERNEL: UVM_INFO /home/runner/accel_axis_act_agent.sv(69) @ 777500: uvm_test_top.env.act_a.drv [ACT_DRV] Beat 1/2 sent mode=DENSE last=0
# KERNEL: UVM_INFO /home/runner/accel_scoreboard.sv(154) @ 782500: uvm_test_top.env.sco [SCO] Act vector stored â€” queue=5
# KERNEL: UVM_INFO /home/runner/accel_axis_act_agent.sv(143) @ 782500: uvm_test_top.env.act_a.mon [ACT_MON] Vector captured a0=1 a1=1 a2=1 a3=1 last=0 mode=DENSE
# KERNEL: UVM_INFO /home/runner/accel_axis_act_agent.sv(69) @ 782500: uvm_test_top.env.act_a.drv [ACT_DRV] Beat 2/2 sent mode=DENSE last=0
# KERNEL: UVM_INFO /home/runner/accel_sequences.sv(115) @ 782500: uvm_test_top.env.act_a.seqr@@a_stream_seq [ACT_STREAM_SEQ] Activation vector streamed
# KERNEL: UVM_INFO /home/runner/accel_axis_act_agent.sv(69) @ 787500: uvm_test_top.env.act_a.drv [ACT_DRV] Beat 1/2 sent mode=DENSE last=0
# KERNEL: UVM_INFO /home/runner/accel_scoreboard.sv(154) @ 792500: uvm_test_top.env.sco [SCO] Act vector stored â€” queue=6
# KERNEL: UVM_INFO /home/runner/accel_axis_act_agent.sv(143) @ 792500: uvm_test_top.env.act_a.mon [ACT_MON] Vector captured a0=1 a1=1 a2=1 a3=1 last=0 mode=DENSE
# KERNEL: UVM_INFO /home/runner/accel_axis_act_agent.sv(69) @ 792500: uvm_test_top.env.act_a.drv [ACT_DRV] Beat 2/2 sent mode=DENSE last=0
# KERNEL: UVM_INFO /home/runner/accel_sequences.sv(115) @ 792500: uvm_test_top.env.act_a.seqr@@a_stream_seq [ACT_STREAM_SEQ] Activation vector streamed
# KERNEL: UVM_INFO /home/runner/accel_axis_act_agent.sv(69) @ 797500: uvm_test_top.env.act_a.drv [ACT_DRV] Beat 1/2 sent mode=DENSE last=0
# KERNEL: UVM_INFO /home/runner/accel_scoreboard.sv(154) @ 802500: uvm_test_top.env.sco [SCO] Act vector stored â€” queue=7
# KERNEL: UVM_INFO /home/runner/accel_axis_act_agent.sv(143) @ 802500: uvm_test_top.env.act_a.mon [ACT_MON] Vector captured a0=1 a1=1 a2=1 a3=1 last=0 mode=DENSE
# KERNEL: UVM_INFO /home/runner/accel_axis_act_agent.sv(69) @ 802500: uvm_test_top.env.act_a.drv [ACT_DRV] Beat 2/2 sent mode=DENSE last=0
# KERNEL: UVM_INFO /home/runner/accel_sequences.sv(115) @ 802500: uvm_test_top.env.act_a.seqr@@a_stream_seq [ACT_STREAM_SEQ] Activation vector streamed
# KERNEL: UVM_INFO /home/runner/accel_axis_act_agent.sv(69) @ 807500: uvm_test_top.env.act_a.drv [ACT_DRV] Beat 1/2 sent mode=DENSE last=0
# KERNEL: UVM_INFO /home/runner/accel_scoreboard.sv(154) @ 812500: uvm_test_top.env.sco [SCO] Act vector stored â€” queue=8
# KERNEL: UVM_INFO /home/runner/accel_axis_act_agent.sv(143) @ 812500: uvm_test_top.env.act_a.mon [ACT_MON] Vector captured a0=1 a1=1 a2=1 a3=1 last=0 mode=DENSE
# KERNEL: UVM_INFO /home/runner/accel_axis_act_agent.sv(69) @ 812500: uvm_test_top.env.act_a.drv [ACT_DRV] Beat 2/2 sent mode=DENSE last=0
# KERNEL: UVM_INFO /home/runner/accel_sequences.sv(115) @ 812500: uvm_test_top.env.act_a.seqr@@a_stream_seq [ACT_STREAM_SEQ] Activation vector streamed
# KERNEL: UVM_INFO /home/runner/accel_axis_act_agent.sv(69) @ 817500: uvm_test_top.env.act_a.drv [ACT_DRV] Beat 1/2 sent mode=DENSE last=0
# KERNEL: UVM_INFO /home/runner/accel_scoreboard.sv(154) @ 822500: uvm_test_top.env.sco [SCO] Act vector stored â€” queue=9
# KERNEL: UVM_INFO /home/runner/accel_axis_act_agent.sv(143) @ 822500: uvm_test_top.env.act_a.mon [ACT_MON] Vector captured a0=1 a1=1 a2=1 a3=1 last=0 mode=DENSE
# KERNEL: UVM_INFO /home/runner/accel_axis_act_agent.sv(69) @ 822500: uvm_test_top.env.act_a.drv [ACT_DRV] Beat 2/2 sent mode=DENSE last=0
# KERNEL: UVM_INFO /home/runner/accel_sequences.sv(115) @ 822500: uvm_test_top.env.act_a.seqr@@a_stream_seq [ACT_STREAM_SEQ] Activation vector streamed
# KERNEL: UVM_INFO /home/runner/accel_axis_act_agent.sv(69) @ 827500: uvm_test_top.env.act_a.drv [ACT_DRV] Beat 1/2 sent mode=DENSE last=0
# KERNEL: UVM_INFO /home/runner/accel_scoreboard.sv(154) @ 832500: uvm_test_top.env.sco [SCO] Act vector stored â€” queue=10
# KERNEL: UVM_INFO /home/runner/accel_axis_act_agent.sv(143) @ 832500: uvm_test_top.env.act_a.mon [ACT_MON] Vector captured a0=1 a1=1 a2=1 a3=1 last=0 mode=DENSE
# KERNEL: UVM_INFO /home/runner/accel_axis_act_agent.sv(69) @ 832500: uvm_test_top.env.act_a.drv [ACT_DRV] Beat 2/2 sent mode=DENSE last=0
# KERNEL: UVM_INFO /home/runner/accel_sequences.sv(115) @ 832500: uvm_test_top.env.act_a.seqr@@a_stream_seq [ACT_STREAM_SEQ] Activation vector streamed
# KERNEL: UVM_INFO /home/runner/accel_axis_act_agent.sv(69) @ 837500: uvm_test_top.env.act_a.drv [ACT_DRV] Beat 1/2 sent mode=DENSE last=0
# KERNEL: UVM_INFO /home/runner/accel_scoreboard.sv(154) @ 842500: uvm_test_top.env.sco [SCO] Act vector stored â€” queue=11
# KERNEL: UVM_INFO /home/runner/accel_axis_act_agent.sv(143) @ 842500: uvm_test_top.env.act_a.mon [ACT_MON] Vector captured a0=1 a1=1 a2=1 a3=1 last=0 mode=DENSE
# KERNEL: UVM_INFO /home/runner/accel_axis_act_agent.sv(69) @ 842500: uvm_test_top.env.act_a.drv [ACT_DRV] Beat 2/2 sent mode=DENSE last=0
# KERNEL: UVM_INFO /home/runner/accel_sequences.sv(115) @ 842500: uvm_test_top.env.act_a.seqr@@a_stream_seq [ACT_STREAM_SEQ] Activation vector streamed
# KERNEL: UVM_INFO /home/runner/accel_axis_act_agent.sv(69) @ 847500: uvm_test_top.env.act_a.drv [ACT_DRV] Beat 1/2 sent mode=DENSE last=0
# KERNEL: UVM_INFO /home/runner/accel_scoreboard.sv(154) @ 852500: uvm_test_top.env.sco [SCO] Act vector stored â€” queue=12
# KERNEL: UVM_INFO /home/runner/accel_axis_act_agent.sv(143) @ 852500: uvm_test_top.env.act_a.mon [ACT_MON] Vector captured a0=1 a1=1 a2=1 a3=1 last=0 mode=DENSE
# KERNEL: UVM_INFO /home/runner/accel_axis_act_agent.sv(69) @ 852500: uvm_test_top.env.act_a.drv [ACT_DRV] Beat 2/2 sent mode=DENSE last=0
# KERNEL: UVM_INFO /home/runner/accel_sequences.sv(115) @ 852500: uvm_test_top.env.act_a.seqr@@a_stream_seq [ACT_STREAM_SEQ] Activation vector streamed
# KERNEL: UVM_INFO /home/runner/accel_axis_act_agent.sv(69) @ 857500: uvm_test_top.env.act_a.drv [ACT_DRV] Beat 1/2 sent mode=DENSE last=0
# KERNEL: UVM_INFO /home/runner/accel_scoreboard.sv(154) @ 862500: uvm_test_top.env.sco [SCO] Act vector stored â€” queue=13
# KERNEL: UVM_INFO /home/runner/accel_axis_act_agent.sv(143) @ 862500: uvm_test_top.env.act_a.mon [ACT_MON] Vector captured a0=1 a1=1 a2=1 a3=1 last=0 mode=DENSE
# KERNEL: UVM_INFO /home/runner/accel_axis_act_agent.sv(69) @ 862500: uvm_test_top.env.act_a.drv [ACT_DRV] Beat 2/2 sent mode=DENSE last=0
# KERNEL: UVM_INFO /home/runner/accel_sequences.sv(115) @ 862500: uvm_test_top.env.act_a.seqr@@a_stream_seq [ACT_STREAM_SEQ] Activation vector streamed
# KERNEL: UVM_INFO /home/runner/accel_axis_act_agent.sv(69) @ 867500: uvm_test_top.env.act_a.drv [ACT_DRV] Beat 1/2 sent mode=DENSE last=0
# KERNEL: UVM_INFO /home/runner/accel_scoreboard.sv(154) @ 872500: uvm_test_top.env.sco [SCO] Act vector stored â€” queue=14
# KERNEL: UVM_INFO /home/runner/accel_axis_act_agent.sv(143) @ 872500: uvm_test_top.env.act_a.mon [ACT_MON] Vector captured a0=1 a1=1 a2=1 a3=1 last=0 mode=DENSE
# KERNEL: UVM_INFO /home/runner/accel_axis_act_agent.sv(69) @ 872500: uvm_test_top.env.act_a.drv [ACT_DRV] Beat 2/2 sent mode=DENSE last=0
# KERNEL: UVM_INFO /home/runner/accel_sequences.sv(115) @ 872500: uvm_test_top.env.act_a.seqr@@a_stream_seq [ACT_STREAM_SEQ] Activation vector streamed
# KERNEL: UVM_INFO /home/runner/accel_axis_act_agent.sv(69) @ 877500: uvm_test_top.env.act_a.drv [ACT_DRV] Beat 1/2 sent mode=DENSE last=0
# KERNEL: UVM_INFO /home/runner/accel_scoreboard.sv(154) @ 882500: uvm_test_top.env.sco [SCO] Act vector stored â€” queue=15
# KERNEL: UVM_INFO /home/runner/accel_axis_act_agent.sv(143) @ 882500: uvm_test_top.env.act_a.mon [ACT_MON] Vector captured a0=1 a1=1 a2=1 a3=1 last=0 mode=DENSE
# KERNEL: UVM_INFO /home/runner/accel_axis_act_agent.sv(69) @ 882500: uvm_test_top.env.act_a.drv [ACT_DRV] Beat 2/2 sent mode=DENSE last=0
# KERNEL: UVM_INFO /home/runner/accel_sequences.sv(115) @ 882500: uvm_test_top.env.act_a.seqr@@a_stream_seq [ACT_STREAM_SEQ] Activation vector streamed
# KERNEL: UVM_INFO /home/runner/accel_axis_act_agent.sv(69) @ 887500: uvm_test_top.env.act_a.drv [ACT_DRV] Beat 1/2 sent mode=DENSE last=0
# KERNEL: UVM_INFO /home/runner/accel_scoreboard.sv(154) @ 892500: uvm_test_top.env.sco [SCO] Act vector stored â€” queue=16
# KERNEL: UVM_INFO /home/runner/accel_axis_act_agent.sv(143) @ 892500: uvm_test_top.env.act_a.mon [ACT_MON] Vector captured a0=1 a1=1 a2=1 a3=1 last=0 mode=DENSE
# KERNEL: UVM_INFO /home/runner/accel_axis_act_agent.sv(69) @ 892500: uvm_test_top.env.act_a.drv [ACT_DRV] Beat 2/2 sent mode=DENSE last=0
# KERNEL: UVM_INFO /home/runner/accel_sequences.sv(115) @ 892500: uvm_test_top.env.act_a.seqr@@a_stream_seq [ACT_STREAM_SEQ] Activation vector streamed
# KERNEL: UVM_INFO /home/runner/accel_axis_act_agent.sv(69) @ 897500: uvm_test_top.env.act_a.drv [ACT_DRV] Beat 1/2 sent mode=DENSE last=0
# KERNEL: UVM_INFO /home/runner/accel_scoreboard.sv(154) @ 902500: uvm_test_top.env.sco [SCO] Act vector stored â€” queue=17
# KERNEL: UVM_INFO /home/runner/accel_axis_act_agent.sv(143) @ 902500: uvm_test_top.env.act_a.mon [ACT_MON] Vector captured a0=1 a1=1 a2=1 a3=1 last=0 mode=DENSE
# KERNEL: UVM_INFO /home/runner/accel_axis_act_agent.sv(69) @ 902500: uvm_test_top.env.act_a.drv [ACT_DRV] Beat 2/2 sent mode=DENSE last=0
# KERNEL: UVM_INFO /home/runner/accel_sequences.sv(115) @ 902500: uvm_test_top.env.act_a.seqr@@a_stream_seq [ACT_STREAM_SEQ] Activation vector streamed
# KERNEL: UVM_INFO /home/runner/accel_axis_act_agent.sv(69) @ 907500: uvm_test_top.env.act_a.drv [ACT_DRV] Beat 1/2 sent mode=DENSE last=0
# KERNEL: UVM_INFO /home/runner/accel_scoreboard.sv(154) @ 912500: uvm_test_top.env.sco [SCO] Act vector stored â€” queue=18
# KERNEL: UVM_INFO /home/runner/accel_axis_act_agent.sv(143) @ 912500: uvm_test_top.env.act_a.mon [ACT_MON] Vector captured a0=1 a1=1 a2=1 a3=1 last=0 mode=DENSE
# KERNEL: UVM_INFO /home/runner/accel_axis_act_agent.sv(69) @ 912500: uvm_test_top.env.act_a.drv [ACT_DRV] Beat 2/2 sent mode=DENSE last=0
# KERNEL: UVM_INFO /home/runner/accel_sequences.sv(115) @ 912500: uvm_test_top.env.act_a.seqr@@a_stream_seq [ACT_STREAM_SEQ] Activation vector streamed
# KERNEL: UVM_INFO /home/runner/accel_axis_act_agent.sv(69) @ 917500: uvm_test_top.env.act_a.drv [ACT_DRV] Beat 1/2 sent mode=DENSE last=0
# KERNEL: UVM_INFO /home/runner/accel_scoreboard.sv(154) @ 922500: uvm_test_top.env.sco [SCO] Act vector stored â€” queue=19
# KERNEL: UVM_INFO /home/runner/accel_axis_act_agent.sv(143) @ 922500: uvm_test_top.env.act_a.mon [ACT_MON] Vector captured a0=1 a1=1 a2=1 a3=1 last=0 mode=DENSE
# KERNEL: UVM_INFO /home/runner/accel_axis_act_agent.sv(69) @ 922500: uvm_test_top.env.act_a.drv [ACT_DRV] Beat 2/2 sent mode=DENSE last=0
# KERNEL: UVM_INFO /home/runner/accel_sequences.sv(115) @ 922500: uvm_test_top.env.act_a.seqr@@a_stream_seq [ACT_STREAM_SEQ] Activation vector streamed
# KERNEL: UVM_INFO /home/runner/accel_axis_act_agent.sv(69) @ 927500: uvm_test_top.env.act_a.drv [ACT_DRV] Beat 1/2 sent mode=DENSE last=0
# KERNEL: UVM_INFO /home/runner/accel_scoreboard.sv(154) @ 932500: uvm_test_top.env.sco [SCO] Act vector stored â€” queue=20
# KERNEL: UVM_INFO /home/runner/accel_axis_act_agent.sv(143) @ 932500: uvm_test_top.env.act_a.mon [ACT_MON] Vector captured a0=1 a1=1 a2=1 a3=1 last=0 mode=DENSE
# KERNEL: UVM_INFO /home/runner/accel_axis_act_agent.sv(69) @ 932500: uvm_test_top.env.act_a.drv [ACT_DRV] Beat 2/2 sent mode=DENSE last=0
# KERNEL: UVM_INFO /home/runner/accel_sequences.sv(115) @ 932500: uvm_test_top.env.act_a.seqr@@a_stream_seq [ACT_STREAM_SEQ] Activation vector streamed
# KERNEL: UVM_INFO /home/runner/accel_axis_act_agent.sv(69) @ 937500: uvm_test_top.env.act_a.drv [ACT_DRV] Beat 1/2 sent mode=DENSE last=0
# KERNEL: UVM_INFO /home/runner/accel_scoreboard.sv(154) @ 942500: uvm_test_top.env.sco [SCO] Act vector stored â€” queue=21
# KERNEL: UVM_INFO /home/runner/accel_axis_act_agent.sv(143) @ 942500: uvm_test_top.env.act_a.mon [ACT_MON] Vector captured a0=1 a1=1 a2=1 a3=1 last=0 mode=DENSE
# KERNEL: UVM_INFO /home/runner/accel_axis_act_agent.sv(69) @ 942500: uvm_test_top.env.act_a.drv [ACT_DRV] Beat 2/2 sent mode=DENSE last=0
# KERNEL: UVM_INFO /home/runner/accel_sequences.sv(115) @ 942500: uvm_test_top.env.act_a.seqr@@a_stream_seq [ACT_STREAM_SEQ] Activation vector streamed
# KERNEL: UVM_INFO /home/runner/accel_axis_act_agent.sv(69) @ 947500: uvm_test_top.env.act_a.drv [ACT_DRV] Beat 1/2 sent mode=DENSE last=0
# KERNEL: UVM_INFO /home/runner/accel_scoreboard.sv(154) @ 952500: uvm_test_top.env.sco [SCO] Act vector stored â€” queue=22
# KERNEL: UVM_INFO /home/runner/accel_axis_act_agent.sv(143) @ 952500: uvm_test_top.env.act_a.mon [ACT_MON] Vector captured a0=1 a1=1 a2=1 a3=1 last=0 mode=DENSE
# KERNEL: UVM_INFO /home/runner/accel_axis_act_agent.sv(69) @ 952500: uvm_test_top.env.act_a.drv [ACT_DRV] Beat 2/2 sent mode=DENSE last=0
# KERNEL: UVM_INFO /home/runner/accel_sequences.sv(115) @ 952500: uvm_test_top.env.act_a.seqr@@a_stream_seq [ACT_STREAM_SEQ] Activation vector streamed
# KERNEL: UVM_INFO /home/runner/accel_axis_act_agent.sv(69) @ 957500: uvm_test_top.env.act_a.drv [ACT_DRV] Beat 1/2 sent mode=DENSE last=0
# KERNEL: UVM_INFO /home/runner/accel_scoreboard.sv(154) @ 962500: uvm_test_top.env.sco [SCO] Act vector stored â€” queue=23
# KERNEL: UVM_INFO /home/runner/accel_axis_act_agent.sv(143) @ 962500: uvm_test_top.env.act_a.mon [ACT_MON] Vector captured a0=1 a1=1 a2=1 a3=1 last=0 mode=DENSE
# KERNEL: UVM_INFO /home/runner/accel_axis_act_agent.sv(69) @ 962500: uvm_test_top.env.act_a.drv [ACT_DRV] Beat 2/2 sent mode=DENSE last=0
# KERNEL: UVM_INFO /home/runner/accel_sequences.sv(115) @ 962500: uvm_test_top.env.act_a.seqr@@a_stream_seq [ACT_STREAM_SEQ] Activation vector streamed
# KERNEL: UVM_INFO /home/runner/accel_axis_act_agent.sv(69) @ 967500: uvm_test_top.env.act_a.drv [ACT_DRV] Beat 1/2 sent mode=DENSE last=0
# KERNEL: UVM_INFO /home/runner/accel_scoreboard.sv(154) @ 972500: uvm_test_top.env.sco [SCO] Act vector stored â€” queue=24
# KERNEL: UVM_INFO /home/runner/accel_axis_act_agent.sv(143) @ 972500: uvm_test_top.env.act_a.mon [ACT_MON] Vector captured a0=1 a1=1 a2=1 a3=1 last=0 mode=DENSE
# KERNEL: UVM_INFO /home/runner/accel_axis_act_agent.sv(69) @ 972500: uvm_test_top.env.act_a.drv [ACT_DRV] Beat 2/2 sent mode=DENSE last=0
# KERNEL: UVM_INFO /home/runner/accel_sequences.sv(115) @ 972500: uvm_test_top.env.act_a.seqr@@a_stream_seq [ACT_STREAM_SEQ] Activation vector streamed
# KERNEL: UVM_INFO /home/runner/accel_axis_act_agent.sv(69) @ 977500: uvm_test_top.env.act_a.drv [ACT_DRV] Beat 1/2 sent mode=DENSE last=0
# KERNEL: UVM_INFO /home/runner/accel_scoreboard.sv(154) @ 982500: uvm_test_top.env.sco [SCO] Act vector stored â€” queue=25
# KERNEL: UVM_INFO /home/runner/accel_axis_act_agent.sv(143) @ 982500: uvm_test_top.env.act_a.mon [ACT_MON] Vector captured a0=1 a1=1 a2=1 a3=1 last=0 mode=DENSE
# KERNEL: UVM_INFO /home/runner/accel_axis_act_agent.sv(69) @ 982500: uvm_test_top.env.act_a.drv [ACT_DRV] Beat 2/2 sent mode=DENSE last=0
# KERNEL: UVM_INFO /home/runner/accel_sequences.sv(115) @ 982500: uvm_test_top.env.act_a.seqr@@a_stream_seq [ACT_STREAM_SEQ] Activation vector streamed
# KERNEL: UVM_INFO /home/runner/accel_axis_act_agent.sv(69) @ 987500: uvm_test_top.env.act_a.drv [ACT_DRV] Beat 1/2 sent mode=DENSE last=0
# KERNEL: UVM_INFO /home/runner/accel_scoreboard.sv(154) @ 992500: uvm_test_top.env.sco [SCO] Act vector stored â€” queue=26
# KERNEL: UVM_INFO /home/runner/accel_axis_act_agent.sv(143) @ 992500: uvm_test_top.env.act_a.mon [ACT_MON] Vector captured a0=1 a1=1 a2=1 a3=1 last=0 mode=DENSE
# KERNEL: UVM_INFO /home/runner/accel_axis_act_agent.sv(69) @ 992500: uvm_test_top.env.act_a.drv [ACT_DRV] Beat 2/2 sent mode=DENSE last=0
# KERNEL: UVM_INFO /home/runner/accel_sequences.sv(115) @ 992500: uvm_test_top.env.act_a.seqr@@a_stream_seq [ACT_STREAM_SEQ] Activation vector streamed
# KERNEL: UVM_INFO /home/runner/accel_axis_act_agent.sv(69) @ 997500: uvm_test_top.env.act_a.drv [ACT_DRV] Beat 1/2 sent mode=DENSE last=0
# KERNEL: UVM_INFO /home/runner/accel_scoreboard.sv(154) @ 1002500: uvm_test_top.env.sco [SCO] Act vector stored â€” queue=27
# KERNEL: UVM_INFO /home/runner/accel_axis_act_agent.sv(143) @ 1002500: uvm_test_top.env.act_a.mon [ACT_MON] Vector captured a0=1 a1=1 a2=1 a3=1 last=0 mode=DENSE
# KERNEL: UVM_INFO /home/runner/accel_axis_act_agent.sv(69) @ 1002500: uvm_test_top.env.act_a.drv [ACT_DRV] Beat 2/2 sent mode=DENSE last=0
# KERNEL: UVM_INFO /home/runner/accel_sequences.sv(115) @ 1002500: uvm_test_top.env.act_a.seqr@@a_stream_seq [ACT_STREAM_SEQ] Activation vector streamed
# KERNEL: UVM_INFO /home/runner/accel_axis_act_agent.sv(69) @ 1007500: uvm_test_top.env.act_a.drv [ACT_DRV] Beat 1/2 sent mode=DENSE last=0
# KERNEL: UVM_INFO /home/runner/accel_scoreboard.sv(154) @ 1012500: uvm_test_top.env.sco [SCO] Act vector stored â€” queue=28
# KERNEL: UVM_INFO /home/runner/accel_axis_act_agent.sv(143) @ 1012500: uvm_test_top.env.act_a.mon [ACT_MON] Vector captured a0=1 a1=1 a2=1 a3=1 last=0 mode=DENSE
# KERNEL: UVM_INFO /home/runner/accel_axis_act_agent.sv(69) @ 1012500: uvm_test_top.env.act_a.drv [ACT_DRV] Beat 2/2 sent mode=DENSE last=0
# KERNEL: UVM_INFO /home/runner/accel_sequences.sv(115) @ 1012500: uvm_test_top.env.act_a.seqr@@a_stream_seq [ACT_STREAM_SEQ] Activation vector streamed
# KERNEL: UVM_INFO /home/runner/accel_axis_act_agent.sv(69) @ 1017500: uvm_test_top.env.act_a.drv [ACT_DRV] Beat 1/2 sent mode=DENSE last=0
# KERNEL: UVM_INFO /home/runner/accel_scoreboard.sv(154) @ 1022500: uvm_test_top.env.sco [SCO] Act vector stored â€” queue=29
# KERNEL: UVM_INFO /home/runner/accel_axis_act_agent.sv(143) @ 1022500: uvm_test_top.env.act_a.mon [ACT_MON] Vector captured a0=1 a1=1 a2=1 a3=1 last=0 mode=DENSE
# KERNEL: UVM_INFO /home/runner/accel_axis_act_agent.sv(69) @ 1022500: uvm_test_top.env.act_a.drv [ACT_DRV] Beat 2/2 sent mode=DENSE last=0
# KERNEL: UVM_INFO /home/runner/accel_sequences.sv(115) @ 1022500: uvm_test_top.env.act_a.seqr@@a_stream_seq [ACT_STREAM_SEQ] Activation vector streamed
# KERNEL: UVM_INFO /home/runner/accel_axis_act_agent.sv(69) @ 1027500: uvm_test_top.env.act_a.drv [ACT_DRV] Beat 1/2 sent mode=DENSE last=0
# KERNEL: UVM_INFO /home/runner/accel_scoreboard.sv(154) @ 1032500: uvm_test_top.env.sco [SCO] Act vector stored â€” queue=30
# KERNEL: UVM_INFO /home/runner/accel_axis_act_agent.sv(143) @ 1032500: uvm_test_top.env.act_a.mon [ACT_MON] Vector captured a0=1 a1=1 a2=1 a3=1 last=0 mode=DENSE
# KERNEL: UVM_INFO /home/runner/accel_axis_act_agent.sv(69) @ 1032500: uvm_test_top.env.act_a.drv [ACT_DRV] Beat 2/2 sent mode=DENSE last=0
# KERNEL: UVM_INFO /home/runner/accel_sequences.sv(115) @ 1032500: uvm_test_top.env.act_a.seqr@@a_stream_seq [ACT_STREAM_SEQ] Activation vector streamed
# KERNEL: UVM_INFO /home/runner/accel_axis_act_agent.sv(69) @ 1037500: uvm_test_top.env.act_a.drv [ACT_DRV] Beat 1/2 sent mode=DENSE last=0
# KERNEL: UVM_INFO /home/runner/accel_scoreboard.sv(154) @ 1042500: uvm_test_top.env.sco [SCO] Act vector stored â€” queue=31
# KERNEL: UVM_INFO /home/runner/accel_axis_act_agent.sv(143) @ 1042500: uvm_test_top.env.act_a.mon [ACT_MON] Vector captured a0=1 a1=1 a2=1 a3=1 last=0 mode=DENSE
# KERNEL: UVM_INFO /home/runner/accel_axis_act_agent.sv(69) @ 1042500: uvm_test_top.env.act_a.drv [ACT_DRV] Beat 2/2 sent mode=DENSE last=0
# KERNEL: UVM_INFO /home/runner/accel_sequences.sv(115) @ 1042500: uvm_test_top.env.act_a.seqr@@a_stream_seq [ACT_STREAM_SEQ] Activation vector streamed
# KERNEL: UVM_INFO /home/runner/accel_axis_act_agent.sv(69) @ 1047500: uvm_test_top.env.act_a.drv [ACT_DRV] Beat 1/2 sent mode=DENSE last=0
# KERNEL: UVM_INFO /home/runner/accel_scoreboard.sv(154) @ 1052500: uvm_test_top.env.sco [SCO] Act vector stored â€” queue=32
# KERNEL: UVM_INFO /home/runner/accel_axis_act_agent.sv(143) @ 1052500: uvm_test_top.env.act_a.mon [ACT_MON] Vector captured a0=1 a1=1 a2=1 a3=1 last=0 mode=DENSE
# KERNEL: UVM_INFO /home/runner/accel_axis_act_agent.sv(69) @ 1052500: uvm_test_top.env.act_a.drv [ACT_DRV] Beat 2/2 sent mode=DENSE last=0
# KERNEL: UVM_INFO /home/runner/accel_sequences.sv(115) @ 1052500: uvm_test_top.env.act_a.seqr@@a_stream_seq [ACT_STREAM_SEQ] Activation vector streamed
# KERNEL: UVM_INFO /home/runner/accel_axis_act_agent.sv(69) @ 1057500: uvm_test_top.env.act_a.drv [ACT_DRV] Beat 1/2 sent mode=DENSE last=0
# KERNEL: UVM_INFO /home/runner/accel_scoreboard.sv(154) @ 1062500: uvm_test_top.env.sco [SCO] Act vector stored â€” queue=33
# KERNEL: UVM_INFO /home/runner/accel_axis_act_agent.sv(143) @ 1062500: uvm_test_top.env.act_a.mon [ACT_MON] Vector captured a0=1 a1=1 a2=1 a3=1 last=0 mode=DENSE
# KERNEL: UVM_INFO /home/runner/accel_axis_act_agent.sv(69) @ 1062500: uvm_test_top.env.act_a.drv [ACT_DRV] Beat 2/2 sent mode=DENSE last=0
# KERNEL: UVM_INFO /home/runner/accel_sequences.sv(115) @ 1062500: uvm_test_top.env.act_a.seqr@@a_stream_seq [ACT_STREAM_SEQ] Activation vector streamed
# KERNEL: UVM_INFO /home/runner/accel_axis_act_agent.sv(69) @ 1067500: uvm_test_top.env.act_a.drv [ACT_DRV] Beat 1/2 sent mode=DENSE last=0
# KERNEL: UVM_INFO /home/runner/accel_scoreboard.sv(154) @ 1072500: uvm_test_top.env.sco [SCO] Act vector stored â€” queue=34
# KERNEL: UVM_INFO /home/runner/accel_axis_act_agent.sv(143) @ 1072500: uvm_test_top.env.act_a.mon [ACT_MON] Vector captured a0=1 a1=1 a2=1 a3=1 last=0 mode=DENSE
# KERNEL: UVM_INFO /home/runner/accel_axis_act_agent.sv(69) @ 1072500: uvm_test_top.env.act_a.drv [ACT_DRV] Beat 2/2 sent mode=DENSE last=0
# KERNEL: UVM_INFO /home/runner/accel_sequences.sv(115) @ 1072500: uvm_test_top.env.act_a.seqr@@a_stream_seq [ACT_STREAM_SEQ] Activation vector streamed
# KERNEL: UVM_INFO /home/runner/accel_axis_act_agent.sv(69) @ 1077500: uvm_test_top.env.act_a.drv [ACT_DRV] Beat 1/2 sent mode=DENSE last=0
# KERNEL: UVM_INFO /home/runner/accel_scoreboard.sv(154) @ 1082500: uvm_test_top.env.sco [SCO] Act vector stored â€” queue=35
# KERNEL: UVM_INFO /home/runner/accel_axis_act_agent.sv(143) @ 1082500: uvm_test_top.env.act_a.mon [ACT_MON] Vector captured a0=1 a1=1 a2=1 a3=1 last=0 mode=DENSE
# KERNEL: UVM_INFO /home/runner/accel_axis_act_agent.sv(69) @ 1082500: uvm_test_top.env.act_a.drv [ACT_DRV] Beat 2/2 sent mode=DENSE last=0
# KERNEL: UVM_INFO /home/runner/accel_sequences.sv(115) @ 1082500: uvm_test_top.env.act_a.seqr@@a_stream_seq [ACT_STREAM_SEQ] Activation vector streamed
# KERNEL: UVM_INFO /home/runner/accel_axis_act_agent.sv(69) @ 1087500: uvm_test_top.env.act_a.drv [ACT_DRV] Beat 1/2 sent mode=DENSE last=0
# KERNEL: UVM_INFO /home/runner/accel_scoreboard.sv(154) @ 1092500: uvm_test_top.env.sco [SCO] Act vector stored â€” queue=36
# KERNEL: UVM_INFO /home/runner/accel_axis_act_agent.sv(143) @ 1092500: uvm_test_top.env.act_a.mon [ACT_MON] Vector captured a0=1 a1=1 a2=1 a3=1 last=0 mode=DENSE
# KERNEL: UVM_INFO /home/runner/accel_axis_act_agent.sv(69) @ 1092500: uvm_test_top.env.act_a.drv [ACT_DRV] Beat 2/2 sent mode=DENSE last=0
# KERNEL: UVM_INFO /home/runner/accel_sequences.sv(115) @ 1092500: uvm_test_top.env.act_a.seqr@@a_stream_seq [ACT_STREAM_SEQ] Activation vector streamed
# KERNEL: UVM_INFO /home/runner/accel_axis_act_agent.sv(69) @ 1097500: uvm_test_top.env.act_a.drv [ACT_DRV] Beat 1/2 sent mode=DENSE last=0
# KERNEL: UVM_INFO /home/runner/accel_axis_result_agent.sv(69) @ 1097500: uvm_test_top.env.result_a.mon [RESULT_MON] Result vector captured â€” last=0
# KERNEL: UVM_INFO /home/runner/accel_scoreboard.sv(174) @ 1097500: uvm_test_top.env.sco [SCO] Computing: w0[0]=1 w1[0]=1 a0=1 a1=1
# KERNEL: UVM_INFO /home/runner/accel_scoreboard.sv(154) @ 1102500: uvm_test_top.env.sco [SCO] Act vector stored â€” queue=36
# KERNEL: UVM_INFO /home/runner/accel_axis_act_agent.sv(143) @ 1102500: uvm_test_top.env.act_a.mon [ACT_MON] Vector captured a0=1 a1=1 a2=1 a3=1 last=0 mode=DENSE
# KERNEL: UVM_INFO /home/runner/accel_axis_act_agent.sv(69) @ 1102500: uvm_test_top.env.act_a.drv [ACT_DRV] Beat 2/2 sent mode=DENSE last=0
# KERNEL: UVM_INFO /home/runner/accel_sequences.sv(115) @ 1102500: uvm_test_top.env.act_a.seqr@@a_stream_seq [ACT_STREAM_SEQ] Activation vector streamed
# KERNEL: UVM_INFO /home/runner/accel_axis_act_agent.sv(69) @ 1107500: uvm_test_top.env.act_a.drv [ACT_DRV] Beat 1/2 sent mode=DENSE last=0
# KERNEL: UVM_INFO /home/runner/accel_scoreboard.sv(154) @ 1112500: uvm_test_top.env.sco [SCO] Act vector stored â€” queue=37
# KERNEL: UVM_INFO /home/runner/accel_axis_act_agent.sv(143) @ 1112500: uvm_test_top.env.act_a.mon [ACT_MON] Vector captured a0=1 a1=1 a2=1 a3=1 last=0 mode=DENSE
# KERNEL: UVM_INFO /home/runner/accel_axis_act_agent.sv(69) @ 1112500: uvm_test_top.env.act_a.drv [ACT_DRV] Beat 2/2 sent mode=DENSE last=0
# KERNEL: UVM_INFO /home/runner/accel_sequences.sv(115) @ 1112500: uvm_test_top.env.act_a.seqr@@a_stream_seq [ACT_STREAM_SEQ] Activation vector streamed
# KERNEL: UVM_INFO /home/runner/accel_axis_act_agent.sv(69) @ 1117500: uvm_test_top.env.act_a.drv [ACT_DRV] Beat 1/2 sent mode=DENSE last=0
# KERNEL: UVM_INFO /home/runner/accel_axis_result_agent.sv(69) @ 1117500: uvm_test_top.env.result_a.mon [RESULT_MON] Result vector captured â€” last=0
# KERNEL: UVM_INFO /home/runner/accel_scoreboard.sv(174) @ 1117500: uvm_test_top.env.sco [SCO] Computing: w0[0]=1 w1[0]=1 a0=1 a1=1
# KERNEL: UVM_INFO /home/runner/accel_scoreboard.sv(154) @ 1122500: uvm_test_top.env.sco [SCO] Act vector stored â€” queue=37
# KERNEL: UVM_INFO /home/runner/accel_axis_act_agent.sv(143) @ 1122500: uvm_test_top.env.act_a.mon [ACT_MON] Vector captured a0=1 a1=1 a2=1 a3=1 last=0 mode=DENSE
# KERNEL: UVM_INFO /home/runner/accel_axis_act_agent.sv(69) @ 1122500: uvm_test_top.env.act_a.drv [ACT_DRV] Beat 2/2 sent mode=DENSE last=0
# KERNEL: UVM_INFO /home/runner/accel_sequences.sv(115) @ 1122500: uvm_test_top.env.act_a.seqr@@a_stream_seq [ACT_STREAM_SEQ] Activation vector streamed
# KERNEL: UVM_INFO /home/runner/accel_axis_act_agent.sv(69) @ 1127500: uvm_test_top.env.act_a.drv [ACT_DRV] Beat 1/2 sent mode=DENSE last=0
# KERNEL: UVM_INFO /home/runner/accel_scoreboard.sv(154) @ 1132500: uvm_test_top.env.sco [SCO] Act vector stored â€” queue=38
# KERNEL: UVM_INFO /home/runner/accel_axis_act_agent.sv(143) @ 1132500: uvm_test_top.env.act_a.mon [ACT_MON] Vector captured a0=1 a1=1 a2=1 a3=1 last=0 mode=DENSE
# KERNEL: UVM_INFO /home/runner/accel_axis_act_agent.sv(69) @ 1132500: uvm_test_top.env.act_a.drv [ACT_DRV] Beat 2/2 sent mode=DENSE last=0
# KERNEL: UVM_INFO /home/runner/accel_sequences.sv(115) @ 1132500: uvm_test_top.env.act_a.seqr@@a_stream_seq [ACT_STREAM_SEQ] Activation vector streamed
# KERNEL: UVM_INFO /home/runner/accel_axis_act_agent.sv(69) @ 1137500: uvm_test_top.env.act_a.drv [ACT_DRV] Beat 1/2 sent mode=DENSE last=0
# KERNEL: UVM_INFO /home/runner/accel_axis_result_agent.sv(69) @ 1137500: uvm_test_top.env.result_a.mon [RESULT_MON] Result vector captured â€” last=0
# KERNEL: UVM_INFO /home/runner/accel_scoreboard.sv(174) @ 1137500: uvm_test_top.env.sco [SCO] Computing: w0[0]=1 w1[0]=1 a0=1 a1=1
# KERNEL: UVM_INFO /home/runner/accel_scoreboard.sv(154) @ 1142500: uvm_test_top.env.sco [SCO] Act vector stored â€” queue=38
# KERNEL: UVM_INFO /home/runner/accel_axis_act_agent.sv(143) @ 1142500: uvm_test_top.env.act_a.mon [ACT_MON] Vector captured a0=1 a1=1 a2=1 a3=1 last=0 mode=DENSE
# KERNEL: UVM_INFO /home/runner/accel_axis_act_agent.sv(69) @ 1142500: uvm_test_top.env.act_a.drv [ACT_DRV] Beat 2/2 sent mode=DENSE last=0
# KERNEL: UVM_INFO /home/runner/accel_sequences.sv(115) @ 1142500: uvm_test_top.env.act_a.seqr@@a_stream_seq [ACT_STREAM_SEQ] Activation vector streamed
# KERNEL: UVM_INFO /home/runner/accel_axis_act_agent.sv(69) @ 1147500: uvm_test_top.env.act_a.drv [ACT_DRV] Beat 1/2 sent mode=DENSE last=0
# KERNEL: UVM_INFO /home/runner/accel_scoreboard.sv(154) @ 1152500: uvm_test_top.env.sco [SCO] Act vector stored â€” queue=39
# KERNEL: UVM_INFO /home/runner/accel_axis_act_agent.sv(143) @ 1152500: uvm_test_top.env.act_a.mon [ACT_MON] Vector captured a0=1 a1=1 a2=1 a3=1 last=0 mode=DENSE
# KERNEL: UVM_INFO /home/runner/accel_axis_act_agent.sv(69) @ 1152500: uvm_test_top.env.act_a.drv [ACT_DRV] Beat 2/2 sent mode=DENSE last=0
# KERNEL: UVM_INFO /home/runner/accel_sequences.sv(115) @ 1152500: uvm_test_top.env.act_a.seqr@@a_stream_seq [ACT_STREAM_SEQ] Activation vector streamed
# KERNEL: UVM_INFO /home/runner/accel_axis_act_agent.sv(69) @ 1157500: uvm_test_top.env.act_a.drv [ACT_DRV] Beat 1/2 sent mode=DENSE last=0
# KERNEL: UVM_INFO /home/runner/accel_axis_result_agent.sv(69) @ 1157500: uvm_test_top.env.result_a.mon [RESULT_MON] Result vector captured â€” last=0
# KERNEL: UVM_INFO /home/runner/accel_scoreboard.sv(174) @ 1157500: uvm_test_top.env.sco [SCO] Computing: w0[0]=1 w1[0]=1 a0=1 a1=1
# KERNEL: UVM_INFO /home/runner/accel_scoreboard.sv(154) @ 1162500: uvm_test_top.env.sco [SCO] Act vector stored â€” queue=39
# KERNEL: UVM_INFO /home/runner/accel_axis_act_agent.sv(143) @ 1162500: uvm_test_top.env.act_a.mon [ACT_MON] Vector captured a0=1 a1=1 a2=1 a3=1 last=0 mode=DENSE
# KERNEL: UVM_INFO /home/runner/accel_axis_act_agent.sv(69) @ 1162500: uvm_test_top.env.act_a.drv [ACT_DRV] Beat 2/2 sent mode=DENSE last=0
# KERNEL: UVM_INFO /home/runner/accel_sequences.sv(115) @ 1162500: uvm_test_top.env.act_a.seqr@@a_stream_seq [ACT_STREAM_SEQ] Activation vector streamed
# KERNEL: UVM_INFO /home/runner/accel_axis_act_agent.sv(69) @ 1167500: uvm_test_top.env.act_a.drv [ACT_DRV] Beat 1/2 sent mode=DENSE last=0
# KERNEL: UVM_INFO /home/runner/accel_scoreboard.sv(154) @ 1172500: uvm_test_top.env.sco [SCO] Act vector stored â€” queue=40
# KERNEL: UVM_INFO /home/runner/accel_axis_act_agent.sv(143) @ 1172500: uvm_test_top.env.act_a.mon [ACT_MON] Vector captured a0=1 a1=1 a2=1 a3=1 last=0 mode=DENSE
# KERNEL: UVM_INFO /home/runner/accel_axis_act_agent.sv(69) @ 1172500: uvm_test_top.env.act_a.drv [ACT_DRV] Beat 2/2 sent mode=DENSE last=0
# KERNEL: UVM_INFO /home/runner/accel_sequences.sv(115) @ 1172500: uvm_test_top.env.act_a.seqr@@a_stream_seq [ACT_STREAM_SEQ] Activation vector streamed
# KERNEL: UVM_INFO /home/runner/accel_axis_act_agent.sv(69) @ 1177500: uvm_test_top.env.act_a.drv [ACT_DRV] Beat 1/2 sent mode=DENSE last=0
# KERNEL: UVM_INFO /home/runner/accel_axis_result_agent.sv(69) @ 1177500: uvm_test_top.env.result_a.mon [RESULT_MON] Result vector captured â€” last=0
# KERNEL: UVM_INFO /home/runner/accel_scoreboard.sv(174) @ 1177500: uvm_test_top.env.sco [SCO] Computing: w0[0]=1 w1[0]=1 a0=1 a1=1
# KERNEL: UVM_INFO /home/runner/accel_scoreboard.sv(154) @ 1182500: uvm_test_top.env.sco [SCO] Act vector stored â€” queue=40
# KERNEL: UVM_INFO /home/runner/accel_axis_act_agent.sv(143) @ 1182500: uvm_test_top.env.act_a.mon [ACT_MON] Vector captured a0=1 a1=1 a2=1 a3=1 last=0 mode=DENSE
# KERNEL: UVM_INFO /home/runner/accel_axis_act_agent.sv(69) @ 1182500: uvm_test_top.env.act_a.drv [ACT_DRV] Beat 2/2 sent mode=DENSE last=0
# KERNEL: UVM_INFO /home/runner/accel_sequences.sv(115) @ 1182500: uvm_test_top.env.act_a.seqr@@a_stream_seq [ACT_STREAM_SEQ] Activation vector streamed
# KERNEL: UVM_INFO /home/runner/accel_axis_act_agent.sv(69) @ 1187500: uvm_test_top.env.act_a.drv [ACT_DRV] Beat 1/2 sent mode=DENSE last=0
# KERNEL: UVM_INFO /home/runner/accel_scoreboard.sv(154) @ 1192500: uvm_test_top.env.sco [SCO] Act vector stored â€” queue=41
# KERNEL: UVM_INFO /home/runner/accel_axis_act_agent.sv(143) @ 1192500: uvm_test_top.env.act_a.mon [ACT_MON] Vector captured a0=1 a1=1 a2=1 a3=1 last=0 mode=DENSE
# KERNEL: UVM_INFO /home/runner/accel_axis_act_agent.sv(69) @ 1192500: uvm_test_top.env.act_a.drv [ACT_DRV] Beat 2/2 sent mode=DENSE last=0
# KERNEL: UVM_INFO /home/runner/accel_sequences.sv(115) @ 1192500: uvm_test_top.env.act_a.seqr@@a_stream_seq [ACT_STREAM_SEQ] Activation vector streamed
# KERNEL: UVM_INFO /home/runner/accel_axis_act_agent.sv(69) @ 1197500: uvm_test_top.env.act_a.drv [ACT_DRV] Beat 1/2 sent mode=DENSE last=0
# KERNEL: UVM_INFO /home/runner/accel_axis_result_agent.sv(69) @ 1197500: uvm_test_top.env.result_a.mon [RESULT_MON] Result vector captured â€” last=0
# KERNEL: UVM_INFO /home/runner/accel_scoreboard.sv(174) @ 1197500: uvm_test_top.env.sco [SCO] Computing: w0[0]=1 w1[0]=1 a0=1 a1=1
# KERNEL: UVM_INFO /home/runner/accel_scoreboard.sv(154) @ 1202500: uvm_test_top.env.sco [SCO] Act vector stored â€” queue=41
# KERNEL: UVM_INFO /home/runner/accel_axis_act_agent.sv(143) @ 1202500: uvm_test_top.env.act_a.mon [ACT_MON] Vector captured a0=1 a1=1 a2=1 a3=1 last=0 mode=DENSE
# KERNEL: UVM_INFO /home/runner/accel_axis_act_agent.sv(69) @ 1202500: uvm_test_top.env.act_a.drv [ACT_DRV] Beat 2/2 sent mode=DENSE last=0
# KERNEL: UVM_INFO /home/runner/accel_sequences.sv(115) @ 1202500: uvm_test_top.env.act_a.seqr@@a_stream_seq [ACT_STREAM_SEQ] Activation vector streamed
# KERNEL: UVM_INFO /home/runner/accel_axis_act_agent.sv(69) @ 1207500: uvm_test_top.env.act_a.drv [ACT_DRV] Beat 1/2 sent mode=DENSE last=0
# KERNEL: UVM_INFO /home/runner/accel_scoreboard.sv(154) @ 1212500: uvm_test_top.env.sco [SCO] Act vector stored â€” queue=42
# KERNEL: UVM_INFO /home/runner/accel_axis_act_agent.sv(143) @ 1212500: uvm_test_top.env.act_a.mon [ACT_MON] Vector captured a0=1 a1=1 a2=1 a3=1 last=0 mode=DENSE
# KERNEL: UVM_INFO /home/runner/accel_axis_act_agent.sv(69) @ 1212500: uvm_test_top.env.act_a.drv [ACT_DRV] Beat 2/2 sent mode=DENSE last=0
# KERNEL: UVM_INFO /home/runner/accel_sequences.sv(115) @ 1212500: uvm_test_top.env.act_a.seqr@@a_stream_seq [ACT_STREAM_SEQ] Activation vector streamed
# KERNEL: UVM_INFO /home/runner/accel_axis_act_agent.sv(69) @ 1217500: uvm_test_top.env.act_a.drv [ACT_DRV] Beat 1/2 sent mode=DENSE last=0
# KERNEL: UVM_INFO /home/runner/accel_axis_result_agent.sv(69) @ 1217500: uvm_test_top.env.result_a.mon [RESULT_MON] Result vector captured â€” last=0
# KERNEL: UVM_INFO /home/runner/accel_scoreboard.sv(174) @ 1217500: uvm_test_top.env.sco [SCO] Computing: w0[0]=1 w1[0]=1 a0=1 a1=1
# KERNEL: UVM_INFO /home/runner/accel_scoreboard.sv(154) @ 1222500: uvm_test_top.env.sco [SCO] Act vector stored â€” queue=42
# KERNEL: UVM_INFO /home/runner/accel_axis_act_agent.sv(143) @ 1222500: uvm_test_top.env.act_a.mon [ACT_MON] Vector captured a0=1 a1=1 a2=1 a3=1 last=0 mode=DENSE
# KERNEL: UVM_INFO /home/runner/accel_axis_act_agent.sv(69) @ 1222500: uvm_test_top.env.act_a.drv [ACT_DRV] Beat 2/2 sent mode=DENSE last=0
# KERNEL: UVM_INFO /home/runner/accel_sequences.sv(115) @ 1222500: uvm_test_top.env.act_a.seqr@@a_stream_seq [ACT_STREAM_SEQ] Activation vector streamed
# KERNEL: UVM_INFO /home/runner/accel_axis_act_agent.sv(69) @ 1227500: uvm_test_top.env.act_a.drv [ACT_DRV] Beat 1/2 sent mode=DENSE last=0
# KERNEL: UVM_INFO /home/runner/accel_scoreboard.sv(154) @ 1232500: uvm_test_top.env.sco [SCO] Act vector stored â€” queue=43
# KERNEL: UVM_INFO /home/runner/accel_axis_act_agent.sv(143) @ 1232500: uvm_test_top.env.act_a.mon [ACT_MON] Vector captured a0=1 a1=1 a2=1 a3=1 last=0 mode=DENSE
# KERNEL: UVM_INFO /home/runner/accel_axis_act_agent.sv(69) @ 1232500: uvm_test_top.env.act_a.drv [ACT_DRV] Beat 2/2 sent mode=DENSE last=0
# KERNEL: UVM_INFO /home/runner/accel_sequences.sv(115) @ 1232500: uvm_test_top.env.act_a.seqr@@a_stream_seq [ACT_STREAM_SEQ] Activation vector streamed
# KERNEL: UVM_INFO /home/runner/accel_axil_agent.sv(56) @ 1232500: uvm_test_top.env.axil_a.drv [axil_csr_drv] WRITE addr=0x0 data=0x8
# KERNEL: UVM_INFO /home/runner/accel_axis_result_agent.sv(69) @ 1237500: uvm_test_top.env.result_a.mon [RESULT_MON] Result vector captured â€” last=0
# KERNEL: UVM_INFO /home/runner/accel_scoreboard.sv(174) @ 1237500: uvm_test_top.env.sco [SCO] Computing: w0[0]=1 w1[0]=1 a0=1 a1=1
# KERNEL: UVM_INFO /home/runner/accel_scoreboard.sv(154) @ 1242500: uvm_test_top.env.sco [SCO] Act vector stored â€” queue=43
# KERNEL: UVM_INFO /home/runner/accel_axis_act_agent.sv(143) @ 1242500: uvm_test_top.env.act_a.mon [ACT_MON] Vector captured a0=1 a1=1 a2=1 a3=1 last=0 mode=DENSE
# KERNEL: UVM_INFO /home/runner/accel_scoreboard.sv(154) @ 1252500: uvm_test_top.env.sco [SCO] Act vector stored â€” queue=44
# KERNEL: UVM_INFO /home/runner/accel_axis_act_agent.sv(143) @ 1252500: uvm_test_top.env.act_a.mon [ACT_MON] Vector captured a0=1 a1=1 a2=1 a3=1 last=0 mode=DENSE
# KERNEL: UVM_INFO /home/runner/accel_axis_result_agent.sv(69) @ 1257500: uvm_test_top.env.result_a.mon [RESULT_MON] Result vector captured â€” last=0
# KERNEL: UVM_INFO /home/runner/accel_scoreboard.sv(174) @ 1257500: uvm_test_top.env.sco [SCO] Computing: w0[0]=1 w1[0]=1 a0=1 a1=1
# KERNEL: UVM_INFO /home/runner/accel_scoreboard.sv(109) @ 1257500: uvm_test_top.env.sco [SCO] WRITE addr=0x0 data=0x8
# KERNEL: UVM_INFO /home/runner/accel_axil_agent.sv(121) @ 1257500: uvm_test_top.env.axil_a.drv [axil_csr_drv] [CSR] Write Data transaction completed
# KERNEL: UVM_INFO /home/runner/accel_sequences.sv(31) @ 1257500: uvm_test_top.env.axil_a.seqr@@wr_seq [CSR_WRITE_SEQ] Written addr=0x0 data=0x8
# KERNEL: UVM_INFO /home/runner/base_tests.sv(204) @ 1257500: uvm_test_top [BASE_TEST] Soft reset injected at vector 50
# KERNEL: UVM_INFO /home/runner/base_tests.sv(227) @ 1257500: uvm_test_top [BASE_TEST] Waiting for DUT idle + OFIFO empty after reset...
# KERNEL: UVM_INFO /home/runner/accel_scoreboard.sv(154) @ 1262500: uvm_test_top.env.sco [SCO] Act vector stored â€” queue=44
# KERNEL: UVM_INFO /home/runner/accel_axis_act_agent.sv(143) @ 1262500: uvm_test_top.env.act_a.mon [ACT_MON] Vector captured a0=1 a1=1 a2=1 a3=1 last=0 mode=DENSE
# KERNEL: UVM_INFO /home/runner/accel_scoreboard.sv(154) @ 1272500: uvm_test_top.env.sco [SCO] Act vector stored â€” queue=45
# KERNEL: UVM_INFO /home/runner/accel_axis_act_agent.sv(143) @ 1272500: uvm_test_top.env.act_a.mon [ACT_MON] Vector captured a0=1 a1=1 a2=1 a3=1 last=0 mode=DENSE
# KERNEL: UVM_INFO /home/runner/accel_axis_result_agent.sv(69) @ 1277500: uvm_test_top.env.result_a.mon [RESULT_MON] Result vector captured â€” last=0
# KERNEL: UVM_INFO /home/runner/accel_scoreboard.sv(174) @ 1277500: uvm_test_top.env.sco [SCO] Computing: w0[0]=1 w1[0]=1 a0=1 a1=1
# KERNEL: UVM_INFO /home/runner/accel_scoreboard.sv(154) @ 1282500: uvm_test_top.env.sco [SCO] Act vector stored â€” queue=45
# KERNEL: UVM_INFO /home/runner/accel_axis_act_agent.sv(143) @ 1282500: uvm_test_top.env.act_a.mon [ACT_MON] Vector captured a0=1 a1=1 a2=1 a3=1 last=0 mode=DENSE
# KERNEL: UVM_INFO /home/runner/accel_scoreboard.sv(154) @ 1292500: uvm_test_top.env.sco [SCO] Act vector stored â€” queue=46
# KERNEL: UVM_INFO /home/runner/accel_axis_act_agent.sv(143) @ 1292500: uvm_test_top.env.act_a.mon [ACT_MON] Vector captured a0=1 a1=1 a2=1 a3=1 last=0 mode=DENSE
# KERNEL: UVM_INFO /home/runner/accel_axis_result_agent.sv(69) @ 1297500: uvm_test_top.env.result_a.mon [RESULT_MON] Result vector captured â€” last=0
# KERNEL: UVM_INFO /home/runner/accel_scoreboard.sv(174) @ 1297500: uvm_test_top.env.sco [SCO] Computing: w0[0]=1 w1[0]=1 a0=1 a1=1
# KERNEL: UVM_INFO /home/runner/accel_scoreboard.sv(154) @ 1302500: uvm_test_top.env.sco [SCO] Act vector stored â€” queue=46
# KERNEL: UVM_INFO /home/runner/accel_axis_act_agent.sv(143) @ 1302500: uvm_test_top.env.act_a.mon [ACT_MON] Vector captured a0=1 a1=1 a2=1 a3=1 last=0 mode=DENSE
# KERNEL: UVM_INFO /home/runner/accel_axil_agent.sv(90) @ 1307500: uvm_test_top.env.axil_a.drv [AXIL_DRV] READ addr=0x4
# KERNEL: UVM_INFO /home/runner/accel_scoreboard.sv(154) @ 1312500: uvm_test_top.env.sco [SCO] Act vector stored â€” queue=47
# KERNEL: UVM_INFO /home/runner/accel_axis_act_agent.sv(143) @ 1312500: uvm_test_top.env.act_a.mon [ACT_MON] Vector captured a0=1 a1=1 a2=1 a3=1 last=0 mode=DENSE
# KERNEL: UVM_INFO /home/runner/accel_axis_result_agent.sv(69) @ 1317500: uvm_test_top.env.result_a.mon [RESULT_MON] Result vector captured â€” last=0
# KERNEL: UVM_INFO /home/runner/accel_scoreboard.sv(174) @ 1317500: uvm_test_top.env.sco [SCO] Computing: w0[0]=1 w1[0]=1 a0=1 a1=1
# KERNEL: UVM_INFO /home/runner/accel_scoreboard.sv(154) @ 1322500: uvm_test_top.env.sco [SCO] Act vector stored â€” queue=47
# KERNEL: UVM_INFO /home/runner/accel_axis_act_agent.sv(143) @ 1322500: uvm_test_top.env.act_a.mon [ACT_MON] Vector captured a0=1 a1=1 a2=1 a3=1 last=0 mode=DENSE
# KERNEL: UVM_WARNING /home/runner/accel_scoreboard.sv(119) @ 1322500: uvm_test_top.env.sco [SCO] READ addr=0x4 no expected registered
# KERNEL: UVM_INFO /home/runner/accel_axil_agent.sv(126) @ 1322500: uvm_test_top.env.axil_a.drv [axil_csr_drv] [CSR] Read Data transaction completed
# KERNEL: UVM_INFO /home/runner/accel_scoreboard.sv(154) @ 1332500: uvm_test_top.env.sco [SCO] Act vector stored â€” queue=48
# KERNEL: UVM_INFO /home/runner/accel_axis_act_agent.sv(143) @ 1332500: uvm_test_top.env.act_a.mon [ACT_MON] Vector captured a0=1 a1=1 a2=1 a3=1 last=0 mode=DENSE
# KERNEL: UVM_INFO /home/runner/accel_axis_result_agent.sv(69) @ 1337500: uvm_test_top.env.result_a.mon [RESULT_MON] Result vector captured â€” last=0
# KERNEL: UVM_INFO /home/runner/accel_scoreboard.sv(174) @ 1337500: uvm_test_top.env.sco [SCO] Computing: w0[0]=1 w1[0]=1 a0=1 a1=1
# KERNEL: UVM_INFO /home/runner/accel_scoreboard.sv(154) @ 1342500: uvm_test_top.env.sco [SCO] Act vector stored â€” queue=48
# KERNEL: UVM_INFO /home/runner/accel_axis_act_agent.sv(143) @ 1342500: uvm_test_top.env.act_a.mon [ACT_MON] Vector captured a0=1 a1=1 a2=1 a3=1 last=0 mode=DENSE
# KERNEL: UVM_INFO /home/runner/accel_scoreboard.sv(154) @ 1352500: uvm_test_top.env.sco [SCO] Act vector stored â€” queue=49
# KERNEL: UVM_INFO /home/runner/accel_axis_act_agent.sv(143) @ 1352500: uvm_test_top.env.act_a.mon [ACT_MON] Vector captured a0=1 a1=1 a2=1 a3=1 last=0 mode=DENSE
# KERNEL: UVM_INFO /home/runner/accel_axis_result_agent.sv(69) @ 1357500: uvm_test_top.env.result_a.mon [RESULT_MON] Result vector captured â€” last=0
# KERNEL: UVM_INFO /home/runner/accel_scoreboard.sv(174) @ 1357500: uvm_test_top.env.sco [SCO] Computing: w0[0]=1 w1[0]=1 a0=1 a1=1
# KERNEL: UVM_INFO /home/runner/accel_scoreboard.sv(154) @ 1362500: uvm_test_top.env.sco [SCO] Act vector stored â€” queue=49
# KERNEL: UVM_INFO /home/runner/accel_axis_act_agent.sv(143) @ 1362500: uvm_test_top.env.act_a.mon [ACT_MON] Vector captured a0=1 a1=1 a2=1 a3=1 last=0 mode=DENSE
# KERNEL: UVM_INFO /home/runner/accel_scoreboard.sv(154) @ 1372500: uvm_test_top.env.sco [SCO] Act vector stored â€” queue=50
# KERNEL: UVM_INFO /home/runner/accel_axis_act_agent.sv(143) @ 1372500: uvm_test_top.env.act_a.mon [ACT_MON] Vector captured a0=1 a1=1 a2=1 a3=1 last=0 mode=DENSE
# KERNEL: UVM_INFO /home/runner/accel_axis_result_agent.sv(69) @ 1377500: uvm_test_top.env.result_a.mon [RESULT_MON] Result vector captured â€” last=0
# KERNEL: UVM_INFO /home/runner/accel_scoreboard.sv(174) @ 1377500: uvm_test_top.env.sco [SCO] Computing: w0[0]=1 w1[0]=1 a0=1 a1=1
# KERNEL: UVM_INFO /home/runner/accel_scoreboard.sv(154) @ 1382500: uvm_test_top.env.sco [SCO] Act vector stored â€” queue=50
# KERNEL: UVM_INFO /home/runner/accel_axis_act_agent.sv(143) @ 1382500: uvm_test_top.env.act_a.mon [ACT_MON] Vector captured a0=1 a1=1 a2=1 a3=1 last=0 mode=DENSE
# KERNEL: UVM_INFO /home/runner/accel_scoreboard.sv(154) @ 1392500: uvm_test_top.env.sco [SCO] Act vector stored â€” queue=51
# KERNEL: UVM_INFO /home/runner/accel_axis_act_agent.sv(143) @ 1392500: uvm_test_top.env.act_a.mon [ACT_MON] Vector captured a0=1 a1=1 a2=1 a3=1 last=0 mode=DENSE
# KERNEL: UVM_INFO /home/runner/accel_axis_result_agent.sv(69) @ 1397500: uvm_test_top.env.result_a.mon [RESULT_MON] Result vector captured â€” last=0
# KERNEL: UVM_INFO /home/runner/accel_scoreboard.sv(174) @ 1397500: uvm_test_top.env.sco [SCO] Computing: w0[0]=1 w1[0]=1 a0=1 a1=1
# KERNEL: UVM_INFO /home/runner/accel_scoreboard.sv(154) @ 1402500: uvm_test_top.env.sco [SCO] Act vector stored â€” queue=51
# KERNEL: UVM_INFO /home/runner/accel_axis_act_agent.sv(143) @ 1402500: uvm_test_top.env.act_a.mon [ACT_MON] Vector captured a0=1 a1=1 a2=1 a3=1 last=0 mode=DENSE
# KERNEL: UVM_INFO /home/runner/accel_scoreboard.sv(154) @ 1412500: uvm_test_top.env.sco [SCO] Act vector stored â€” queue=52
# KERNEL: UVM_INFO /home/runner/accel_axis_act_agent.sv(143) @ 1412500: uvm_test_top.env.act_a.mon [ACT_MON] Vector captured a0=1 a1=1 a2=1 a3=1 last=0 mode=DENSE
# KERNEL: UVM_INFO /home/runner/accel_axis_result_agent.sv(69) @ 1417500: uvm_test_top.env.result_a.mon [RESULT_MON] Result vector captured â€” last=0
# KERNEL: UVM_INFO /home/runner/accel_scoreboard.sv(174) @ 1417500: uvm_test_top.env.sco [SCO] Computing: w0[0]=1 w1[0]=1 a0=1 a1=1
# KERNEL: UVM_INFO /home/runner/accel_scoreboard.sv(154) @ 1422500: uvm_test_top.env.sco [SCO] Act vector stored â€” queue=52
# KERNEL: UVM_INFO /home/runner/accel_axis_act_agent.sv(143) @ 1422500: uvm_test_top.env.act_a.mon [ACT_MON] Vector captured a0=1 a1=1 a2=1 a3=1 last=0 mode=DENSE
# KERNEL: UVM_INFO /home/runner/accel_axil_agent.sv(90) @ 1422500: uvm_test_top.env.axil_a.drv [AXIL_DRV] READ addr=0x28
# KERNEL: UVM_INFO /home/runner/accel_scoreboard.sv(154) @ 1432500: uvm_test_top.env.sco [SCO] Act vector stored â€” queue=53
# KERNEL: UVM_INFO /home/runner/accel_axis_act_agent.sv(143) @ 1432500: uvm_test_top.env.act_a.mon [ACT_MON] Vector captured a0=1 a1=1 a2=1 a3=1 last=0 mode=DENSE
# KERNEL: UVM_INFO /home/runner/accel_axis_result_agent.sv(69) @ 1437500: uvm_test_top.env.result_a.mon [RESULT_MON] Result vector captured â€” last=0
# KERNEL: UVM_INFO /home/runner/accel_scoreboard.sv(174) @ 1437500: uvm_test_top.env.sco [SCO] Computing: w0[0]=1 w1[0]=1 a0=1 a1=1
# KERNEL: UVM_WARNING /home/runner/accel_scoreboard.sv(119) @ 1437500: uvm_test_top.env.sco [SCO] READ addr=0x28 no expected registered
# KERNEL: UVM_INFO /home/runner/accel_axil_agent.sv(126) @ 1437500: uvm_test_top.env.axil_a.drv [axil_csr_drv] [CSR] Read Data transaction completed
# KERNEL: UVM_INFO /home/runner/accel_scoreboard.sv(154) @ 1442500: uvm_test_top.env.sco [SCO] Act vector stored â€” queue=53
# KERNEL: UVM_INFO /home/runner/accel_axis_act_agent.sv(143) @ 1442500: uvm_test_top.env.act_a.mon [ACT_MON] Vector captured a0=1 a1=1 a2=1 a3=1 last=0 mode=DENSE
# KERNEL: UVM_INFO /home/runner/accel_scoreboard.sv(154) @ 1452500: uvm_test_top.env.sco [SCO] Act vector stored â€” queue=54
# KERNEL: UVM_INFO /home/runner/accel_axis_act_agent.sv(143) @ 1452500: uvm_test_top.env.act_a.mon [ACT_MON] Vector captured a0=1 a1=1 a2=1 a3=1 last=0 mode=DENSE
# KERNEL: UVM_INFO /home/runner/accel_axis_result_agent.sv(69) @ 1457500: uvm_test_top.env.result_a.mon [RESULT_MON] Result vector captured â€” last=0
# KERNEL: UVM_INFO /home/runner/accel_scoreboard.sv(174) @ 1457500: uvm_test_top.env.sco [SCO] Computing: w0[0]=1 w1[0]=1 a0=1 a1=1
# KERNEL: UVM_INFO /home/runner/accel_scoreboard.sv(154) @ 1462500: uvm_test_top.env.sco [SCO] Act vector stored â€” queue=54
# KERNEL: UVM_INFO /home/runner/accel_axis_act_agent.sv(143) @ 1462500: uvm_test_top.env.act_a.mon [ACT_MON] Vector captured a0=1 a1=1 a2=1 a3=1 last=0 mode=DENSE
# KERNEL: UVM_INFO /home/runner/accel_scoreboard.sv(154) @ 1472500: uvm_test_top.env.sco [SCO] Act vector stored â€” queue=55
# KERNEL: UVM_INFO /home/runner/accel_axis_act_agent.sv(143) @ 1472500: uvm_test_top.env.act_a.mon [ACT_MON] Vector captured a0=1 a1=1 a2=1 a3=1 last=0 mode=DENSE
# KERNEL: UVM_INFO /home/runner/accel_axis_result_agent.sv(69) @ 1477500: uvm_test_top.env.result_a.mon [RESULT_MON] Result vector captured â€” last=0
# KERNEL: UVM_INFO /home/runner/accel_scoreboard.sv(174) @ 1477500: uvm_test_top.env.sco [SCO] Computing: w0[0]=1 w1[0]=1 a0=1 a1=1
# KERNEL: UVM_INFO /home/runner/accel_scoreboard.sv(154) @ 1482500: uvm_test_top.env.sco [SCO] Act vector stored â€” queue=55
# KERNEL: UVM_INFO /home/runner/accel_axis_act_agent.sv(143) @ 1482500: uvm_test_top.env.act_a.mon [ACT_MON] Vector captured a0=1 a1=1 a2=1 a3=1 last=0 mode=DENSE
# KERNEL: UVM_INFO /home/runner/accel_axil_agent.sv(90) @ 1487500: uvm_test_top.env.axil_a.drv [AXIL_DRV] READ addr=0x28
# KERNEL: UVM_INFO /home/runner/accel_scoreboard.sv(154) @ 1492500: uvm_test_top.env.sco [SCO] Act vector stored â€” queue=56
# KERNEL: UVM_INFO /home/runner/accel_axis_act_agent.sv(143) @ 1492500: uvm_test_top.env.act_a.mon [ACT_MON] Vector captured a0=1 a1=1 a2=1 a3=1 last=0 mode=DENSE
# KERNEL: UVM_INFO /home/runner/accel_axis_result_agent.sv(69) @ 1497500: uvm_test_top.env.result_a.mon [RESULT_MON] Result vector captured â€” last=0
# KERNEL: UVM_INFO /home/runner/accel_scoreboard.sv(174) @ 1497500: uvm_test_top.env.sco [SCO] Computing: w0[0]=1 w1[0]=1 a0=1 a1=1
# KERNEL: UVM_INFO /home/runner/accel_scoreboard.sv(154) @ 1502500: uvm_test_top.env.sco [SCO] Act vector stored â€” queue=56
# KERNEL: UVM_INFO /home/runner/accel_axis_act_agent.sv(143) @ 1502500: uvm_test_top.env.act_a.mon [ACT_MON] Vector captured a0=1 a1=1 a2=1 a3=1 last=0 mode=DENSE
# KERNEL: UVM_WARNING /home/runner/accel_scoreboard.sv(119) @ 1502500: uvm_test_top.env.sco [SCO] READ addr=0x28 no expected registered
# KERNEL: UVM_INFO /home/runner/accel_axil_agent.sv(126) @ 1502500: uvm_test_top.env.axil_a.drv [axil_csr_drv] [CSR] Read Data transaction completed
# KERNEL: UVM_INFO /home/runner/accel_scoreboard.sv(154) @ 1512500: uvm_test_top.env.sco [SCO] Act vector stored â€” queue=57
# KERNEL: UVM_INFO /home/runner/accel_axis_act_agent.sv(143) @ 1512500: uvm_test_top.env.act_a.mon [ACT_MON] Vector captured a0=1 a1=1 a2=1 a3=1 last=0 mode=DENSE
# KERNEL: UVM_INFO /home/runner/accel_axis_result_agent.sv(69) @ 1517500: uvm_test_top.env.result_a.mon [RESULT_MON] Result vector captured â€” last=0
# KERNEL: UVM_INFO /home/runner/accel_scoreboard.sv(174) @ 1517500: uvm_test_top.env.sco [SCO] Computing: w0[0]=1 w1[0]=1 a0=1 a1=1
# KERNEL: UVM_INFO /home/runner/accel_scoreboard.sv(154) @ 1522500: uvm_test_top.env.sco [SCO] Act vector stored â€” queue=57
# KERNEL: UVM_INFO /home/runner/accel_axis_act_agent.sv(143) @ 1522500: uvm_test_top.env.act_a.mon [ACT_MON] Vector captured a0=1 a1=1 a2=1 a3=1 last=0 mode=DENSE
# KERNEL: UVM_INFO /home/runner/accel_scoreboard.sv(154) @ 1532500: uvm_test_top.env.sco [SCO] Act vector stored â€” queue=58
# KERNEL: UVM_INFO /home/runner/accel_axis_act_agent.sv(143) @ 1532500: uvm_test_top.env.act_a.mon [ACT_MON] Vector captured a0=1 a1=1 a2=1 a3=1 last=0 mode=DENSE
# KERNEL: UVM_INFO /home/runner/accel_axis_result_agent.sv(69) @ 1537500: uvm_test_top.env.result_a.mon [RESULT_MON] Result vector captured â€” last=0
# KERNEL: UVM_INFO /home/runner/accel_scoreboard.sv(174) @ 1537500: uvm_test_top.env.sco [SCO] Computing: w0[0]=1 w1[0]=1 a0=1 a1=1
# KERNEL: UVM_INFO /home/runner/accel_scoreboard.sv(154) @ 1542500: uvm_test_top.env.sco [SCO] Act vector stored â€” queue=58
# KERNEL: UVM_INFO /home/runner/accel_axis_act_agent.sv(143) @ 1542500: uvm_test_top.env.act_a.mon [ACT_MON] Vector captured a0=1 a1=1 a2=1 a3=1 last=0 mode=DENSE
# KERNEL: UVM_INFO /home/runner/accel_scoreboard.sv(154) @ 1552500: uvm_test_top.env.sco [SCO] Act vector stored â€” queue=59
# KERNEL: UVM_INFO /home/runner/accel_axis_act_agent.sv(143) @ 1552500: uvm_test_top.env.act_a.mon [ACT_MON] Vector captured a0=1 a1=1 a2=1 a3=1 last=0 mode=DENSE
# KERNEL: UVM_INFO /home/runner/accel_axil_agent.sv(90) @ 1552500: uvm_test_top.env.axil_a.drv [AXIL_DRV] READ addr=0x28
# KERNEL: UVM_INFO /home/runner/accel_axis_result_agent.sv(69) @ 1557500: uvm_test_top.env.result_a.mon [RESULT_MON] Result vector captured â€” last=0
# KERNEL: UVM_INFO /home/runner/accel_scoreboard.sv(174) @ 1557500: uvm_test_top.env.sco [SCO] Computing: w0[0]=1 w1[0]=1 a0=1 a1=1
# KERNEL: UVM_INFO /home/runner/accel_scoreboard.sv(154) @ 1562500: uvm_test_top.env.sco [SCO] Act vector stored â€” queue=59
# KERNEL: UVM_INFO /home/runner/accel_axis_act_agent.sv(143) @ 1562500: uvm_test_top.env.act_a.mon [ACT_MON] Vector captured a0=1 a1=1 a2=1 a3=1 last=0 mode=DENSE
# KERNEL: UVM_WARNING /home/runner/accel_scoreboard.sv(119) @ 1567500: uvm_test_top.env.sco [SCO] READ addr=0x28 no expected registered
# KERNEL: UVM_INFO /home/runner/accel_axil_agent.sv(126) @ 1567500: uvm_test_top.env.axil_a.drv [axil_csr_drv] [CSR] Read Data transaction completed
# KERNEL: UVM_INFO /home/runner/accel_scoreboard.sv(154) @ 1572500: uvm_test_top.env.sco [SCO] Act vector stored â€” queue=60
# KERNEL: UVM_INFO /home/runner/accel_axis_act_agent.sv(143) @ 1572500: uvm_test_top.env.act_a.mon [ACT_MON] Vector captured a0=1 a1=1 a2=1 a3=1 last=0 mode=DENSE
# KERNEL: UVM_INFO /home/runner/accel_axis_result_agent.sv(69) @ 1577500: uvm_test_top.env.result_a.mon [RESULT_MON] Result vector captured â€” last=0
# KERNEL: UVM_INFO /home/runner/accel_scoreboard.sv(174) @ 1577500: uvm_test_top.env.sco [SCO] Computing: w0[0]=1 w1[0]=1 a0=1 a1=1
# KERNEL: UVM_INFO /home/runner/accel_scoreboard.sv(154) @ 1582500: uvm_test_top.env.sco [SCO] Act vector stored â€” queue=60
# KERNEL: UVM_INFO /home/runner/accel_axis_act_agent.sv(143) @ 1582500: uvm_test_top.env.act_a.mon [ACT_MON] Vector captured a0=1 a1=1 a2=1 a3=1 last=0 mode=DENSE
# KERNEL: UVM_INFO /home/runner/accel_scoreboard.sv(154) @ 1592500: uvm_test_top.env.sco [SCO] Act vector stored â€” queue=61
# KERNEL: UVM_INFO /home/runner/accel_axis_act_agent.sv(143) @ 1592500: uvm_test_top.env.act_a.mon [ACT_MON] Vector captured a0=1 a1=1 a2=1 a3=1 last=0 mode=DENSE
# KERNEL: UVM_INFO /home/runner/accel_axis_result_agent.sv(69) @ 1597500: uvm_test_top.env.result_a.mon [RESULT_MON] Result vector captured â€” last=0
# KERNEL: UVM_INFO /home/runner/accel_scoreboard.sv(174) @ 1597500: uvm_test_top.env.sco [SCO] Computing: w0[0]=1 w1[0]=1 a0=1 a1=1
# KERNEL: UVM_INFO /home/runner/accel_scoreboard.sv(154) @ 1602500: uvm_test_top.env.sco [SCO] Act vector stored â€” queue=61
# KERNEL: UVM_INFO /home/runner/accel_axis_act_agent.sv(143) @ 1602500: uvm_test_top.env.act_a.mon [ACT_MON] Vector captured a0=1 a1=1 a2=1 a3=1 last=0 mode=DENSE
# KERNEL: UVM_INFO /home/runner/accel_scoreboard.sv(154) @ 1612500: uvm_test_top.env.sco [SCO] Act vector stored â€” queue=62
# KERNEL: UVM_INFO /home/runner/accel_axis_act_agent.sv(143) @ 1612500: uvm_test_top.env.act_a.mon [ACT_MON] Vector captured a0=1 a1=1 a2=1 a3=1 last=0 mode=DENSE
# KERNEL: UVM_INFO /home/runner/accel_axis_result_agent.sv(69) @ 1617500: uvm_test_top.env.result_a.mon [RESULT_MON] Result vector captured â€” last=0
# KERNEL: UVM_INFO /home/runner/accel_scoreboard.sv(174) @ 1617500: uvm_test_top.env.sco [SCO] Computing: w0[0]=1 w1[0]=1 a0=1 a1=1
# KERNEL: UVM_INFO /home/runner/accel_axil_agent.sv(90) @ 1617500: uvm_test_top.env.axil_a.drv [AXIL_DRV] READ addr=0x28
# KERNEL: UVM_INFO /home/runner/accel_scoreboard.sv(154) @ 1622500: uvm_test_top.env.sco [SCO] Act vector stored â€” queue=62
# KERNEL: UVM_INFO /home/runner/accel_axis_act_agent.sv(143) @ 1622500: uvm_test_top.env.act_a.mon [ACT_MON] Vector captured a0=1 a1=1 a2=1 a3=1 last=0 mode=DENSE
# KERNEL: UVM_INFO /home/runner/accel_scoreboard.sv(154) @ 1632500: uvm_test_top.env.sco [SCO] Act vector stored â€” queue=63
# KERNEL: UVM_INFO /home/runner/accel_axis_act_agent.sv(143) @ 1632500: uvm_test_top.env.act_a.mon [ACT_MON] Vector captured a0=1 a1=1 a2=1 a3=1 last=0 mode=DENSE
# KERNEL: UVM_WARNING /home/runner/accel_scoreboard.sv(119) @ 1632500: uvm_test_top.env.sco [SCO] READ addr=0x28 no expected registered
# KERNEL: UVM_INFO /home/runner/accel_axil_agent.sv(126) @ 1632500: uvm_test_top.env.axil_a.drv [axil_csr_drv] [CSR] Read Data transaction completed
# KERNEL: UVM_INFO /home/runner/accel_axis_result_agent.sv(69) @ 1637500: uvm_test_top.env.result_a.mon [RESULT_MON] Result vector captured â€” last=0
# KERNEL: UVM_INFO /home/runner/accel_scoreboard.sv(174) @ 1637500: uvm_test_top.env.sco [SCO] Computing: w0[0]=1 w1[0]=1 a0=1 a1=1
# KERNEL: UVM_INFO /home/runner/accel_scoreboard.sv(154) @ 1642500: uvm_test_top.env.sco [SCO] Act vector stored â€” queue=63
# KERNEL: UVM_INFO /home/runner/accel_axis_act_agent.sv(143) @ 1642500: uvm_test_top.env.act_a.mon [ACT_MON] Vector captured a0=1 a1=1 a2=1 a3=1 last=0 mode=DENSE
# KERNEL: UVM_INFO /home/runner/accel_scoreboard.sv(154) @ 1652500: uvm_test_top.env.sco [SCO] Act vector stored â€” queue=64
# KERNEL: UVM_INFO /home/runner/accel_axis_act_agent.sv(143) @ 1652500: uvm_test_top.env.act_a.mon [ACT_MON] Vector captured a0=1 a1=1 a2=1 a3=1 last=0 mode=DENSE
# KERNEL: UVM_INFO /home/runner/accel_axis_result_agent.sv(69) @ 1657500: uvm_test_top.env.result_a.mon [RESULT_MON] Result vector captured â€” last=0
# KERNEL: UVM_INFO /home/runner/accel_scoreboard.sv(174) @ 1657500: uvm_test_top.env.sco [SCO] Computing: w0[0]=1 w1[0]=1 a0=1 a1=1
# KERNEL: UVM_INFO /home/runner/accel_scoreboard.sv(154) @ 1662500: uvm_test_top.env.sco [SCO] Act vector stored â€” queue=64
# KERNEL: UVM_INFO /home/runner/accel_axis_act_agent.sv(143) @ 1662500: uvm_test_top.env.act_a.mon [ACT_MON] Vector captured a0=1 a1=1 a2=1 a3=1 last=0 mode=DENSE
# KERNEL: UVM_INFO /home/runner/accel_scoreboard.sv(154) @ 1672500: uvm_test_top.env.sco [SCO] Act vector stored â€” queue=65
# KERNEL: UVM_INFO /home/runner/accel_axis_act_agent.sv(143) @ 1672500: uvm_test_top.env.act_a.mon [ACT_MON] Vector captured a0=1 a1=1 a2=1 a3=1 last=0 mode=DENSE
# KERNEL: UVM_INFO /home/runner/accel_axis_result_agent.sv(69) @ 1677500: uvm_test_top.env.result_a.mon [RESULT_MON] Result vector captured â€” last=0
# KERNEL: UVM_INFO /home/runner/accel_scoreboard.sv(174) @ 1677500: uvm_test_top.env.sco [SCO] Computing: w0[0]=1 w1[0]=1 a0=1 a1=1
# KERNEL: UVM_INFO /home/runner/accel_scoreboard.sv(154) @ 1682500: uvm_test_top.env.sco [SCO] Act vector stored â€” queue=65
# KERNEL: UVM_INFO /home/runner/accel_axis_act_agent.sv(143) @ 1682500: uvm_test_top.env.act_a.mon [ACT_MON] Vector captured a0=1 a1=1 a2=1 a3=1 last=0 mode=DENSE
# KERNEL: UVM_INFO /home/runner/accel_axil_agent.sv(90) @ 1682500: uvm_test_top.env.axil_a.drv [AXIL_DRV] READ addr=0x28
# KERNEL: UVM_INFO /home/runner/accel_scoreboard.sv(154) @ 1692500: uvm_test_top.env.sco [SCO] Act vector stored â€” queue=66
# KERNEL: UVM_INFO /home/runner/accel_axis_act_agent.sv(143) @ 1692500: uvm_test_top.env.act_a.mon [ACT_MON] Vector captured a0=1 a1=1 a2=1 a3=1 last=0 mode=DENSE
# KERNEL: UVM_INFO /home/runner/accel_axis_result_agent.sv(69) @ 1697500: uvm_test_top.env.result_a.mon [RESULT_MON] Result vector captured â€” last=0
# KERNEL: UVM_INFO /home/runner/accel_scoreboard.sv(174) @ 1697500: uvm_test_top.env.sco [SCO] Computing: w0[0]=1 w1[0]=1 a0=1 a1=1
# KERNEL: UVM_WARNING /home/runner/accel_scoreboard.sv(119) @ 1697500: uvm_test_top.env.sco [SCO] READ addr=0x28 no expected registered
# KERNEL: UVM_INFO /home/runner/accel_axil_agent.sv(126) @ 1697500: uvm_test_top.env.axil_a.drv [axil_csr_drv] [CSR] Read Data transaction completed
# KERNEL: UVM_INFO /home/runner/accel_scoreboard.sv(154) @ 1702500: uvm_test_top.env.sco [SCO] Act vector stored â€” queue=66
# KERNEL: UVM_INFO /home/runner/accel_axis_act_agent.sv(143) @ 1702500: uvm_test_top.env.act_a.mon [ACT_MON] Vector captured a0=1 a1=1 a2=1 a3=1 last=0 mode=DENSE
# KERNEL: UVM_INFO /home/runner/accel_scoreboard.sv(154) @ 1712500: uvm_test_top.env.sco [SCO] Act vector stored â€” queue=67
# KERNEL: UVM_INFO /home/runner/accel_axis_act_agent.sv(143) @ 1712500: uvm_test_top.env.act_a.mon [ACT_MON] Vector captured a0=1 a1=1 a2=1 a3=1 last=0 mode=DENSE
# KERNEL: UVM_INFO /home/runner/accel_axis_result_agent.sv(69) @ 1717500: uvm_test_top.env.result_a.mon [RESULT_MON] Result vector captured â€” last=0
# KERNEL: UVM_INFO /home/runner/accel_scoreboard.sv(174) @ 1717500: uvm_test_top.env.sco [SCO] Computing: w0[0]=1 w1[0]=1 a0=1 a1=1
# KERNEL: UVM_INFO /home/runner/accel_scoreboard.sv(154) @ 1722500: uvm_test_top.env.sco [SCO] Act vector stored â€” queue=67
# KERNEL: UVM_INFO /home/runner/accel_axis_act_agent.sv(143) @ 1722500: uvm_test_top.env.act_a.mon [ACT_MON] Vector captured a0=1 a1=1 a2=1 a3=1 last=0 mode=DENSE
# KERNEL: UVM_INFO /home/runner/accel_scoreboard.sv(154) @ 1732500: uvm_test_top.env.sco [SCO] Act vector stored â€” queue=68
# KERNEL: UVM_INFO /home/runner/accel_axis_act_agent.sv(143) @ 1732500: uvm_test_top.env.act_a.mon [ACT_MON] Vector captured a0=1 a1=1 a2=1 a3=1 last=0 mode=DENSE
# KERNEL: UVM_INFO /home/runner/accel_axis_result_agent.sv(69) @ 1737500: uvm_test_top.env.result_a.mon [RESULT_MON] Result vector captured â€” last=0
# KERNEL: UVM_INFO /home/runner/accel_scoreboard.sv(174) @ 1737500: uvm_test_top.env.sco [SCO] Computing: w0[0]=1 w1[0]=1 a0=1 a1=1
# KERNEL: UVM_INFO /home/runner/accel_axil_agent.sv(90) @ 1747500: uvm_test_top.env.axil_a.drv [AXIL_DRV] READ addr=0x28
# KERNEL: UVM_INFO /home/runner/accel_axis_result_agent.sv(69) @ 1757500: uvm_test_top.env.result_a.mon [RESULT_MON] Result vector captured â€” last=0
# KERNEL: UVM_INFO /home/runner/accel_scoreboard.sv(174) @ 1757500: uvm_test_top.env.sco [SCO] Computing: w0[0]=1 w1[0]=1 a0=1 a1=1
# KERNEL: UVM_WARNING /home/runner/accel_scoreboard.sv(119) @ 1762500: uvm_test_top.env.sco [SCO] READ addr=0x28 no expected registered
# KERNEL: UVM_INFO /home/runner/accel_axil_agent.sv(126) @ 1762500: uvm_test_top.env.axil_a.drv [axil_csr_drv] [CSR] Read Data transaction completed
# KERNEL: UVM_INFO /home/runner/accel_axis_result_agent.sv(69) @ 1777500: uvm_test_top.env.result_a.mon [RESULT_MON] Result vector captured â€” last=0
# KERNEL: UVM_INFO /home/runner/accel_scoreboard.sv(174) @ 1777500: uvm_test_top.env.sco [SCO] Computing: w0[0]=1 w1[0]=1 a0=1 a1=1
# KERNEL: UVM_INFO /home/runner/accel_axis_result_agent.sv(69) @ 1797500: uvm_test_top.env.result_a.mon [RESULT_MON] Result vector captured â€” last=0
# KERNEL: UVM_INFO /home/runner/accel_scoreboard.sv(174) @ 1797500: uvm_test_top.env.sco [SCO] Computing: w0[0]=1 w1[0]=1 a0=1 a1=1
# KERNEL: UVM_INFO /home/runner/accel_axil_agent.sv(90) @ 1812500: uvm_test_top.env.axil_a.drv [AXIL_DRV] READ addr=0x28
# KERNEL: UVM_INFO /home/runner/accel_axis_result_agent.sv(69) @ 1817500: uvm_test_top.env.result_a.mon [RESULT_MON] Result vector captured â€” last=0
# KERNEL: UVM_INFO /home/runner/accel_scoreboard.sv(174) @ 1817500: uvm_test_top.env.sco [SCO] Computing: w0[0]=1 w1[0]=1 a0=1 a1=1
# KERNEL: UVM_WARNING /home/runner/accel_scoreboard.sv(119) @ 1827500: uvm_test_top.env.sco [SCO] READ addr=0x28 no expected registered
# KERNEL: UVM_INFO /home/runner/accel_axil_agent.sv(126) @ 1827500: uvm_test_top.env.axil_a.drv [axil_csr_drv] [CSR] Read Data transaction completed
# KERNEL: UVM_INFO /home/runner/accel_axis_result_agent.sv(69) @ 1837500: uvm_test_top.env.result_a.mon [RESULT_MON] Result vector captured â€” last=0
# KERNEL: UVM_INFO /home/runner/accel_scoreboard.sv(174) @ 1837500: uvm_test_top.env.sco [SCO] Computing: w0[0]=1 w1[0]=1 a0=1 a1=1
# KERNEL: UVM_INFO /home/runner/accel_axis_result_agent.sv(69) @ 1857500: uvm_test_top.env.result_a.mon [RESULT_MON] Result vector captured â€” last=0
# KERNEL: UVM_INFO /home/runner/accel_scoreboard.sv(174) @ 1857500: uvm_test_top.env.sco [SCO] Computing: w0[0]=1 w1[0]=1 a0=1 a1=1
# KERNEL: UVM_INFO /home/runner/accel_axis_result_agent.sv(69) @ 1877500: uvm_test_top.env.result_a.mon [RESULT_MON] Result vector captured â€” last=0
# KERNEL: UVM_INFO /home/runner/accel_scoreboard.sv(174) @ 1877500: uvm_test_top.env.sco [SCO] Computing: w0[0]=1 w1[0]=1 a0=1 a1=1
# KERNEL: UVM_INFO /home/runner/accel_axil_agent.sv(90) @ 1877500: uvm_test_top.env.axil_a.drv [AXIL_DRV] READ addr=0x28
# KERNEL: UVM_WARNING /home/runner/accel_scoreboard.sv(119) @ 1892500: uvm_test_top.env.sco [SCO] READ addr=0x28 no expected registered
# KERNEL: UVM_INFO /home/runner/accel_axil_agent.sv(126) @ 1892500: uvm_test_top.env.axil_a.drv [axil_csr_drv] [CSR] Read Data transaction completed
# KERNEL: UVM_INFO /home/runner/accel_axis_result_agent.sv(69) @ 1897500: uvm_test_top.env.result_a.mon [RESULT_MON] Result vector captured â€” last=0
# KERNEL: UVM_INFO /home/runner/accel_scoreboard.sv(174) @ 1897500: uvm_test_top.env.sco [SCO] Computing: w0[0]=1 w1[0]=1 a0=1 a1=1
# KERNEL: UVM_INFO /home/runner/accel_axis_result_agent.sv(69) @ 1917500: uvm_test_top.env.result_a.mon [RESULT_MON] Result vector captured â€” last=0
# KERNEL: UVM_INFO /home/runner/accel_scoreboard.sv(174) @ 1917500: uvm_test_top.env.sco [SCO] Computing: w0[0]=1 w1[0]=1 a0=1 a1=1
# KERNEL: UVM_INFO /home/runner/accel_axis_result_agent.sv(69) @ 1937500: uvm_test_top.env.result_a.mon [RESULT_MON] Result vector captured â€” last=0
# KERNEL: UVM_INFO /home/runner/accel_scoreboard.sv(174) @ 1937500: uvm_test_top.env.sco [SCO] Computing: w0[0]=1 w1[0]=1 a0=1 a1=1
# KERNEL: UVM_INFO /home/runner/accel_axil_agent.sv(90) @ 1942500: uvm_test_top.env.axil_a.drv [AXIL_DRV] READ addr=0x28
# KERNEL: UVM_INFO /home/runner/accel_axis_result_agent.sv(69) @ 1957500: uvm_test_top.env.result_a.mon [RESULT_MON] Result vector captured â€” last=0
# KERNEL: UVM_INFO /home/runner/accel_scoreboard.sv(174) @ 1957500: uvm_test_top.env.sco [SCO] Computing: w0[0]=1 w1[0]=1 a0=1 a1=1
# KERNEL: UVM_WARNING /home/runner/accel_scoreboard.sv(119) @ 1957500: uvm_test_top.env.sco [SCO] READ addr=0x28 no expected registered
# KERNEL: UVM_INFO /home/runner/accel_axil_agent.sv(126) @ 1957500: uvm_test_top.env.axil_a.drv [axil_csr_drv] [CSR] Read Data transaction completed
# KERNEL: UVM_INFO /home/runner/accel_axis_result_agent.sv(69) @ 1977500: uvm_test_top.env.result_a.mon [RESULT_MON] Result vector captured â€” last=0
# KERNEL: UVM_INFO /home/runner/accel_scoreboard.sv(174) @ 1977500: uvm_test_top.env.sco [SCO] Computing: w0[0]=1 w1[0]=1 a0=1 a1=1
# KERNEL: UVM_INFO /home/runner/accel_axis_result_agent.sv(69) @ 1997500: uvm_test_top.env.result_a.mon [RESULT_MON] Result vector captured â€” last=0
# KERNEL: UVM_INFO /home/runner/accel_scoreboard.sv(174) @ 1997500: uvm_test_top.env.sco [SCO] Computing: w0[0]=1 w1[0]=1 a0=1 a1=1
# KERNEL: UVM_INFO /home/runner/accel_axil_agent.sv(90) @ 2007500: uvm_test_top.env.axil_a.drv [AXIL_DRV] READ addr=0x28
# KERNEL: UVM_INFO /home/runner/accel_axis_result_agent.sv(69) @ 2017500: uvm_test_top.env.result_a.mon [RESULT_MON] Result vector captured â€” last=0
# KERNEL: UVM_INFO /home/runner/accel_scoreboard.sv(174) @ 2017500: uvm_test_top.env.sco [SCO] Computing: w0[0]=1 w1[0]=1 a0=1 a1=1
# KERNEL: UVM_WARNING /home/runner/accel_scoreboard.sv(119) @ 2022500: uvm_test_top.env.sco [SCO] READ addr=0x28 no expected registered
# KERNEL: UVM_INFO /home/runner/accel_axil_agent.sv(126) @ 2022500: uvm_test_top.env.axil_a.drv [axil_csr_drv] [CSR] Read Data transaction completed
# KERNEL: UVM_INFO /home/runner/accel_axis_result_agent.sv(69) @ 2037500: uvm_test_top.env.result_a.mon [RESULT_MON] Result vector captured â€” last=0
# KERNEL: UVM_INFO /home/runner/accel_scoreboard.sv(174) @ 2037500: uvm_test_top.env.sco [SCO] Computing: w0[0]=1 w1[0]=1 a0=1 a1=1
# KERNEL: UVM_INFO /home/runner/accel_axis_result_agent.sv(69) @ 2057500: uvm_test_top.env.result_a.mon [RESULT_MON] Result vector captured â€” last=0
# KERNEL: UVM_INFO /home/runner/accel_scoreboard.sv(174) @ 2057500: uvm_test_top.env.sco [SCO] Computing: w0[0]=1 w1[0]=1 a0=1 a1=1
# KERNEL: UVM_INFO /home/runner/accel_axil_agent.sv(90) @ 2072500: uvm_test_top.env.axil_a.drv [AXIL_DRV] READ addr=0x28
# KERNEL: UVM_INFO /home/runner/accel_axis_result_agent.sv(69) @ 2077500: uvm_test_top.env.result_a.mon [RESULT_MON] Result vector captured â€” last=0
# KERNEL: UVM_INFO /home/runner/accel_scoreboard.sv(174) @ 2077500: uvm_test_top.env.sco [SCO] Computing: w0[0]=1 w1[0]=1 a0=1 a1=1
# KERNEL: UVM_WARNING /home/runner/accel_scoreboard.sv(119) @ 2087500: uvm_test_top.env.sco [SCO] READ addr=0x28 no expected registered
# KERNEL: UVM_INFO /home/runner/accel_axil_agent.sv(126) @ 2087500: uvm_test_top.env.axil_a.drv [axil_csr_drv] [CSR] Read Data transaction completed
# KERNEL: UVM_INFO /home/runner/accel_axis_result_agent.sv(69) @ 2097500: uvm_test_top.env.result_a.mon [RESULT_MON] Result vector captured â€” last=0
# KERNEL: UVM_INFO /home/runner/accel_scoreboard.sv(174) @ 2097500: uvm_test_top.env.sco [SCO] Computing: w0[0]=1 w1[0]=1 a0=1 a1=1
# KERNEL: UVM_INFO /home/runner/accel_axis_result_agent.sv(69) @ 2117500: uvm_test_top.env.result_a.mon [RESULT_MON] Result vector captured â€” last=0
# KERNEL: UVM_INFO /home/runner/accel_scoreboard.sv(174) @ 2117500: uvm_test_top.env.sco [SCO] Computing: w0[0]=1 w1[0]=1 a0=1 a1=1
# KERNEL: UVM_INFO /home/runner/accel_axis_result_agent.sv(69) @ 2137500: uvm_test_top.env.result_a.mon [RESULT_MON] Result vector captured â€” last=0
# KERNEL: UVM_INFO /home/runner/accel_scoreboard.sv(174) @ 2137500: uvm_test_top.env.sco [SCO] Computing: w0[0]=1 w1[0]=1 a0=1 a1=1
# KERNEL: UVM_INFO /home/runner/accel_axil_agent.sv(90) @ 2137500: uvm_test_top.env.axil_a.drv [AXIL_DRV] READ addr=0x28
# KERNEL: UVM_WARNING /home/runner/accel_scoreboard.sv(119) @ 2152500: uvm_test_top.env.sco [SCO] READ addr=0x28 no expected registered
# KERNEL: UVM_INFO /home/runner/accel_axil_agent.sv(126) @ 2152500: uvm_test_top.env.axil_a.drv [axil_csr_drv] [CSR] Read Data transaction completed
# KERNEL: UVM_INFO /home/runner/accel_axis_result_agent.sv(69) @ 2157500: uvm_test_top.env.result_a.mon [RESULT_MON] Result vector captured â€” last=0
# KERNEL: UVM_INFO /home/runner/accel_scoreboard.sv(174) @ 2157500: uvm_test_top.env.sco [SCO] Computing: w0[0]=1 w1[0]=1 a0=1 a1=1
# KERNEL: UVM_INFO /home/runner/accel_axis_result_agent.sv(69) @ 2177500: uvm_test_top.env.result_a.mon [RESULT_MON] Result vector captured â€” last=0
# KERNEL: UVM_INFO /home/runner/accel_scoreboard.sv(174) @ 2177500: uvm_test_top.env.sco [SCO] Computing: w0[0]=1 w1[0]=1 a0=1 a1=1
# KERNEL: UVM_INFO /home/runner/accel_axis_result_agent.sv(69) @ 2197500: uvm_test_top.env.result_a.mon [RESULT_MON] Result vector captured â€” last=0
# KERNEL: UVM_INFO /home/runner/accel_scoreboard.sv(174) @ 2197500: uvm_test_top.env.sco [SCO] Computing: w0[0]=1 w1[0]=1 a0=1 a1=1
# KERNEL: UVM_INFO /home/runner/accel_axil_agent.sv(90) @ 2202500: uvm_test_top.env.axil_a.drv [AXIL_DRV] READ addr=0x28
# KERNEL: UVM_INFO /home/runner/accel_axis_result_agent.sv(69) @ 2217500: uvm_test_top.env.result_a.mon [RESULT_MON] Result vector captured â€” last=0
# KERNEL: UVM_INFO /home/runner/accel_scoreboard.sv(174) @ 2217500: uvm_test_top.env.sco [SCO] Computing: w0[0]=1 w1[0]=1 a0=1 a1=1
# KERNEL: UVM_WARNING /home/runner/accel_scoreboard.sv(119) @ 2217500: uvm_test_top.env.sco [SCO] READ addr=0x28 no expected registered
# KERNEL: UVM_INFO /home/runner/accel_axil_agent.sv(126) @ 2217500: uvm_test_top.env.axil_a.drv [axil_csr_drv] [CSR] Read Data transaction completed
# KERNEL: UVM_INFO /home/runner/accel_axis_result_agent.sv(69) @ 2237500: uvm_test_top.env.result_a.mon [RESULT_MON] Result vector captured â€” last=0
# KERNEL: UVM_INFO /home/runner/accel_scoreboard.sv(174) @ 2237500: uvm_test_top.env.sco [SCO] Computing: w0[0]=1 w1[0]=1 a0=1 a1=1
# KERNEL: UVM_INFO /home/runner/accel_axis_result_agent.sv(69) @ 2257500: uvm_test_top.env.result_a.mon [RESULT_MON] Result vector captured â€” last=0
# KERNEL: UVM_INFO /home/runner/accel_scoreboard.sv(174) @ 2257500: uvm_test_top.env.sco [SCO] Computing: w0[0]=1 w1[0]=1 a0=1 a1=1
# KERNEL: UVM_INFO /home/runner/accel_axil_agent.sv(90) @ 2267500: uvm_test_top.env.axil_a.drv [AXIL_DRV] READ addr=0x28
# KERNEL: UVM_INFO /home/runner/accel_axis_result_agent.sv(69) @ 2277500: uvm_test_top.env.result_a.mon [RESULT_MON] Result vector captured â€” last=0
# KERNEL: UVM_INFO /home/runner/accel_scoreboard.sv(174) @ 2277500: uvm_test_top.env.sco [SCO] Computing: w0[0]=1 w1[0]=1 a0=1 a1=1
# KERNEL: UVM_WARNING /home/runner/accel_scoreboard.sv(119) @ 2282500: uvm_test_top.env.sco [SCO] READ addr=0x28 no expected registered
# KERNEL: UVM_INFO /home/runner/accel_axil_agent.sv(126) @ 2282500: uvm_test_top.env.axil_a.drv [axil_csr_drv] [CSR] Read Data transaction completed
# KERNEL: UVM_INFO /home/runner/accel_axis_result_agent.sv(69) @ 2297500: uvm_test_top.env.result_a.mon [RESULT_MON] Result vector captured â€” last=0
# KERNEL: UVM_INFO /home/runner/accel_scoreboard.sv(174) @ 2297500: uvm_test_top.env.sco [SCO] Computing: w0[0]=1 w1[0]=1 a0=1 a1=1
# KERNEL: UVM_INFO /home/runner/accel_axis_result_agent.sv(69) @ 2317500: uvm_test_top.env.result_a.mon [RESULT_MON] Result vector captured â€” last=0
# KERNEL: UVM_INFO /home/runner/accel_scoreboard.sv(174) @ 2317500: uvm_test_top.env.sco [SCO] Computing: w0[0]=1 w1[0]=1 a0=1 a1=1
# KERNEL: UVM_INFO /home/runner/accel_axil_agent.sv(90) @ 2332500: uvm_test_top.env.axil_a.drv [AXIL_DRV] READ addr=0x28
# KERNEL: UVM_INFO /home/runner/accel_axis_result_agent.sv(69) @ 2337500: uvm_test_top.env.result_a.mon [RESULT_MON] Result vector captured â€” last=0
# KERNEL: UVM_INFO /home/runner/accel_scoreboard.sv(174) @ 2337500: uvm_test_top.env.sco [SCO] Computing: w0[0]=1 w1[0]=1 a0=1 a1=1
# KERNEL: UVM_WARNING /home/runner/accel_scoreboard.sv(119) @ 2347500: uvm_test_top.env.sco [SCO] READ addr=0x28 no expected registered
# KERNEL: UVM_INFO /home/runner/accel_axil_agent.sv(126) @ 2347500: uvm_test_top.env.axil_a.drv [axil_csr_drv] [CSR] Read Data transaction completed
# KERNEL: UVM_INFO /home/runner/accel_axis_result_agent.sv(69) @ 2357500: uvm_test_top.env.result_a.mon [RESULT_MON] Result vector captured â€” last=0
# KERNEL: UVM_INFO /home/runner/accel_scoreboard.sv(174) @ 2357500: uvm_test_top.env.sco [SCO] Computing: w0[0]=1 w1[0]=1 a0=1 a1=1
# KERNEL: UVM_INFO /home/runner/accel_axis_result_agent.sv(69) @ 2377500: uvm_test_top.env.result_a.mon [RESULT_MON] Result vector captured â€” last=0
# KERNEL: UVM_INFO /home/runner/accel_scoreboard.sv(174) @ 2377500: uvm_test_top.env.sco [SCO] Computing: w0[0]=1 w1[0]=1 a0=1 a1=1
# KERNEL: UVM_INFO /home/runner/accel_axis_result_agent.sv(69) @ 2397500: uvm_test_top.env.result_a.mon [RESULT_MON] Result vector captured â€” last=0
# KERNEL: UVM_INFO /home/runner/accel_scoreboard.sv(174) @ 2397500: uvm_test_top.env.sco [SCO] Computing: w0[0]=1 w1[0]=1 a0=1 a1=1
# KERNEL: UVM_INFO /home/runner/accel_axil_agent.sv(90) @ 2397500: uvm_test_top.env.axil_a.drv [AXIL_DRV] READ addr=0x28
# KERNEL: UVM_WARNING /home/runner/accel_scoreboard.sv(119) @ 2412500: uvm_test_top.env.sco [SCO] READ addr=0x28 no expected registered
# KERNEL: UVM_INFO /home/runner/accel_axil_agent.sv(126) @ 2412500: uvm_test_top.env.axil_a.drv [axil_csr_drv] [CSR] Read Data transaction completed
# KERNEL: UVM_INFO /home/runner/accel_axis_result_agent.sv(69) @ 2417500: uvm_test_top.env.result_a.mon [RESULT_MON] Result vector captured â€” last=0
# KERNEL: UVM_INFO /home/runner/accel_scoreboard.sv(174) @ 2417500: uvm_test_top.env.sco [SCO] Computing: w0[0]=1 w1[0]=1 a0=1 a1=1
# KERNEL: UVM_INFO /home/runner/accel_axis_result_agent.sv(69) @ 2437500: uvm_test_top.env.result_a.mon [RESULT_MON] Result vector captured â€” last=0
# KERNEL: UVM_INFO /home/runner/accel_scoreboard.sv(174) @ 2437500: uvm_test_top.env.sco [SCO] Computing: w0[0]=1 w1[0]=1 a0=1 a1=1
# KERNEL: UVM_INFO /home/runner/accel_axis_result_agent.sv(69) @ 2457500: uvm_test_top.env.result_a.mon [RESULT_MON] Result vector captured â€” last=0
# KERNEL: UVM_INFO /home/runner/accel_scoreboard.sv(174) @ 2457500: uvm_test_top.env.sco [SCO] Computing: w0[0]=1 w1[0]=1 a0=1 a1=1
# KERNEL: UVM_INFO /home/runner/accel_axil_agent.sv(90) @ 2462500: uvm_test_top.env.axil_a.drv [AXIL_DRV] READ addr=0x28
# KERNEL: UVM_INFO /home/runner/accel_axis_result_agent.sv(69) @ 2477500: uvm_test_top.env.result_a.mon [RESULT_MON] Result vector captured â€” last=0
# KERNEL: UVM_INFO /home/runner/accel_scoreboard.sv(174) @ 2477500: uvm_test_top.env.sco [SCO] Computing: w0[0]=1 w1[0]=1 a0=1 a1=1
# KERNEL: UVM_WARNING /home/runner/accel_scoreboard.sv(119) @ 2477500: uvm_test_top.env.sco [SCO] READ addr=0x28 no expected registered
# KERNEL: UVM_INFO /home/runner/accel_axil_agent.sv(126) @ 2477500: uvm_test_top.env.axil_a.drv [axil_csr_drv] [CSR] Read Data transaction completed
# KERNEL: UVM_INFO /home/runner/accel_axis_result_agent.sv(69) @ 2497500: uvm_test_top.env.result_a.mon [RESULT_MON] Result vector captured â€” last=0
# KERNEL: UVM_INFO /home/runner/accel_scoreboard.sv(174) @ 2497500: uvm_test_top.env.sco [SCO] Computing: w0[0]=1 w1[0]=1 a0=1 a1=1
# KERNEL: UVM_INFO /home/runner/accel_axis_result_agent.sv(69) @ 2517500: uvm_test_top.env.result_a.mon [RESULT_MON] Result vector captured â€” last=0
# KERNEL: UVM_INFO /home/runner/accel_scoreboard.sv(174) @ 2517500: uvm_test_top.env.sco [SCO] Computing: w0[0]=1 w1[0]=1 a0=1 a1=1
# KERNEL: UVM_INFO /home/runner/accel_axil_agent.sv(90) @ 2527500: uvm_test_top.env.axil_a.drv [AXIL_DRV] READ addr=0x28
# KERNEL: UVM_INFO /home/runner/accel_axis_result_agent.sv(69) @ 2537500: uvm_test_top.env.result_a.mon [RESULT_MON] Result vector captured â€” last=0
# KERNEL: UVM_INFO /home/runner/accel_scoreboard.sv(174) @ 2537500: uvm_test_top.env.sco [SCO] Computing: w0[0]=1 w1[0]=1 a0=1 a1=1
# KERNEL: UVM_WARNING /home/runner/accel_scoreboard.sv(119) @ 2542500: uvm_test_top.env.sco [SCO] READ addr=0x28 no expected registered
# KERNEL: UVM_INFO /home/runner/accel_axil_agent.sv(126) @ 2542500: uvm_test_top.env.axil_a.drv [axil_csr_drv] [CSR] Read Data transaction completed
# KERNEL: UVM_INFO /home/runner/accel_axis_result_agent.sv(69) @ 2557500: uvm_test_top.env.result_a.mon [RESULT_MON] Result vector captured â€” last=0
# KERNEL: UVM_INFO /home/runner/accel_scoreboard.sv(174) @ 2557500: uvm_test_top.env.sco [SCO] Computing: w0[0]=1 w1[0]=1 a0=1 a1=1
# KERNEL: UVM_INFO /home/runner/accel_axis_result_agent.sv(69) @ 2577500: uvm_test_top.env.result_a.mon [RESULT_MON] Result vector captured â€” last=0
# KERNEL: UVM_INFO /home/runner/accel_scoreboard.sv(174) @ 2577500: uvm_test_top.env.sco [SCO] Computing: w0[0]=1 w1[0]=1 a0=1 a1=1
# KERNEL: UVM_INFO /home/runner/accel_axil_agent.sv(90) @ 2592500: uvm_test_top.env.axil_a.drv [AXIL_DRV] READ addr=0x28
# KERNEL: UVM_INFO /home/runner/accel_axis_result_agent.sv(69) @ 2597500: uvm_test_top.env.result_a.mon [RESULT_MON] Result vector captured â€” last=0
# KERNEL: UVM_INFO /home/runner/accel_scoreboard.sv(174) @ 2597500: uvm_test_top.env.sco [SCO] Computing: w0[0]=1 w1[0]=1 a0=1 a1=1
# KERNEL: UVM_WARNING /home/runner/accel_scoreboard.sv(119) @ 2607500: uvm_test_top.env.sco [SCO] READ addr=0x28 no expected registered
# KERNEL: UVM_INFO /home/runner/accel_axil_agent.sv(126) @ 2607500: uvm_test_top.env.axil_a.drv [axil_csr_drv] [CSR] Read Data transaction completed
# KERNEL: UVM_INFO /home/runner/accel_axis_result_agent.sv(69) @ 2617500: uvm_test_top.env.result_a.mon [RESULT_MON] Result vector captured â€” last=0
# KERNEL: UVM_INFO /home/runner/accel_scoreboard.sv(174) @ 2617500: uvm_test_top.env.sco [SCO] Computing: w0[0]=1 w1[0]=1 a0=1 a1=1
# KERNEL: UVM_INFO /home/runner/accel_axis_result_agent.sv(69) @ 2637500: uvm_test_top.env.result_a.mon [RESULT_MON] Result vector captured â€” last=0
# KERNEL: UVM_INFO /home/runner/accel_scoreboard.sv(174) @ 2637500: uvm_test_top.env.sco [SCO] Computing: w0[0]=1 w1[0]=1 a0=1 a1=1
# KERNEL: UVM_INFO /home/runner/accel_axis_result_agent.sv(69) @ 2657500: uvm_test_top.env.result_a.mon [RESULT_MON] Result vector captured â€” last=0
# KERNEL: UVM_INFO /home/runner/accel_scoreboard.sv(174) @ 2657500: uvm_test_top.env.sco [SCO] Computing: w0[0]=1 w1[0]=1 a0=1 a1=1
# KERNEL: UVM_INFO /home/runner/accel_axil_agent.sv(90) @ 2657500: uvm_test_top.env.axil_a.drv [AXIL_DRV] READ addr=0x28
# KERNEL: UVM_WARNING /home/runner/accel_scoreboard.sv(119) @ 2672500: uvm_test_top.env.sco [SCO] READ addr=0x28 no expected registered
# KERNEL: UVM_INFO /home/runner/accel_axil_agent.sv(126) @ 2672500: uvm_test_top.env.axil_a.drv [axil_csr_drv] [CSR] Read Data transaction completed
# KERNEL: UVM_INFO /home/runner/accel_axis_result_agent.sv(69) @ 2677500: uvm_test_top.env.result_a.mon [RESULT_MON] Result vector captured â€” last=0
# KERNEL: UVM_INFO /home/runner/accel_scoreboard.sv(174) @ 2677500: uvm_test_top.env.sco [SCO] Computing: w0[0]=1 w1[0]=1 a0=1 a1=1
# KERNEL: UVM_INFO /home/runner/accel_axis_result_agent.sv(69) @ 2697500: uvm_test_top.env.result_a.mon [RESULT_MON] Result vector captured â€” last=0
# KERNEL: UVM_INFO /home/runner/accel_scoreboard.sv(174) @ 2697500: uvm_test_top.env.sco [SCO] Computing: w0[0]=1 w1[0]=1 a0=1 a1=1
# KERNEL: UVM_INFO /home/runner/accel_axis_result_agent.sv(69) @ 2717500: uvm_test_top.env.result_a.mon [RESULT_MON] Result vector captured â€” last=0
# KERNEL: UVM_INFO /home/runner/accel_scoreboard.sv(174) @ 2717500: uvm_test_top.env.sco [SCO] Computing: w0[0]=1 w1[0]=1 a0=1 a1=1
# KERNEL: UVM_INFO /home/runner/accel_axil_agent.sv(90) @ 2722500: uvm_test_top.env.axil_a.drv [AXIL_DRV] READ addr=0x28
# KERNEL: UVM_INFO /home/runner/accel_axis_result_agent.sv(69) @ 2737500: uvm_test_top.env.result_a.mon [RESULT_MON] Result vector captured â€” last=0
# KERNEL: UVM_INFO /home/runner/accel_scoreboard.sv(174) @ 2737500: uvm_test_top.env.sco [SCO] Computing: w0[0]=1 w1[0]=1 a0=1 a1=1
# KERNEL: UVM_WARNING /home/runner/accel_scoreboard.sv(119) @ 2737500: uvm_test_top.env.sco [SCO] READ addr=0x28 no expected registered
# KERNEL: UVM_INFO /home/runner/accel_axil_agent.sv(126) @ 2737500: uvm_test_top.env.axil_a.drv [axil_csr_drv] [CSR] Read Data transaction completed
# KERNEL: UVM_INFO /home/runner/accel_axis_result_agent.sv(69) @ 2757500: uvm_test_top.env.result_a.mon [RESULT_MON] Result vector captured â€” last=0
# KERNEL: UVM_INFO /home/runner/accel_scoreboard.sv(174) @ 2757500: uvm_test_top.env.sco [SCO] Computing: w0[0]=1 w1[0]=1 a0=1 a1=1
# KERNEL: UVM_INFO /home/runner/accel_axis_result_agent.sv(69) @ 2777500: uvm_test_top.env.result_a.mon [RESULT_MON] Result vector captured â€” last=0
# KERNEL: UVM_INFO /home/runner/accel_scoreboard.sv(174) @ 2777500: uvm_test_top.env.sco [SCO] Computing: w0[0]=1 w1[0]=1 a0=1 a1=1
# KERNEL: UVM_INFO /home/runner/accel_axil_agent.sv(90) @ 2787500: uvm_test_top.env.axil_a.drv [AXIL_DRV] READ addr=0x28
# KERNEL: UVM_INFO /home/runner/accel_axis_result_agent.sv(69) @ 2797500: uvm_test_top.env.result_a.mon [RESULT_MON] Result vector captured â€” last=0
# KERNEL: UVM_INFO /home/runner/accel_scoreboard.sv(174) @ 2797500: uvm_test_top.env.sco [SCO] Computing: w0[0]=1 w1[0]=1 a0=1 a1=1
# KERNEL: UVM_WARNING /home/runner/accel_scoreboard.sv(119) @ 2802500: uvm_test_top.env.sco [SCO] READ addr=0x28 no expected registered
# KERNEL: UVM_INFO /home/runner/accel_axil_agent.sv(126) @ 2802500: uvm_test_top.env.axil_a.drv [axil_csr_drv] [CSR] Read Data transaction completed
# KERNEL: UVM_INFO /home/runner/accel_axis_result_agent.sv(69) @ 2817500: uvm_test_top.env.result_a.mon [RESULT_MON] Result vector captured â€” last=0
# KERNEL: UVM_INFO /home/runner/accel_scoreboard.sv(174) @ 2817500: uvm_test_top.env.sco [SCO] Computing: w0[0]=1 w1[0]=1 a0=1 a1=1
# KERNEL: UVM_INFO /home/runner/accel_axis_result_agent.sv(69) @ 2837500: uvm_test_top.env.result_a.mon [RESULT_MON] Result vector captured â€” last=0
# KERNEL: UVM_INFO /home/runner/accel_scoreboard.sv(174) @ 2837500: uvm_test_top.env.sco [SCO] Computing: w0[0]=1 w1[0]=1 a0=1 a1=1
# KERNEL: UVM_INFO /home/runner/accel_axil_agent.sv(90) @ 2852500: uvm_test_top.env.axil_a.drv [AXIL_DRV] READ addr=0x28
# KERNEL: UVM_INFO /home/runner/accel_axis_result_agent.sv(69) @ 2857500: uvm_test_top.env.result_a.mon [RESULT_MON] Result vector captured â€” last=0
# KERNEL: UVM_INFO /home/runner/accel_scoreboard.sv(174) @ 2857500: uvm_test_top.env.sco [SCO] Computing: w0[0]=1 w1[0]=1 a0=1 a1=1
# KERNEL: UVM_WARNING /home/runner/accel_scoreboard.sv(119) @ 2867500: uvm_test_top.env.sco [SCO] READ addr=0x28 no expected registered
# KERNEL: UVM_INFO /home/runner/accel_axil_agent.sv(126) @ 2867500: uvm_test_top.env.axil_a.drv [axil_csr_drv] [CSR] Read Data transaction completed
# KERNEL: UVM_INFO /home/runner/accel_axis_result_agent.sv(69) @ 2877500: uvm_test_top.env.result_a.mon [RESULT_MON] Result vector captured â€” last=0
# KERNEL: UVM_INFO /home/runner/accel_scoreboard.sv(174) @ 2877500: uvm_test_top.env.sco [SCO] Computing: w0[0]=1 w1[0]=1 a0=1 a1=1
# KERNEL: UVM_INFO /home/runner/accel_axis_result_agent.sv(69) @ 2897500: uvm_test_top.env.result_a.mon [RESULT_MON] Result vector captured â€” last=0
# KERNEL: UVM_INFO /home/runner/accel_scoreboard.sv(174) @ 2897500: uvm_test_top.env.sco [SCO] Computing: w0[0]=1 w1[0]=1 a0=1 a1=1
# KERNEL: UVM_INFO /home/runner/accel_axis_result_agent.sv(69) @ 2917500: uvm_test_top.env.result_a.mon [RESULT_MON] Result vector captured â€” last=0
# KERNEL: UVM_INFO /home/runner/accel_scoreboard.sv(174) @ 2917500: uvm_test_top.env.sco [SCO] Computing: w0[0]=1 w1[0]=1 a0=1 a1=1
# KERNEL: UVM_INFO /home/runner/accel_axil_agent.sv(90) @ 2917500: uvm_test_top.env.axil_a.drv [AXIL_DRV] READ addr=0x28
# KERNEL: UVM_WARNING /home/runner/accel_scoreboard.sv(119) @ 2932500: uvm_test_top.env.sco [SCO] READ addr=0x28 no expected registered
# KERNEL: UVM_INFO /home/runner/accel_axil_agent.sv(126) @ 2932500: uvm_test_top.env.axil_a.drv [axil_csr_drv] [CSR] Read Data transaction completed
# KERNEL: UVM_INFO /home/runner/accel_axis_result_agent.sv(69) @ 2937500: uvm_test_top.env.result_a.mon [RESULT_MON] Result vector captured â€” last=0
# KERNEL: UVM_INFO /home/runner/accel_scoreboard.sv(174) @ 2937500: uvm_test_top.env.sco [SCO] Computing: w0[0]=1 w1[0]=1 a0=1 a1=1
# KERNEL: UVM_INFO /home/runner/accel_axis_result_agent.sv(69) @ 2957500: uvm_test_top.env.result_a.mon [RESULT_MON] Result vector captured â€” last=0
# KERNEL: UVM_INFO /home/runner/accel_scoreboard.sv(174) @ 2957500: uvm_test_top.env.sco [SCO] Computing: w0[0]=1 w1[0]=1 a0=1 a1=1
# KERNEL: UVM_INFO /home/runner/accel_axis_result_agent.sv(69) @ 2977500: uvm_test_top.env.result_a.mon [RESULT_MON] Result vector captured â€” last=0
# KERNEL: UVM_INFO /home/runner/accel_scoreboard.sv(174) @ 2977500: uvm_test_top.env.sco [SCO] Computing: w0[0]=1 w1[0]=1 a0=1 a1=1
# KERNEL: UVM_INFO /home/runner/accel_axil_agent.sv(90) @ 2982500: uvm_test_top.env.axil_a.drv [AXIL_DRV] READ addr=0x28
# KERNEL: UVM_INFO /home/runner/accel_axis_result_agent.sv(69) @ 2997500: uvm_test_top.env.result_a.mon [RESULT_MON] Result vector captured â€” last=0
# KERNEL: UVM_INFO /home/runner/accel_scoreboard.sv(174) @ 2997500: uvm_test_top.env.sco [SCO] Computing: w0[0]=1 w1[0]=1 a0=1 a1=1
# KERNEL: UVM_WARNING /home/runner/accel_scoreboard.sv(119) @ 2997500: uvm_test_top.env.sco [SCO] READ addr=0x28 no expected registered
# KERNEL: UVM_INFO /home/runner/accel_axil_agent.sv(126) @ 2997500: uvm_test_top.env.axil_a.drv [axil_csr_drv] [CSR] Read Data transaction completed
# KERNEL: UVM_INFO /home/runner/accel_axis_result_agent.sv(69) @ 3017500: uvm_test_top.env.result_a.mon [RESULT_MON] Result vector captured â€” last=0
# KERNEL: UVM_INFO /home/runner/accel_scoreboard.sv(174) @ 3017500: uvm_test_top.env.sco [SCO] Computing: w0[0]=1 w1[0]=1 a0=1 a1=1
# KERNEL: UVM_INFO /home/runner/accel_axis_result_agent.sv(69) @ 3037500: uvm_test_top.env.result_a.mon [RESULT_MON] Result vector captured â€” last=0
# KERNEL: UVM_INFO /home/runner/accel_scoreboard.sv(174) @ 3037500: uvm_test_top.env.sco [SCO] Computing: w0[0]=1 w1[0]=1 a0=1 a1=1
# KERNEL: UVM_INFO /home/runner/accel_axil_agent.sv(90) @ 3047500: uvm_test_top.env.axil_a.drv [AXIL_DRV] READ addr=0x28
# KERNEL: UVM_INFO /home/runner/accel_axis_result_agent.sv(69) @ 3057500: uvm_test_top.env.result_a.mon [RESULT_MON] Result vector captured â€” last=0
# KERNEL: UVM_INFO /home/runner/accel_scoreboard.sv(174) @ 3057500: uvm_test_top.env.sco [SCO] Computing: w0[0]=1 w1[0]=1 a0=1 a1=1
# KERNEL: UVM_WARNING /home/runner/accel_scoreboard.sv(119) @ 3062500: uvm_test_top.env.sco [SCO] READ addr=0x28 no expected registered
# KERNEL: UVM_INFO /home/runner/accel_axil_agent.sv(126) @ 3062500: uvm_test_top.env.axil_a.drv [axil_csr_drv] [CSR] Read Data transaction completed
# KERNEL: UVM_INFO /home/runner/accel_axis_result_agent.sv(69) @ 3077500: uvm_test_top.env.result_a.mon [RESULT_MON] Result vector captured â€” last=1
# KERNEL: UVM_INFO /home/runner/accel_scoreboard.sv(174) @ 3077500: uvm_test_top.env.sco [SCO] Computing: w0[0]=1 w1[0]=1 a0=1 a1=1
# KERNEL: UVM_INFO /home/runner/accel_axil_agent.sv(90) @ 3112500: uvm_test_top.env.axil_a.drv [AXIL_DRV] READ addr=0x28
# KERNEL: UVM_WARNING /home/runner/accel_scoreboard.sv(119) @ 3127500: uvm_test_top.env.sco [SCO] READ addr=0x28 no expected registered
# KERNEL: UVM_INFO /home/runner/accel_axil_agent.sv(126) @ 3127500: uvm_test_top.env.axil_a.drv [axil_csr_drv] [CSR] Read Data transaction completed
# KERNEL: UVM_INFO /home/runner/base_tests.sv(258) @ 3127500: uvm_test_top [BASE_TEST] DUT idle and OFIFO empty. Safe to continue.
# KERNEL: UVM_INFO /home/runner/accel_scoreboard.sv(297) @ 3127500: uvm_test_top.env.sco [SCO] Queues flushed
# KERNEL:                 Step : Verify CSR_STATUS = 0x2 (FSM = S_IDLE, done=1)                
# KERNEL: UVM_INFO /home/runner/accel_axil_agent.sv(90) @ 3132500: uvm_test_top.env.axil_a.drv [AXIL_DRV] READ addr=0x4
# KERNEL: UVM_INFO /home/runner/accel_scoreboard.sv(125) @ 3147500: uvm_test_top.env.sco [SCO] PASS addr=0x4 exp=0x2 got=0x2
# KERNEL: UVM_INFO /home/runner/accel_axil_agent.sv(126) @ 3147500: uvm_test_top.env.axil_a.drv [axil_csr_drv] [CSR] Read Data transaction completed
# KERNEL: ===================================================Test_060 : End of the test=================================================================
# KERNEL: UVM_INFO /home/runner/test_060_soft_reset_from_stream.sv(54) @ 3147500: uvm_test_top [COVERAGE] Coverage = 53.53%
# KERNEL: UVM_INFO ./uvm-1.2/src/base/uvm_objection.svh(1271) @ 3147500: reporter [TEST_DONE] 'run' phase is ready to proceed to the 'extract' phase
# KERNEL: UVM_INFO /home/runner/accel_coverage_subscriber.sv(222) @ 3147500: uvm_test_top.env.cov_sub [COV] ======================================
# KERNEL: UVM_INFO /home/runner/accel_coverage_subscriber.sv(223) @ 3147500: uvm_test_top.env.cov_sub [COV]    Functional Coverage Summary        
# KERNEL: UVM_INFO /home/runner/accel_coverage_subscriber.sv(224) @ 3147500: uvm_test_top.env.cov_sub [COV] ======================================
# KERNEL: UVM_INFO /home/runner/accel_coverage_subscriber.sv(225) @ 3147500: uvm_test_top.env.cov_sub [COV]   AXI-Lite   : 85.7%
# KERNEL: UVM_INFO /home/runner/accel_coverage_subscriber.sv(226) @ 3147500: uvm_test_top.env.cov_sub [COV]   Weight     : 28.9%
# KERNEL: UVM_INFO /home/runner/accel_coverage_subscriber.sv(227) @ 3147500: uvm_test_top.env.cov_sub [COV]   Activation : 42.3%
# KERNEL: UVM_INFO /home/runner/accel_coverage_subscriber.sv(228) @ 3147500: uvm_test_top.env.cov_sub [COV]   Result     : 58.3%
# KERNEL: UVM_INFO /home/runner/accel_coverage_subscriber.sv(229) @ 3147500: uvm_test_top.env.cov_sub [COV]   FSM+Mode   : 52.4%
# KERNEL: UVM_INFO /home/runner/accel_coverage_subscriber.sv(230) @ 3147500: uvm_test_top.env.cov_sub [COV]   TOTAL      : 53.5%
# KERNEL: UVM_INFO /home/runner/accel_coverage_subscriber.sv(231) @ 3147500: uvm_test_top.env.cov_sub [COV] ======================================
# KERNEL: UVM_INFO /home/runner/accel_scoreboard.sv(301) @ 3147500: uvm_test_top.env.sco [SCO] FINAL: pass=1601 fail=0
# KERNEL: UVM_INFO /home/runner/accel_scoreboard.sv(305) @ 3147500: uvm_test_top.env.sco [SCO] TEST PASSED
