# KERNEL: ASDB file was created in location /home/runner/dataset.asdb
# KERNEL: UVM_INFO @ 0: reporter [RNTST] Running test test_071_rand_postproc_config...
# KERNEL: UVM_INFO @ 0: reporter [MAXQUITSET] '+UVM_MAX_QUIT_COUNT=1,YES' provided on the command line is being applied.
# KERNEL: ===================================================Test_071 : Constrained Random Post-Proc Config (10 Seeds) - Start=================================================================
# KERNEL: UVM_INFO /home/runner/accel_scoreboard.sv(297) @ 0: uvm_test_top.env.sco [SCO] Queues flushed
# KERNEL: UVM_INFO /home/runner/accel_axil_agent.sv(42) @ 102500: uvm_test_top.env.axil_a.drv [axil_csr_drv] DUT RESET COMPLETED
# KERNEL: =========================================================================================================================================
# KERNEL: UVM_INFO /home/runner/accel_axis_weight_agent.sv(35) @ 102500: uvm_test_top.env.weight_a.drv [WEIGHT_DRV] Reset done
# KERNEL: =========================================================================================================================================
# KERNEL: UVM_INFO /home/runner/accel_axis_act_agent.sv(35) @ 102500: uvm_test_top.env.act_a.drv [ACT_DRV] Reset done
# KERNEL: =========================================================================================================================================
# KERNEL: UVM_INFO /home/runner/accel_axil_agent.sv(56) @ 102500: uvm_test_top.env.axil_a.drv [axil_csr_drv] WRITE addr=0x0 data=0x48
# KERNEL: UVM_INFO /home/runner/accel_scoreboard.sv(109) @ 127500: uvm_test_top.env.sco [SCO] WRITE addr=0x0 data=0x48
# KERNEL: UVM_INFO /home/runner/accel_axil_agent.sv(121) @ 127500: uvm_test_top.env.axil_a.drv [axil_csr_drv] [CSR] Write Data transaction completed
# KERNEL: UVM_INFO /home/runner/accel_sequences.sv(31) @ 127500: uvm_test_top.env.axil_a.seqr@@wr_seq [CSR_WRITE_SEQ] Written addr=0x0 data=0x48
# KERNEL: UVM_INFO /home/runner/accel_axil_agent.sv(56) @ 177500: uvm_test_top.env.axil_a.drv [axil_csr_drv] WRITE addr=0x0 data=0x8
# KERNEL: UVM_INFO /home/runner/accel_scoreboard.sv(109) @ 202500: uvm_test_top.env.sco [SCO] WRITE addr=0x0 data=0x8
# KERNEL: UVM_INFO /home/runner/accel_axil_agent.sv(121) @ 202500: uvm_test_top.env.axil_a.drv [axil_csr_drv] [CSR] Write Data transaction completed
# KERNEL: UVM_INFO /home/runner/accel_sequences.sv(31) @ 202500: uvm_test_top.env.axil_a.seqr@@wr_seq [CSR_WRITE_SEQ] Written addr=0x0 data=0x8
# KERNEL: UVM_INFO /home/runner/accel_axil_agent.sv(56) @ 227500: uvm_test_top.env.axil_a.drv [axil_csr_drv] WRITE addr=0xb0 data=0x1
# KERNEL: UVM_INFO /home/runner/accel_scoreboard.sv(109) @ 252500: uvm_test_top.env.sco [SCO] WRITE addr=0xb0 data=0x1
# KERNEL: UVM_INFO /home/runner/accel_axil_agent.sv(121) @ 252500: uvm_test_top.env.axil_a.drv [axil_csr_drv] [CSR] Write Data transaction completed
# KERNEL: UVM_INFO /home/runner/accel_sequences.sv(31) @ 252500: uvm_test_top.env.axil_a.seqr@@wr_seq [CSR_WRITE_SEQ] Written addr=0xb0 data=0x1
# KERNEL: UVM_INFO /home/runner/accel_axil_agent.sv(56) @ 257500: uvm_test_top.env.axil_a.drv [axil_csr_drv] WRITE addr=0xb4 data=0xba
# KERNEL: UVM_INFO /home/runner/accel_scoreboard.sv(109) @ 282500: uvm_test_top.env.sco [SCO] WRITE addr=0xb4 data=0xba
# KERNEL: UVM_INFO /home/runner/accel_axil_agent.sv(121) @ 282500: uvm_test_top.env.axil_a.drv [axil_csr_drv] [CSR] Write Data transaction completed
# KERNEL: UVM_INFO /home/runner/accel_sequences.sv(31) @ 282500: uvm_test_top.env.axil_a.seqr@@wr_seq [CSR_WRITE_SEQ] Written addr=0xb4 data=0xba
# KERNEL: UVM_INFO /home/runner/accel_axil_agent.sv(56) @ 287500: uvm_test_top.env.axil_a.drv [axil_csr_drv] WRITE addr=0xb8 data=0x7
# KERNEL: UVM_INFO /home/runner/accel_scoreboard.sv(109) @ 312500: uvm_test_top.env.sco [SCO] WRITE addr=0xb8 data=0x7
# KERNEL: UVM_INFO /home/runner/accel_axil_agent.sv(121) @ 312500: uvm_test_top.env.axil_a.drv [axil_csr_drv] [CSR] Write Data transaction completed
# KERNEL: UVM_INFO /home/runner/accel_sequences.sv(31) @ 312500: uvm_test_top.env.axil_a.seqr@@wr_seq [CSR_WRITE_SEQ] Written addr=0xb8 data=0x7
# KERNEL: UVM_INFO /home/runner/accel_axil_agent.sv(56) @ 317500: uvm_test_top.env.axil_a.drv [axil_csr_drv] WRITE addr=0xa0 data=0x3
# KERNEL: UVM_INFO /home/runner/accel_scoreboard.sv(109) @ 342500: uvm_test_top.env.sco [SCO] WRITE addr=0xa0 data=0x3
# KERNEL: UVM_INFO /home/runner/accel_axil_agent.sv(121) @ 342500: uvm_test_top.env.axil_a.drv [axil_csr_drv] [CSR] Write Data transaction completed
# KERNEL: UVM_INFO /home/runner/accel_sequences.sv(31) @ 342500: uvm_test_top.env.axil_a.seqr@@wr_seq [CSR_WRITE_SEQ] Written addr=0xa0 data=0x3
# KERNEL: UVM_INFO /home/runner/accel_axil_agent.sv(56) @ 347500: uvm_test_top.env.axil_a.drv [axil_csr_drv] WRITE addr=0xe8 data=0x0
# KERNEL: UVM_INFO /home/runner/accel_scoreboard.sv(109) @ 372500: uvm_test_top.env.sco [SCO] WRITE addr=0xe8 data=0x0
# KERNEL: UVM_INFO /home/runner/accel_axil_agent.sv(121) @ 372500: uvm_test_top.env.axil_a.drv [axil_csr_drv] [CSR] Write Data transaction completed
# KERNEL: UVM_INFO /home/runner/accel_sequences.sv(31) @ 372500: uvm_test_top.env.axil_a.seqr@@wr_seq [CSR_WRITE_SEQ] Written addr=0xe8 data=0x0
# KERNEL: UVM_INFO /home/runner/accel_axil_agent.sv(56) @ 377500: uvm_test_top.env.axil_a.drv [axil_csr_drv] WRITE addr=0xec data=0x9964
# KERNEL: UVM_INFO /home/runner/accel_scoreboard.sv(109) @ 402500: uvm_test_top.env.sco [SCO] WRITE addr=0xec data=0x9964
# KERNEL: UVM_INFO /home/runner/accel_axil_agent.sv(121) @ 402500: uvm_test_top.env.axil_a.drv [axil_csr_drv] [CSR] Write Data transaction completed
# KERNEL: UVM_INFO /home/runner/accel_sequences.sv(31) @ 402500: uvm_test_top.env.axil_a.seqr@@wr_seq [CSR_WRITE_SEQ] Written addr=0xec data=0x9964
# KERNEL: UVM_INFO /home/runner/accel_axil_agent.sv(56) @ 407500: uvm_test_top.env.axil_a.drv [axil_csr_drv] WRITE addr=0xec data=0x9964
# KERNEL: UVM_INFO /home/runner/accel_scoreboard.sv(109) @ 432500: uvm_test_top.env.sco [SCO] WRITE addr=0xec data=0x9964
# KERNEL: UVM_INFO /home/runner/accel_axil_agent.sv(121) @ 432500: uvm_test_top.env.axil_a.drv [axil_csr_drv] [CSR] Write Data transaction completed
# KERNEL: UVM_INFO /home/runner/accel_sequences.sv(31) @ 432500: uvm_test_top.env.axil_a.seqr@@wr_seq [CSR_WRITE_SEQ] Written addr=0xec data=0x9964
# KERNEL: UVM_INFO /home/runner/accel_axil_agent.sv(56) @ 437500: uvm_test_top.env.axil_a.drv [axil_csr_drv] WRITE addr=0xec data=0x9964
# KERNEL: UVM_INFO /home/runner/accel_scoreboard.sv(109) @ 462500: uvm_test_top.env.sco [SCO] WRITE addr=0xec data=0x9964
# KERNEL: UVM_INFO /home/runner/accel_axil_agent.sv(121) @ 462500: uvm_test_top.env.axil_a.drv [axil_csr_drv] [CSR] Write Data transaction completed
# KERNEL: UVM_INFO /home/runner/accel_sequences.sv(31) @ 462500: uvm_test_top.env.axil_a.seqr@@wr_seq [CSR_WRITE_SEQ] Written addr=0xec data=0x9964
# KERNEL: UVM_INFO /home/runner/accel_axil_agent.sv(56) @ 467500: uvm_test_top.env.axil_a.drv [axil_csr_drv] WRITE addr=0xec data=0x9964
# KERNEL: UVM_INFO /home/runner/accel_scoreboard.sv(109) @ 492500: uvm_test_top.env.sco [SCO] WRITE addr=0xec data=0x9964
# KERNEL: UVM_INFO /home/runner/accel_axil_agent.sv(121) @ 492500: uvm_test_top.env.axil_a.drv [axil_csr_drv] [CSR] Write Data transaction completed
# KERNEL: UVM_INFO /home/runner/accel_sequences.sv(31) @ 492500: uvm_test_top.env.axil_a.seqr@@wr_seq [CSR_WRITE_SEQ] Written addr=0xec data=0x9964
# KERNEL: UVM_INFO /home/runner/accel_axil_agent.sv(56) @ 497500: uvm_test_top.env.axil_a.drv [axil_csr_drv] WRITE addr=0xec data=0x9964
# KERNEL: UVM_INFO /home/runner/accel_scoreboard.sv(109) @ 522500: uvm_test_top.env.sco [SCO] WRITE addr=0xec data=0x9964
# KERNEL: UVM_INFO /home/runner/accel_axil_agent.sv(121) @ 522500: uvm_test_top.env.axil_a.drv [axil_csr_drv] [CSR] Write Data transaction completed
# KERNEL: UVM_INFO /home/runner/accel_sequences.sv(31) @ 522500: uvm_test_top.env.axil_a.seqr@@wr_seq [CSR_WRITE_SEQ] Written addr=0xec data=0x9964
# KERNEL: UVM_INFO /home/runner/accel_axil_agent.sv(56) @ 527500: uvm_test_top.env.axil_a.drv [axil_csr_drv] WRITE addr=0xec data=0x9964
# KERNEL: UVM_INFO /home/runner/accel_scoreboard.sv(109) @ 552500: uvm_test_top.env.sco [SCO] WRITE addr=0xec data=0x9964
# KERNEL: UVM_INFO /home/runner/accel_axil_agent.sv(121) @ 552500: uvm_test_top.env.axil_a.drv [axil_csr_drv] [CSR] Write Data transaction completed
# KERNEL: UVM_INFO /home/runner/accel_sequences.sv(31) @ 552500: uvm_test_top.env.axil_a.seqr@@wr_seq [CSR_WRITE_SEQ] Written addr=0xec data=0x9964
# KERNEL: UVM_INFO /home/runner/accel_axil_agent.sv(56) @ 557500: uvm_test_top.env.axil_a.drv [axil_csr_drv] WRITE addr=0xec data=0x9964
# KERNEL: UVM_INFO /home/runner/accel_scoreboard.sv(109) @ 582500: uvm_test_top.env.sco [SCO] WRITE addr=0xec data=0x9964
# KERNEL: UVM_INFO /home/runner/accel_axil_agent.sv(121) @ 582500: uvm_test_top.env.axil_a.drv [axil_csr_drv] [CSR] Write Data transaction completed
# KERNEL: UVM_INFO /home/runner/accel_sequences.sv(31) @ 582500: uvm_test_top.env.axil_a.seqr@@wr_seq [CSR_WRITE_SEQ] Written addr=0xec data=0x9964
# KERNEL: UVM_INFO /home/runner/accel_axil_agent.sv(56) @ 587500: uvm_test_top.env.axil_a.drv [axil_csr_drv] WRITE addr=0xec data=0x9964
# KERNEL: UVM_INFO /home/runner/accel_scoreboard.sv(109) @ 612500: uvm_test_top.env.sco [SCO] WRITE addr=0xec data=0x9964
# KERNEL: UVM_INFO /home/runner/accel_axil_agent.sv(121) @ 612500: uvm_test_top.env.axil_a.drv [axil_csr_drv] [CSR] Write Data transaction completed
# KERNEL: UVM_INFO /home/runner/accel_sequences.sv(31) @ 612500: uvm_test_top.env.axil_a.seqr@@wr_seq [CSR_WRITE_SEQ] Written addr=0xec data=0x9964
# KERNEL: UVM_INFO /home/runner/accel_axil_agent.sv(56) @ 617500: uvm_test_top.env.axil_a.drv [axil_csr_drv] WRITE addr=0xec data=0x9964
# KERNEL: UVM_INFO /home/runner/accel_scoreboard.sv(109) @ 642500: uvm_test_top.env.sco [SCO] WRITE addr=0xec data=0x9964
# KERNEL: UVM_INFO /home/runner/accel_axil_agent.sv(121) @ 642500: uvm_test_top.env.axil_a.drv [axil_csr_drv] [CSR] Write Data transaction completed
# KERNEL: UVM_INFO /home/runner/accel_sequences.sv(31) @ 642500: uvm_test_top.env.axil_a.seqr@@wr_seq [CSR_WRITE_SEQ] Written addr=0xec data=0x9964
# KERNEL: UVM_INFO /home/runner/accel_axil_agent.sv(56) @ 647500: uvm_test_top.env.axil_a.drv [axil_csr_drv] WRITE addr=0xec data=0x9964
# KERNEL: UVM_INFO /home/runner/accel_scoreboard.sv(109) @ 672500: uvm_test_top.env.sco [SCO] WRITE addr=0xec data=0x9964
# KERNEL: UVM_INFO /home/runner/accel_axil_agent.sv(121) @ 672500: uvm_test_top.env.axil_a.drv [axil_csr_drv] [CSR] Write Data transaction completed
# KERNEL: UVM_INFO /home/runner/accel_sequences.sv(31) @ 672500: uvm_test_top.env.axil_a.seqr@@wr_seq [CSR_WRITE_SEQ] Written addr=0xec data=0x9964
# KERNEL: UVM_INFO /home/runner/accel_axil_agent.sv(56) @ 677500: uvm_test_top.env.axil_a.drv [axil_csr_drv] WRITE addr=0xec data=0x9964
# KERNEL: UVM_INFO /home/runner/accel_scoreboard.sv(109) @ 702500: uvm_test_top.env.sco [SCO] WRITE addr=0xec data=0x9964
# KERNEL: UVM_INFO /home/runner/accel_axil_agent.sv(121) @ 702500: uvm_test_top.env.axil_a.drv [axil_csr_drv] [CSR] Write Data transaction completed
# KERNEL: UVM_INFO /home/runner/accel_sequences.sv(31) @ 702500: uvm_test_top.env.axil_a.seqr@@wr_seq [CSR_WRITE_SEQ] Written addr=0xec data=0x9964
# KERNEL: UVM_INFO /home/runner/accel_axil_agent.sv(56) @ 707500: uvm_test_top.env.axil_a.drv [axil_csr_drv] WRITE addr=0xec data=0x9964
# KERNEL: UVM_INFO /home/runner/accel_scoreboard.sv(109) @ 732500: uvm_test_top.env.sco [SCO] WRITE addr=0xec data=0x9964
# KERNEL: UVM_INFO /home/runner/accel_axil_agent.sv(121) @ 732500: uvm_test_top.env.axil_a.drv [axil_csr_drv] [CSR] Write Data transaction completed
# KERNEL: UVM_INFO /home/runner/accel_sequences.sv(31) @ 732500: uvm_test_top.env.axil_a.seqr@@wr_seq [CSR_WRITE_SEQ] Written addr=0xec data=0x9964
# KERNEL: UVM_INFO /home/runner/accel_axil_agent.sv(56) @ 737500: uvm_test_top.env.axil_a.drv [axil_csr_drv] WRITE addr=0xec data=0x9964
# KERNEL: UVM_INFO /home/runner/accel_scoreboard.sv(109) @ 762500: uvm_test_top.env.sco [SCO] WRITE addr=0xec data=0x9964
# KERNEL: UVM_INFO /home/runner/accel_axil_agent.sv(121) @ 762500: uvm_test_top.env.axil_a.drv [axil_csr_drv] [CSR] Write Data transaction completed
# KERNEL: UVM_INFO /home/runner/accel_sequences.sv(31) @ 762500: uvm_test_top.env.axil_a.seqr@@wr_seq [CSR_WRITE_SEQ] Written addr=0xec data=0x9964
# KERNEL: UVM_INFO /home/runner/accel_axil_agent.sv(56) @ 767500: uvm_test_top.env.axil_a.drv [axil_csr_drv] WRITE addr=0xec data=0x9964
# KERNEL: UVM_INFO /home/runner/accel_scoreboard.sv(109) @ 792500: uvm_test_top.env.sco [SCO] WRITE addr=0xec data=0x9964
# KERNEL: UVM_INFO /home/runner/accel_axil_agent.sv(121) @ 792500: uvm_test_top.env.axil_a.drv [axil_csr_drv] [CSR] Write Data transaction completed
# KERNEL: UVM_INFO /home/runner/accel_sequences.sv(31) @ 792500: uvm_test_top.env.axil_a.seqr@@wr_seq [CSR_WRITE_SEQ] Written addr=0xec data=0x9964
# KERNEL: UVM_INFO /home/runner/accel_axil_agent.sv(56) @ 797500: uvm_test_top.env.axil_a.drv [axil_csr_drv] WRITE addr=0xec data=0x9964
# KERNEL: UVM_INFO /home/runner/accel_scoreboard.sv(109) @ 822500: uvm_test_top.env.sco [SCO] WRITE addr=0xec data=0x9964
# KERNEL: UVM_INFO /home/runner/accel_axil_agent.sv(121) @ 822500: uvm_test_top.env.axil_a.drv [axil_csr_drv] [CSR] Write Data transaction completed
# KERNEL: UVM_INFO /home/runner/accel_sequences.sv(31) @ 822500: uvm_test_top.env.axil_a.seqr@@wr_seq [CSR_WRITE_SEQ] Written addr=0xec data=0x9964
# KERNEL: UVM_INFO /home/runner/accel_axil_agent.sv(56) @ 827500: uvm_test_top.env.axil_a.drv [axil_csr_drv] WRITE addr=0xec data=0x9964
# KERNEL: UVM_INFO /home/runner/accel_scoreboard.sv(109) @ 852500: uvm_test_top.env.sco [SCO] WRITE addr=0xec data=0x9964
# KERNEL: UVM_INFO /home/runner/accel_axil_agent.sv(121) @ 852500: uvm_test_top.env.axil_a.drv [axil_csr_drv] [CSR] Write Data transaction completed
# KERNEL: UVM_INFO /home/runner/accel_sequences.sv(31) @ 852500: uvm_test_top.env.axil_a.seqr@@wr_seq [CSR_WRITE_SEQ] Written addr=0xec data=0x9964
# KERNEL: UVM_INFO /home/runner/accel_axil_agent.sv(56) @ 857500: uvm_test_top.env.axil_a.drv [axil_csr_drv] WRITE addr=0x8 data=0x10001
# KERNEL: UVM_INFO /home/runner/accel_scoreboard.sv(109) @ 882500: uvm_test_top.env.sco [SCO] WRITE addr=0x8 data=0x10001
# KERNEL: UVM_INFO /home/runner/accel_axil_agent.sv(121) @ 882500: uvm_test_top.env.axil_a.drv [axil_csr_drv] [CSR] Write Data transaction completed
# KERNEL: UVM_INFO /home/runner/accel_sequences.sv(31) @ 882500: uvm_test_top.env.axil_a.seqr@@wr_seq [CSR_WRITE_SEQ] Written addr=0x8 data=0x10001
# KERNEL: UVM_INFO /home/runner/accel_axil_agent.sv(56) @ 887500: uvm_test_top.env.axil_a.drv [axil_csr_drv] WRITE addr=0xe4 data=0x10000
# KERNEL: UVM_INFO /home/runner/accel_scoreboard.sv(109) @ 912500: uvm_test_top.env.sco [SCO] WRITE addr=0xe4 data=0x10000
# KERNEL: UVM_INFO /home/runner/accel_axil_agent.sv(121) @ 912500: uvm_test_top.env.axil_a.drv [axil_csr_drv] [CSR] Write Data transaction completed
# KERNEL: UVM_INFO /home/runner/accel_sequences.sv(31) @ 912500: uvm_test_top.env.axil_a.seqr@@wr_seq [CSR_WRITE_SEQ] Written addr=0xe4 data=0x10000
# KERNEL: UVM_INFO /home/runner/accel_axil_agent.sv(56) @ 917500: uvm_test_top.env.axil_a.drv [axil_csr_drv] WRITE addr=0xc data=0x1
# KERNEL: UVM_INFO /home/runner/accel_scoreboard.sv(109) @ 942500: uvm_test_top.env.sco [SCO] WRITE addr=0xc data=0x1
# KERNEL: UVM_INFO /home/runner/accel_axil_agent.sv(121) @ 942500: uvm_test_top.env.axil_a.drv [axil_csr_drv] [CSR] Write Data transaction completed
# KERNEL: UVM_INFO /home/runner/accel_sequences.sv(31) @ 942500: uvm_test_top.env.axil_a.seqr@@wr_seq [CSR_WRITE_SEQ] Written addr=0xc data=0x1
# KERNEL: UVM_INFO /home/runner/accel_axil_agent.sv(56) @ 947500: uvm_test_top.env.axil_a.drv [axil_csr_drv] WRITE addr=0x0 data=0x1
# KERNEL: UVM_INFO /home/runner/accel_scoreboard.sv(109) @ 972500: uvm_test_top.env.sco [SCO] WRITE addr=0x0 data=0x1
# KERNEL: UVM_INFO /home/runner/accel_axil_agent.sv(121) @ 972500: uvm_test_top.env.axil_a.drv [axil_csr_drv] [CSR] Write Data transaction completed
# KERNEL: UVM_INFO /home/runner/accel_sequences.sv(31) @ 972500: uvm_test_top.env.axil_a.seqr@@wr_seq [CSR_WRITE_SEQ] Written addr=0x0 data=0x1
# KERNEL: UVM_INFO /home/runner/accel_axis_weight_agent.sv(179) @ 1227500: uvm_test_top.env.weight_a.mon [WEIGHT_MON] w0[0]=1 w1[0]=1 idx0[0]=0 idx1[0]=1
# KERNEL: UVM_INFO /home/runner/accel_axis_weight_agent.sv(180) @ 1227500: uvm_test_top.env.weight_a.mon [WEIGHT_MON] Weight tile captured
# KERNEL: UVM_INFO /home/runner/accel_scoreboard.sv(149) @ 1227500: uvm_test_top.env.sco [SCO] Weight tile stored â€” queue=1
# KERNEL: UVM_INFO /home/runner/accel_axis_weight_agent.sv(101) @ 1227500: uvm_test_top.env.weight_a.drv [WEIGHT_DRV] Tile complete
# KERNEL: UVM_INFO /home/runner/accel_sequences.sv(89) @ 1227500: uvm_test_top.env.weight_a.seqr@@w_tile_seq [WEIGHT_TILE_SEQ] Weight tile streamed
# KERNEL: UVM_INFO /home/runner/accel_axil_agent.sv(56) @ 1242500: uvm_test_top.env.axil_a.drv [axil_csr_drv] WRITE addr=0x0 data=0x3
# KERNEL: UVM_INFO /home/runner/accel_scoreboard.sv(109) @ 1267500: uvm_test_top.env.sco [SCO] WRITE addr=0x0 data=0x3
# KERNEL: UVM_INFO /home/runner/accel_axil_agent.sv(121) @ 1267500: uvm_test_top.env.axil_a.drv [axil_csr_drv] [CSR] Write Data transaction completed
# KERNEL: UVM_INFO /home/runner/accel_sequences.sv(31) @ 1267500: uvm_test_top.env.axil_a.seqr@@wr_seq [CSR_WRITE_SEQ] Written addr=0x0 data=0x3
# KERNEL: UVM_INFO /home/runner/accel_axis_act_agent.sv(69) @ 1357500: uvm_test_top.env.act_a.drv [ACT_DRV] Beat 1/2 sent mode=DENSE last=1
# KERNEL: UVM_INFO /home/runner/accel_scoreboard.sv(154) @ 1362500: uvm_test_top.env.sco [SCO] Act vector stored â€” queue=1
# KERNEL: UVM_INFO /home/runner/accel_axis_act_agent.sv(143) @ 1362500: uvm_test_top.env.act_a.mon [ACT_MON] Vector captured a0=1 a1=1 a2=1 a3=1 last=1 mode=DENSE
# KERNEL: UVM_INFO /home/runner/accel_axis_act_agent.sv(69) @ 1362500: uvm_test_top.env.act_a.drv [ACT_DRV] Beat 2/2 sent mode=DENSE last=1
# KERNEL: UVM_INFO /home/runner/accel_sequences.sv(115) @ 1362500: uvm_test_top.env.act_a.seqr@@a_stream_seq [ACT_STREAM_SEQ] Activation vector streamed
# KERNEL: UVM_INFO /home/runner/accel_axis_result_agent.sv(69) @ 1717500: uvm_test_top.env.result_a.mon [RESULT_MON] Result vector captured â€” last=1
# KERNEL: UVM_INFO /home/runner/accel_scoreboard.sv(174) @ 1717500: uvm_test_top.env.sco [SCO] Computing: w0[0]=1 w1[0]=1 a0=1 a1=1
# KERNEL:     Seed 0/10: op=1 scl=186 shft=7 sat=0 fn=3
# KERNEL: UVM_INFO /home/runner/accel_axil_agent.sv(56) @ 1832500: uvm_test_top.env.axil_a.drv [axil_csr_drv] WRITE addr=0x0 data=0x48
# KERNEL: UVM_INFO /home/runner/accel_scoreboard.sv(109) @ 1857500: uvm_test_top.env.sco [SCO] WRITE addr=0x0 data=0x48
# KERNEL: UVM_INFO /home/runner/accel_axil_agent.sv(121) @ 1857500: uvm_test_top.env.axil_a.drv [axil_csr_drv] [CSR] Write Data transaction completed
# KERNEL: UVM_INFO /home/runner/accel_sequences.sv(31) @ 1857500: uvm_test_top.env.axil_a.seqr@@wr_seq [CSR_WRITE_SEQ] Written addr=0x0 data=0x48
# KERNEL: UVM_INFO /home/runner/accel_axil_agent.sv(56) @ 1907500: uvm_test_top.env.axil_a.drv [axil_csr_drv] WRITE addr=0x0 data=0x8
# KERNEL: UVM_INFO /home/runner/accel_scoreboard.sv(109) @ 1932500: uvm_test_top.env.sco [SCO] WRITE addr=0x0 data=0x8
# KERNEL: UVM_INFO /home/runner/accel_axil_agent.sv(121) @ 1932500: uvm_test_top.env.axil_a.drv [axil_csr_drv] [CSR] Write Data transaction completed
# KERNEL: UVM_INFO /home/runner/accel_sequences.sv(31) @ 1932500: uvm_test_top.env.axil_a.seqr@@wr_seq [CSR_WRITE_SEQ] Written addr=0x0 data=0x8
# KERNEL: UVM_INFO /home/runner/accel_axil_agent.sv(56) @ 1957500: uvm_test_top.env.axil_a.drv [axil_csr_drv] WRITE addr=0xb0 data=0x200
# KERNEL: UVM_INFO /home/runner/accel_scoreboard.sv(109) @ 1982500: uvm_test_top.env.sco [SCO] WRITE addr=0xb0 data=0x200
# KERNEL: UVM_INFO /home/runner/accel_axil_agent.sv(121) @ 1982500: uvm_test_top.env.axil_a.drv [axil_csr_drv] [CSR] Write Data transaction completed
# KERNEL: UVM_INFO /home/runner/accel_sequences.sv(31) @ 1982500: uvm_test_top.env.axil_a.seqr@@wr_seq [CSR_WRITE_SEQ] Written addr=0xb0 data=0x200
# KERNEL: UVM_INFO /home/runner/accel_axil_agent.sv(56) @ 1987500: uvm_test_top.env.axil_a.drv [axil_csr_drv] WRITE addr=0xb4 data=0x69
# KERNEL: UVM_INFO /home/runner/accel_scoreboard.sv(109) @ 2012500: uvm_test_top.env.sco [SCO] WRITE addr=0xb4 data=0x69
# KERNEL: UVM_INFO /home/runner/accel_axil_agent.sv(121) @ 2012500: uvm_test_top.env.axil_a.drv [axil_csr_drv] [CSR] Write Data transaction completed
# KERNEL: UVM_INFO /home/runner/accel_sequences.sv(31) @ 2012500: uvm_test_top.env.axil_a.seqr@@wr_seq [CSR_WRITE_SEQ] Written addr=0xb4 data=0x69
# KERNEL: UVM_INFO /home/runner/accel_axil_agent.sv(56) @ 2017500: uvm_test_top.env.axil_a.drv [axil_csr_drv] WRITE addr=0xb8 data=0x4
# KERNEL: UVM_INFO /home/runner/accel_scoreboard.sv(109) @ 2042500: uvm_test_top.env.sco [SCO] WRITE addr=0xb8 data=0x4
# KERNEL: UVM_INFO /home/runner/accel_axil_agent.sv(121) @ 2042500: uvm_test_top.env.axil_a.drv [axil_csr_drv] [CSR] Write Data transaction completed
# KERNEL: UVM_INFO /home/runner/accel_sequences.sv(31) @ 2042500: uvm_test_top.env.axil_a.seqr@@wr_seq [CSR_WRITE_SEQ] Written addr=0xb8 data=0x4
# KERNEL: UVM_INFO /home/runner/accel_axil_agent.sv(56) @ 2047500: uvm_test_top.env.axil_a.drv [axil_csr_drv] WRITE addr=0xbc data=0x595d5556
# KERNEL: UVM_INFO /home/runner/accel_scoreboard.sv(109) @ 2072500: uvm_test_top.env.sco [SCO] WRITE addr=0xbc data=0x595d5556
# KERNEL: UVM_INFO /home/runner/accel_axil_agent.sv(121) @ 2072500: uvm_test_top.env.axil_a.drv [axil_csr_drv] [CSR] Write Data transaction completed
# KERNEL: UVM_INFO /home/runner/accel_sequences.sv(31) @ 2072500: uvm_test_top.env.axil_a.seqr@@wr_seq [CSR_WRITE_SEQ] Written addr=0xbc data=0x595d5556
# KERNEL: UVM_INFO /home/runner/accel_axil_agent.sv(56) @ 2077500: uvm_test_top.env.axil_a.drv [axil_csr_drv] WRITE addr=0xc0 data=0x197a2893
# KERNEL: UVM_INFO /home/runner/accel_scoreboard.sv(109) @ 2102500: uvm_test_top.env.sco [SCO] WRITE addr=0xc0 data=0x197a2893
# KERNEL: UVM_INFO /home/runner/accel_axil_agent.sv(121) @ 2102500: uvm_test_top.env.axil_a.drv [axil_csr_drv] [CSR] Write Data transaction completed
# KERNEL: UVM_INFO /home/runner/accel_sequences.sv(31) @ 2102500: uvm_test_top.env.axil_a.seqr@@wr_seq [CSR_WRITE_SEQ] Written addr=0xc0 data=0x197a2893
# KERNEL: UVM_INFO /home/runner/accel_axil_agent.sv(56) @ 2107500: uvm_test_top.env.axil_a.drv [axil_csr_drv] WRITE addr=0xa0 data=0x3
# KERNEL: UVM_INFO /home/runner/accel_scoreboard.sv(109) @ 2132500: uvm_test_top.env.sco [SCO] WRITE addr=0xa0 data=0x3
# KERNEL: UVM_INFO /home/runner/accel_axil_agent.sv(121) @ 2132500: uvm_test_top.env.axil_a.drv [axil_csr_drv] [CSR] Write Data transaction completed
# KERNEL: UVM_INFO /home/runner/accel_sequences.sv(31) @ 2132500: uvm_test_top.env.axil_a.seqr@@wr_seq [CSR_WRITE_SEQ] Written addr=0xa0 data=0x3
# KERNEL: UVM_INFO /home/runner/accel_axil_agent.sv(56) @ 2137500: uvm_test_top.env.axil_a.drv [axil_csr_drv] WRITE addr=0x8 data=0x10001
# KERNEL: UVM_INFO /home/runner/accel_scoreboard.sv(109) @ 2162500: uvm_test_top.env.sco [SCO] WRITE addr=0x8 data=0x10001
# KERNEL: UVM_INFO /home/runner/accel_axil_agent.sv(121) @ 2162500: uvm_test_top.env.axil_a.drv [axil_csr_drv] [CSR] Write Data transaction completed
# KERNEL: UVM_INFO /home/runner/accel_sequences.sv(31) @ 2162500: uvm_test_top.env.axil_a.seqr@@wr_seq [CSR_WRITE_SEQ] Written addr=0x8 data=0x10001
# KERNEL: UVM_INFO /home/runner/accel_axil_agent.sv(56) @ 2167500: uvm_test_top.env.axil_a.drv [axil_csr_drv] WRITE addr=0xe4 data=0x10000
# KERNEL: UVM_INFO /home/runner/accel_scoreboard.sv(109) @ 2192500: uvm_test_top.env.sco [SCO] WRITE addr=0xe4 data=0x10000
# KERNEL: UVM_INFO /home/runner/accel_axil_agent.sv(121) @ 2192500: uvm_test_top.env.axil_a.drv [axil_csr_drv] [CSR] Write Data transaction completed
# KERNEL: UVM_INFO /home/runner/accel_sequences.sv(31) @ 2192500: uvm_test_top.env.axil_a.seqr@@wr_seq [CSR_WRITE_SEQ] Written addr=0xe4 data=0x10000
# KERNEL: UVM_INFO /home/runner/accel_axil_agent.sv(56) @ 2197500: uvm_test_top.env.axil_a.drv [axil_csr_drv] WRITE addr=0xc data=0x1
# KERNEL: UVM_INFO /home/runner/accel_scoreboard.sv(109) @ 2222500: uvm_test_top.env.sco [SCO] WRITE addr=0xc data=0x1
# KERNEL: UVM_INFO /home/runner/accel_axil_agent.sv(121) @ 2222500: uvm_test_top.env.axil_a.drv [axil_csr_drv] [CSR] Write Data transaction completed
# KERNEL: UVM_INFO /home/runner/accel_sequences.sv(31) @ 2222500: uvm_test_top.env.axil_a.seqr@@wr_seq [CSR_WRITE_SEQ] Written addr=0xc data=0x1
# KERNEL: UVM_INFO /home/runner/accel_axil_agent.sv(56) @ 2227500: uvm_test_top.env.axil_a.drv [axil_csr_drv] WRITE addr=0x0 data=0x1
# KERNEL: UVM_INFO /home/runner/accel_scoreboard.sv(109) @ 2252500: uvm_test_top.env.sco [SCO] WRITE addr=0x0 data=0x1
# KERNEL: UVM_INFO /home/runner/accel_axil_agent.sv(121) @ 2252500: uvm_test_top.env.axil_a.drv [axil_csr_drv] [CSR] Write Data transaction completed
# KERNEL: UVM_INFO /home/runner/accel_sequences.sv(31) @ 2252500: uvm_test_top.env.axil_a.seqr@@wr_seq [CSR_WRITE_SEQ] Written addr=0x0 data=0x1
# KERNEL: UVM_INFO /home/runner/accel_axis_weight_agent.sv(179) @ 2507500: uvm_test_top.env.weight_a.mon [WEIGHT_MON] w0[0]=1 w1[0]=1 idx0[0]=0 idx1[0]=1
# KERNEL: UVM_INFO /home/runner/accel_axis_weight_agent.sv(180) @ 2507500: uvm_test_top.env.weight_a.mon [WEIGHT_MON] Weight tile captured
# KERNEL: UVM_INFO /home/runner/accel_scoreboard.sv(149) @ 2507500: uvm_test_top.env.sco [SCO] Weight tile stored â€” queue=1
# KERNEL: UVM_INFO /home/runner/accel_axis_weight_agent.sv(101) @ 2507500: uvm_test_top.env.weight_a.drv [WEIGHT_DRV] Tile complete
# KERNEL: UVM_INFO /home/runner/accel_sequences.sv(89) @ 2507500: uvm_test_top.env.weight_a.seqr@@w_tile_seq [WEIGHT_TILE_SEQ] Weight tile streamed
# KERNEL: UVM_INFO /home/runner/accel_axil_agent.sv(56) @ 2522500: uvm_test_top.env.axil_a.drv [axil_csr_drv] WRITE addr=0x0 data=0x3
# KERNEL: UVM_INFO /home/runner/accel_scoreboard.sv(109) @ 2547500: uvm_test_top.env.sco [SCO] WRITE addr=0x0 data=0x3
# KERNEL: UVM_INFO /home/runner/accel_axil_agent.sv(121) @ 2547500: uvm_test_top.env.axil_a.drv [axil_csr_drv] [CSR] Write Data transaction completed
# KERNEL: UVM_INFO /home/runner/accel_sequences.sv(31) @ 2547500: uvm_test_top.env.axil_a.seqr@@wr_seq [CSR_WRITE_SEQ] Written addr=0x0 data=0x3
# KERNEL: UVM_INFO /home/runner/accel_axis_act_agent.sv(69) @ 2637500: uvm_test_top.env.act_a.drv [ACT_DRV] Beat 1/2 sent mode=DENSE last=1
# KERNEL: UVM_INFO /home/runner/accel_scoreboard.sv(154) @ 2642500: uvm_test_top.env.sco [SCO] Act vector stored â€” queue=1
# KERNEL: UVM_INFO /home/runner/accel_axis_act_agent.sv(143) @ 2642500: uvm_test_top.env.act_a.mon [ACT_MON] Vector captured a0=1 a1=1 a2=1 a3=1 last=1 mode=DENSE
# KERNEL: UVM_INFO /home/runner/accel_axis_act_agent.sv(69) @ 2642500: uvm_test_top.env.act_a.drv [ACT_DRV] Beat 2/2 sent mode=DENSE last=1
# KERNEL: UVM_INFO /home/runner/accel_sequences.sv(115) @ 2642500: uvm_test_top.env.act_a.seqr@@a_stream_seq [ACT_STREAM_SEQ] Activation vector streamed
# KERNEL: UVM_INFO /home/runner/accel_axis_result_agent.sv(69) @ 2997500: uvm_test_top.env.result_a.mon [RESULT_MON] Result vector captured â€” last=1
# KERNEL: UVM_INFO /home/runner/accel_scoreboard.sv(174) @ 2997500: uvm_test_top.env.sco [SCO] Computing: w0[0]=1 w1[0]=1 a0=1 a1=1
# KERNEL: UVM_INFO /home/runner/accel_axil_agent.sv(56) @ 3112500: uvm_test_top.env.axil_a.drv [axil_csr_drv] WRITE addr=0x0 data=0x48
# KERNEL: UVM_INFO /home/runner/accel_scoreboard.sv(109) @ 3137500: uvm_test_top.env.sco [SCO] WRITE addr=0x0 data=0x48
# KERNEL: UVM_INFO /home/runner/accel_axil_agent.sv(121) @ 3137500: uvm_test_top.env.axil_a.drv [axil_csr_drv] [CSR] Write Data transaction completed
# KERNEL: UVM_INFO /home/runner/accel_sequences.sv(31) @ 3137500: uvm_test_top.env.axil_a.seqr@@wr_seq [CSR_WRITE_SEQ] Written addr=0x0 data=0x48
# KERNEL: UVM_INFO /home/runner/accel_axil_agent.sv(56) @ 3187500: uvm_test_top.env.axil_a.drv [axil_csr_drv] WRITE addr=0x0 data=0x8
# KERNEL: UVM_INFO /home/runner/accel_scoreboard.sv(109) @ 3212500: uvm_test_top.env.sco [SCO] WRITE addr=0x0 data=0x8
# KERNEL: UVM_INFO /home/runner/accel_axil_agent.sv(121) @ 3212500: uvm_test_top.env.axil_a.drv [axil_csr_drv] [CSR] Write Data transaction completed
# KERNEL: UVM_INFO /home/runner/accel_sequences.sv(31) @ 3212500: uvm_test_top.env.axil_a.seqr@@wr_seq [CSR_WRITE_SEQ] Written addr=0x0 data=0x8
# KERNEL: UVM_INFO /home/runner/accel_axil_agent.sv(56) @ 3237500: uvm_test_top.env.axil_a.drv [axil_csr_drv] WRITE addr=0xb0 data=0x4
# KERNEL: UVM_INFO /home/runner/accel_scoreboard.sv(109) @ 3262500: uvm_test_top.env.sco [SCO] WRITE addr=0xb0 data=0x4
# KERNEL: UVM_INFO /home/runner/accel_axil_agent.sv(121) @ 3262500: uvm_test_top.env.axil_a.drv [axil_csr_drv] [CSR] Write Data transaction completed
# KERNEL: UVM_INFO /home/runner/accel_sequences.sv(31) @ 3262500: uvm_test_top.env.axil_a.seqr@@wr_seq [CSR_WRITE_SEQ] Written addr=0xb0 data=0x4
# KERNEL: UVM_INFO /home/runner/accel_axil_agent.sv(56) @ 3267500: uvm_test_top.env.axil_a.drv [axil_csr_drv] WRITE addr=0xb4 data=0xea
# KERNEL: UVM_INFO /home/runner/accel_scoreboard.sv(109) @ 3292500: uvm_test_top.env.sco [SCO] WRITE addr=0xb4 data=0xea
# KERNEL: UVM_INFO /home/runner/accel_axil_agent.sv(121) @ 3292500: uvm_test_top.env.axil_a.drv [axil_csr_drv] [CSR] Write Data transaction completed
# KERNEL: UVM_INFO /home/runner/accel_sequences.sv(31) @ 3292500: uvm_test_top.env.axil_a.seqr@@wr_seq [CSR_WRITE_SEQ] Written addr=0xb4 data=0xea
# KERNEL: UVM_INFO /home/runner/accel_axil_agent.sv(56) @ 3297500: uvm_test_top.env.axil_a.drv [axil_csr_drv] WRITE addr=0xb8 data=0xa
# KERNEL: UVM_INFO /home/runner/accel_scoreboard.sv(109) @ 3322500: uvm_test_top.env.sco [SCO] WRITE addr=0xb8 data=0xa
# KERNEL: UVM_INFO /home/runner/accel_axil_agent.sv(121) @ 3322500: uvm_test_top.env.axil_a.drv [axil_csr_drv] [CSR] Write Data transaction completed
# KERNEL: UVM_INFO /home/runner/accel_sequences.sv(31) @ 3322500: uvm_test_top.env.axil_a.seqr@@wr_seq [CSR_WRITE_SEQ] Written addr=0xb8 data=0xa
# KERNEL: UVM_INFO /home/runner/accel_axil_agent.sv(56) @ 3327500: uvm_test_top.env.axil_a.drv [axil_csr_drv] WRITE addr=0xa0 data=0x1
# KERNEL: UVM_INFO /home/runner/accel_scoreboard.sv(109) @ 3352500: uvm_test_top.env.sco [SCO] WRITE addr=0xa0 data=0x1
# KERNEL: UVM_INFO /home/runner/accel_axil_agent.sv(121) @ 3352500: uvm_test_top.env.axil_a.drv [axil_csr_drv] [CSR] Write Data transaction completed
# KERNEL: UVM_INFO /home/runner/accel_sequences.sv(31) @ 3352500: uvm_test_top.env.axil_a.seqr@@wr_seq [CSR_WRITE_SEQ] Written addr=0xa0 data=0x1
# KERNEL: UVM_INFO /home/runner/accel_axil_agent.sv(56) @ 3357500: uvm_test_top.env.axil_a.drv [axil_csr_drv] WRITE addr=0xe8 data=0x0
# KERNEL: UVM_INFO /home/runner/accel_scoreboard.sv(109) @ 3382500: uvm_test_top.env.sco [SCO] WRITE addr=0xe8 data=0x0
# KERNEL: UVM_INFO /home/runner/accel_axil_agent.sv(121) @ 3382500: uvm_test_top.env.axil_a.drv [axil_csr_drv] [CSR] Write Data transaction completed
# KERNEL: UVM_INFO /home/runner/accel_sequences.sv(31) @ 3382500: uvm_test_top.env.axil_a.seqr@@wr_seq [CSR_WRITE_SEQ] Written addr=0xe8 data=0x0
# KERNEL: UVM_INFO /home/runner/accel_axil_agent.sv(56) @ 3387500: uvm_test_top.env.axil_a.drv [axil_csr_drv] WRITE addr=0xec data=0xd6ce
# KERNEL: UVM_INFO /home/runner/accel_scoreboard.sv(109) @ 3412500: uvm_test_top.env.sco [SCO] WRITE addr=0xec data=0xd6ce
# KERNEL: UVM_INFO /home/runner/accel_axil_agent.sv(121) @ 3412500: uvm_test_top.env.axil_a.drv [axil_csr_drv] [CSR] Write Data transaction completed
# KERNEL: UVM_INFO /home/runner/accel_sequences.sv(31) @ 3412500: uvm_test_top.env.axil_a.seqr@@wr_seq [CSR_WRITE_SEQ] Written addr=0xec data=0xd6ce
# KERNEL: UVM_INFO /home/runner/accel_axil_agent.sv(56) @ 3417500: uvm_test_top.env.axil_a.drv [axil_csr_drv] WRITE addr=0xec data=0xd6ce
# KERNEL: UVM_INFO /home/runner/accel_scoreboard.sv(109) @ 3442500: uvm_test_top.env.sco [SCO] WRITE addr=0xec data=0xd6ce
# KERNEL: UVM_INFO /home/runner/accel_axil_agent.sv(121) @ 3442500: uvm_test_top.env.axil_a.drv [axil_csr_drv] [CSR] Write Data transaction completed
# KERNEL: UVM_INFO /home/runner/accel_sequences.sv(31) @ 3442500: uvm_test_top.env.axil_a.seqr@@wr_seq [CSR_WRITE_SEQ] Written addr=0xec data=0xd6ce
# KERNEL: UVM_INFO /home/runner/accel_axil_agent.sv(56) @ 3447500: uvm_test_top.env.axil_a.drv [axil_csr_drv] WRITE addr=0xec data=0xd6ce
# KERNEL: UVM_INFO /home/runner/accel_scoreboard.sv(109) @ 3472500: uvm_test_top.env.sco [SCO] WRITE addr=0xec data=0xd6ce
# KERNEL: UVM_INFO /home/runner/accel_axil_agent.sv(121) @ 3472500: uvm_test_top.env.axil_a.drv [axil_csr_drv] [CSR] Write Data transaction completed
# KERNEL: UVM_INFO /home/runner/accel_sequences.sv(31) @ 3472500: uvm_test_top.env.axil_a.seqr@@wr_seq [CSR_WRITE_SEQ] Written addr=0xec data=0xd6ce
# KERNEL: UVM_INFO /home/runner/accel_axil_agent.sv(56) @ 3477500: uvm_test_top.env.axil_a.drv [axil_csr_drv] WRITE addr=0xec data=0xd6ce
# KERNEL: UVM_INFO /home/runner/accel_scoreboard.sv(109) @ 3502500: uvm_test_top.env.sco [SCO] WRITE addr=0xec data=0xd6ce
# KERNEL: UVM_INFO /home/runner/accel_axil_agent.sv(121) @ 3502500: uvm_test_top.env.axil_a.drv [axil_csr_drv] [CSR] Write Data transaction completed
# KERNEL: UVM_INFO /home/runner/accel_sequences.sv(31) @ 3502500: uvm_test_top.env.axil_a.seqr@@wr_seq [CSR_WRITE_SEQ] Written addr=0xec data=0xd6ce
# KERNEL: UVM_INFO /home/runner/accel_axil_agent.sv(56) @ 3507500: uvm_test_top.env.axil_a.drv [axil_csr_drv] WRITE addr=0xec data=0xd6ce
# KERNEL: UVM_INFO /home/runner/accel_scoreboard.sv(109) @ 3532500: uvm_test_top.env.sco [SCO] WRITE addr=0xec data=0xd6ce
# KERNEL: UVM_INFO /home/runner/accel_axil_agent.sv(121) @ 3532500: uvm_test_top.env.axil_a.drv [axil_csr_drv] [CSR] Write Data transaction completed
# KERNEL: UVM_INFO /home/runner/accel_sequences.sv(31) @ 3532500: uvm_test_top.env.axil_a.seqr@@wr_seq [CSR_WRITE_SEQ] Written addr=0xec data=0xd6ce
# KERNEL: UVM_INFO /home/runner/accel_axil_agent.sv(56) @ 3537500: uvm_test_top.env.axil_a.drv [axil_csr_drv] WRITE addr=0xec data=0xd6ce
# KERNEL: UVM_INFO /home/runner/accel_scoreboard.sv(109) @ 3562500: uvm_test_top.env.sco [SCO] WRITE addr=0xec data=0xd6ce
# KERNEL: UVM_INFO /home/runner/accel_axil_agent.sv(121) @ 3562500: uvm_test_top.env.axil_a.drv [axil_csr_drv] [CSR] Write Data transaction completed
# KERNEL: UVM_INFO /home/runner/accel_sequences.sv(31) @ 3562500: uvm_test_top.env.axil_a.seqr@@wr_seq [CSR_WRITE_SEQ] Written addr=0xec data=0xd6ce
# KERNEL: UVM_INFO /home/runner/accel_axil_agent.sv(56) @ 3567500: uvm_test_top.env.axil_a.drv [axil_csr_drv] WRITE addr=0xec data=0xd6ce
# KERNEL: UVM_INFO /home/runner/accel_scoreboard.sv(109) @ 3592500: uvm_test_top.env.sco [SCO] WRITE addr=0xec data=0xd6ce
# KERNEL: UVM_INFO /home/runner/accel_axil_agent.sv(121) @ 3592500: uvm_test_top.env.axil_a.drv [axil_csr_drv] [CSR] Write Data transaction completed
# KERNEL: UVM_INFO /home/runner/accel_sequences.sv(31) @ 3592500: uvm_test_top.env.axil_a.seqr@@wr_seq [CSR_WRITE_SEQ] Written addr=0xec data=0xd6ce
# KERNEL: UVM_INFO /home/runner/accel_axil_agent.sv(56) @ 3597500: uvm_test_top.env.axil_a.drv [axil_csr_drv] WRITE addr=0xec data=0xd6ce
# KERNEL: UVM_INFO /home/runner/accel_scoreboard.sv(109) @ 3622500: uvm_test_top.env.sco [SCO] WRITE addr=0xec data=0xd6ce
# KERNEL: UVM_INFO /home/runner/accel_axil_agent.sv(121) @ 3622500: uvm_test_top.env.axil_a.drv [axil_csr_drv] [CSR] Write Data transaction completed
# KERNEL: UVM_INFO /home/runner/accel_sequences.sv(31) @ 3622500: uvm_test_top.env.axil_a.seqr@@wr_seq [CSR_WRITE_SEQ] Written addr=0xec data=0xd6ce
# KERNEL: UVM_INFO /home/runner/accel_axil_agent.sv(56) @ 3627500: uvm_test_top.env.axil_a.drv [axil_csr_drv] WRITE addr=0xec data=0xd6ce
# KERNEL: UVM_INFO /home/runner/accel_scoreboard.sv(109) @ 3652500: uvm_test_top.env.sco [SCO] WRITE addr=0xec data=0xd6ce
# KERNEL: UVM_INFO /home/runner/accel_axil_agent.sv(121) @ 3652500: uvm_test_top.env.axil_a.drv [axil_csr_drv] [CSR] Write Data transaction completed
# KERNEL: UVM_INFO /home/runner/accel_sequences.sv(31) @ 3652500: uvm_test_top.env.axil_a.seqr@@wr_seq [CSR_WRITE_SEQ] Written addr=0xec data=0xd6ce
# KERNEL: UVM_INFO /home/runner/accel_axil_agent.sv(56) @ 3657500: uvm_test_top.env.axil_a.drv [axil_csr_drv] WRITE addr=0xec data=0xd6ce
# KERNEL: UVM_INFO /home/runner/accel_scoreboard.sv(109) @ 3682500: uvm_test_top.env.sco [SCO] WRITE addr=0xec data=0xd6ce
# KERNEL: UVM_INFO /home/runner/accel_axil_agent.sv(121) @ 3682500: uvm_test_top.env.axil_a.drv [axil_csr_drv] [CSR] Write Data transaction completed
# KERNEL: UVM_INFO /home/runner/accel_sequences.sv(31) @ 3682500: uvm_test_top.env.axil_a.seqr@@wr_seq [CSR_WRITE_SEQ] Written addr=0xec data=0xd6ce
# KERNEL: UVM_INFO /home/runner/accel_axil_agent.sv(56) @ 3687500: uvm_test_top.env.axil_a.drv [axil_csr_drv] WRITE addr=0xec data=0xd6ce
# KERNEL: UVM_INFO /home/runner/accel_scoreboard.sv(109) @ 3712500: uvm_test_top.env.sco [SCO] WRITE addr=0xec data=0xd6ce
# KERNEL: UVM_INFO /home/runner/accel_axil_agent.sv(121) @ 3712500: uvm_test_top.env.axil_a.drv [axil_csr_drv] [CSR] Write Data transaction completed
# KERNEL: UVM_INFO /home/runner/accel_sequences.sv(31) @ 3712500: uvm_test_top.env.axil_a.seqr@@wr_seq [CSR_WRITE_SEQ] Written addr=0xec data=0xd6ce
# KERNEL: UVM_INFO /home/runner/accel_axil_agent.sv(56) @ 3717500: uvm_test_top.env.axil_a.drv [axil_csr_drv] WRITE addr=0xec data=0xd6ce
# KERNEL: UVM_INFO /home/runner/accel_scoreboard.sv(109) @ 3742500: uvm_test_top.env.sco [SCO] WRITE addr=0xec data=0xd6ce
# KERNEL: UVM_INFO /home/runner/accel_axil_agent.sv(121) @ 3742500: uvm_test_top.env.axil_a.drv [axil_csr_drv] [CSR] Write Data transaction completed
# KERNEL: UVM_INFO /home/runner/accel_sequences.sv(31) @ 3742500: uvm_test_top.env.axil_a.seqr@@wr_seq [CSR_WRITE_SEQ] Written addr=0xec data=0xd6ce
# KERNEL: UVM_INFO /home/runner/accel_axil_agent.sv(56) @ 3747500: uvm_test_top.env.axil_a.drv [axil_csr_drv] WRITE addr=0xec data=0xd6ce
# KERNEL: UVM_INFO /home/runner/accel_scoreboard.sv(109) @ 3772500: uvm_test_top.env.sco [SCO] WRITE addr=0xec data=0xd6ce
# KERNEL: UVM_INFO /home/runner/accel_axil_agent.sv(121) @ 3772500: uvm_test_top.env.axil_a.drv [axil_csr_drv] [CSR] Write Data transaction completed
# KERNEL: UVM_INFO /home/runner/accel_sequences.sv(31) @ 3772500: uvm_test_top.env.axil_a.seqr@@wr_seq [CSR_WRITE_SEQ] Written addr=0xec data=0xd6ce
# KERNEL: UVM_INFO /home/runner/accel_axil_agent.sv(56) @ 3777500: uvm_test_top.env.axil_a.drv [axil_csr_drv] WRITE addr=0xec data=0xd6ce
# KERNEL: UVM_INFO /home/runner/accel_scoreboard.sv(109) @ 3802500: uvm_test_top.env.sco [SCO] WRITE addr=0xec data=0xd6ce
# KERNEL: UVM_INFO /home/runner/accel_axil_agent.sv(121) @ 3802500: uvm_test_top.env.axil_a.drv [axil_csr_drv] [CSR] Write Data transaction completed
# KERNEL: UVM_INFO /home/runner/accel_sequences.sv(31) @ 3802500: uvm_test_top.env.axil_a.seqr@@wr_seq [CSR_WRITE_SEQ] Written addr=0xec data=0xd6ce
# KERNEL: UVM_INFO /home/runner/accel_axil_agent.sv(56) @ 3807500: uvm_test_top.env.axil_a.drv [axil_csr_drv] WRITE addr=0xec data=0xd6ce
# KERNEL: UVM_INFO /home/runner/accel_scoreboard.sv(109) @ 3832500: uvm_test_top.env.sco [SCO] WRITE addr=0xec data=0xd6ce
# KERNEL: UVM_INFO /home/runner/accel_axil_agent.sv(121) @ 3832500: uvm_test_top.env.axil_a.drv [axil_csr_drv] [CSR] Write Data transaction completed
# KERNEL: UVM_INFO /home/runner/accel_sequences.sv(31) @ 3832500: uvm_test_top.env.axil_a.seqr@@wr_seq [CSR_WRITE_SEQ] Written addr=0xec data=0xd6ce
# KERNEL: UVM_INFO /home/runner/accel_axil_agent.sv(56) @ 3837500: uvm_test_top.env.axil_a.drv [axil_csr_drv] WRITE addr=0xec data=0xd6ce
# KERNEL: UVM_INFO /home/runner/accel_scoreboard.sv(109) @ 3862500: uvm_test_top.env.sco [SCO] WRITE addr=0xec data=0xd6ce
# KERNEL: UVM_INFO /home/runner/accel_axil_agent.sv(121) @ 3862500: uvm_test_top.env.axil_a.drv [axil_csr_drv] [CSR] Write Data transaction completed
# KERNEL: UVM_INFO /home/runner/accel_sequences.sv(31) @ 3862500: uvm_test_top.env.axil_a.seqr@@wr_seq [CSR_WRITE_SEQ] Written addr=0xec data=0xd6ce
# KERNEL: UVM_INFO /home/runner/accel_axil_agent.sv(56) @ 3867500: uvm_test_top.env.axil_a.drv [axil_csr_drv] WRITE addr=0x8 data=0x10001
# KERNEL: UVM_INFO /home/runner/accel_scoreboard.sv(109) @ 3892500: uvm_test_top.env.sco [SCO] WRITE addr=0x8 data=0x10001
# KERNEL: UVM_INFO /home/runner/accel_axil_agent.sv(121) @ 3892500: uvm_test_top.env.axil_a.drv [axil_csr_drv] [CSR] Write Data transaction completed
# KERNEL: UVM_INFO /home/runner/accel_sequences.sv(31) @ 3892500: uvm_test_top.env.axil_a.seqr@@wr_seq [CSR_WRITE_SEQ] Written addr=0x8 data=0x10001
# KERNEL: UVM_INFO /home/runner/accel_axil_agent.sv(56) @ 3897500: uvm_test_top.env.axil_a.drv [axil_csr_drv] WRITE addr=0xe4 data=0x10000
# KERNEL: UVM_INFO /home/runner/accel_scoreboard.sv(109) @ 3922500: uvm_test_top.env.sco [SCO] WRITE addr=0xe4 data=0x10000
# KERNEL: UVM_INFO /home/runner/accel_axil_agent.sv(121) @ 3922500: uvm_test_top.env.axil_a.drv [axil_csr_drv] [CSR] Write Data transaction completed
# KERNEL: UVM_INFO /home/runner/accel_sequences.sv(31) @ 3922500: uvm_test_top.env.axil_a.seqr@@wr_seq [CSR_WRITE_SEQ] Written addr=0xe4 data=0x10000
# KERNEL: UVM_INFO /home/runner/accel_axil_agent.sv(56) @ 3927500: uvm_test_top.env.axil_a.drv [axil_csr_drv] WRITE addr=0xc data=0x1
# KERNEL: UVM_INFO /home/runner/accel_scoreboard.sv(109) @ 3952500: uvm_test_top.env.sco [SCO] WRITE addr=0xc data=0x1
# KERNEL: UVM_INFO /home/runner/accel_axil_agent.sv(121) @ 3952500: uvm_test_top.env.axil_a.drv [axil_csr_drv] [CSR] Write Data transaction completed
# KERNEL: UVM_INFO /home/runner/accel_sequences.sv(31) @ 3952500: uvm_test_top.env.axil_a.seqr@@wr_seq [CSR_WRITE_SEQ] Written addr=0xc data=0x1
# KERNEL: UVM_INFO /home/runner/accel_axil_agent.sv(56) @ 3957500: uvm_test_top.env.axil_a.drv [axil_csr_drv] WRITE addr=0x0 data=0x1
# KERNEL: UVM_INFO /home/runner/accel_scoreboard.sv(109) @ 3982500: uvm_test_top.env.sco [SCO] WRITE addr=0x0 data=0x1
# KERNEL: UVM_INFO /home/runner/accel_axil_agent.sv(121) @ 3982500: uvm_test_top.env.axil_a.drv [axil_csr_drv] [CSR] Write Data transaction completed
# KERNEL: UVM_INFO /home/runner/accel_sequences.sv(31) @ 3982500: uvm_test_top.env.axil_a.seqr@@wr_seq [CSR_WRITE_SEQ] Written addr=0x0 data=0x1
# KERNEL: UVM_INFO /home/runner/accel_axis_weight_agent.sv(179) @ 4237500: uvm_test_top.env.weight_a.mon [WEIGHT_MON] w0[0]=1 w1[0]=1 idx0[0]=0 idx1[0]=1
# KERNEL: UVM_INFO /home/runner/accel_axis_weight_agent.sv(180) @ 4237500: uvm_test_top.env.weight_a.mon [WEIGHT_MON] Weight tile captured
# KERNEL: UVM_INFO /home/runner/accel_scoreboard.sv(149) @ 4237500: uvm_test_top.env.sco [SCO] Weight tile stored â€” queue=1
# KERNEL: UVM_INFO /home/runner/accel_axis_weight_agent.sv(101) @ 4237500: uvm_test_top.env.weight_a.drv [WEIGHT_DRV] Tile complete
# KERNEL: UVM_INFO /home/runner/accel_sequences.sv(89) @ 4237500: uvm_test_top.env.weight_a.seqr@@w_tile_seq [WEIGHT_TILE_SEQ] Weight tile streamed
# KERNEL: UVM_INFO /home/runner/accel_axil_agent.sv(56) @ 4252500: uvm_test_top.env.axil_a.drv [axil_csr_drv] WRITE addr=0x0 data=0x3
# KERNEL: UVM_INFO /home/runner/accel_scoreboard.sv(109) @ 4277500: uvm_test_top.env.sco [SCO] WRITE addr=0x0 data=0x3
# KERNEL: UVM_INFO /home/runner/accel_axil_agent.sv(121) @ 4277500: uvm_test_top.env.axil_a.drv [axil_csr_drv] [CSR] Write Data transaction completed
# KERNEL: UVM_INFO /home/runner/accel_sequences.sv(31) @ 4277500: uvm_test_top.env.axil_a.seqr@@wr_seq [CSR_WRITE_SEQ] Written addr=0x0 data=0x3
# KERNEL: UVM_INFO /home/runner/accel_axis_act_agent.sv(69) @ 4367500: uvm_test_top.env.act_a.drv [ACT_DRV] Beat 1/2 sent mode=DENSE last=1
# KERNEL: UVM_INFO /home/runner/accel_scoreboard.sv(154) @ 4372500: uvm_test_top.env.sco [SCO] Act vector stored â€” queue=1
# KERNEL: UVM_INFO /home/runner/accel_axis_act_agent.sv(143) @ 4372500: uvm_test_top.env.act_a.mon [ACT_MON] Vector captured a0=1 a1=1 a2=1 a3=1 last=1 mode=DENSE
# KERNEL: UVM_INFO /home/runner/accel_axis_act_agent.sv(69) @ 4372500: uvm_test_top.env.act_a.drv [ACT_DRV] Beat 2/2 sent mode=DENSE last=1
# KERNEL: UVM_INFO /home/runner/accel_sequences.sv(115) @ 4372500: uvm_test_top.env.act_a.seqr@@a_stream_seq [ACT_STREAM_SEQ] Activation vector streamed
# KERNEL: UVM_INFO /home/runner/accel_axis_result_agent.sv(69) @ 4727500: uvm_test_top.env.result_a.mon [RESULT_MON] Result vector captured â€” last=1
# KERNEL: UVM_INFO /home/runner/accel_scoreboard.sv(174) @ 4727500: uvm_test_top.env.sco [SCO] Computing: w0[0]=1 w1[0]=1 a0=1 a1=1
# KERNEL:     Seed 2/10: op=4 scl=234 shft=10 sat=0 fn=1
# KERNEL: UVM_INFO /home/runner/accel_axil_agent.sv(56) @ 4842500: uvm_test_top.env.axil_a.drv [axil_csr_drv] WRITE addr=0x0 data=0x48
# KERNEL: UVM_INFO /home/runner/accel_scoreboard.sv(109) @ 4867500: uvm_test_top.env.sco [SCO] WRITE addr=0x0 data=0x48
# KERNEL: UVM_INFO /home/runner/accel_axil_agent.sv(121) @ 4867500: uvm_test_top.env.axil_a.drv [axil_csr_drv] [CSR] Write Data transaction completed
# KERNEL: UVM_INFO /home/runner/accel_sequences.sv(31) @ 4867500: uvm_test_top.env.axil_a.seqr@@wr_seq [CSR_WRITE_SEQ] Written addr=0x0 data=0x48
# KERNEL: UVM_INFO /home/runner/accel_axil_agent.sv(56) @ 4917500: uvm_test_top.env.axil_a.drv [axil_csr_drv] WRITE addr=0x0 data=0x8
# KERNEL: UVM_INFO /home/runner/accel_scoreboard.sv(109) @ 4942500: uvm_test_top.env.sco [SCO] WRITE addr=0x0 data=0x8
# KERNEL: UVM_INFO /home/runner/accel_axil_agent.sv(121) @ 4942500: uvm_test_top.env.axil_a.drv [axil_csr_drv] [CSR] Write Data transaction completed
# KERNEL: UVM_INFO /home/runner/accel_sequences.sv(31) @ 4942500: uvm_test_top.env.axil_a.seqr@@wr_seq [CSR_WRITE_SEQ] Written addr=0x0 data=0x8
# KERNEL: UVM_INFO /home/runner/accel_axil_agent.sv(56) @ 4967500: uvm_test_top.env.axil_a.drv [axil_csr_drv] WRITE addr=0xb0 data=0x1
# KERNEL: UVM_INFO /home/runner/accel_scoreboard.sv(109) @ 4992500: uvm_test_top.env.sco [SCO] WRITE addr=0xb0 data=0x1
# KERNEL: UVM_INFO /home/runner/accel_axil_agent.sv(121) @ 4992500: uvm_test_top.env.axil_a.drv [axil_csr_drv] [CSR] Write Data transaction completed
# KERNEL: UVM_INFO /home/runner/accel_sequences.sv(31) @ 4992500: uvm_test_top.env.axil_a.seqr@@wr_seq [CSR_WRITE_SEQ] Written addr=0xb0 data=0x1
# KERNEL: UVM_INFO /home/runner/accel_axil_agent.sv(56) @ 4997500: uvm_test_top.env.axil_a.drv [axil_csr_drv] WRITE addr=0xb4 data=0xd5
# KERNEL: UVM_INFO /home/runner/accel_scoreboard.sv(109) @ 5022500: uvm_test_top.env.sco [SCO] WRITE addr=0xb4 data=0xd5
# KERNEL: UVM_INFO /home/runner/accel_axil_agent.sv(121) @ 5022500: uvm_test_top.env.axil_a.drv [axil_csr_drv] [CSR] Write Data transaction completed
# KERNEL: UVM_INFO /home/runner/accel_sequences.sv(31) @ 5022500: uvm_test_top.env.axil_a.seqr@@wr_seq [CSR_WRITE_SEQ] Written addr=0xb4 data=0xd5
# KERNEL: UVM_INFO /home/runner/accel_axil_agent.sv(56) @ 5027500: uvm_test_top.env.axil_a.drv [axil_csr_drv] WRITE addr=0xb8 data=0x2
# KERNEL: UVM_INFO /home/runner/accel_scoreboard.sv(109) @ 5052500: uvm_test_top.env.sco [SCO] WRITE addr=0xb8 data=0x2
# KERNEL: UVM_INFO /home/runner/accel_axil_agent.sv(121) @ 5052500: uvm_test_top.env.axil_a.drv [axil_csr_drv] [CSR] Write Data transaction completed
# KERNEL: UVM_INFO /home/runner/accel_sequences.sv(31) @ 5052500: uvm_test_top.env.axil_a.seqr@@wr_seq [CSR_WRITE_SEQ] Written addr=0xb8 data=0x2
# KERNEL: UVM_INFO /home/runner/accel_axil_agent.sv(56) @ 5057500: uvm_test_top.env.axil_a.drv [axil_csr_drv] WRITE addr=0xa0 data=0x0
# KERNEL: UVM_INFO /home/runner/accel_scoreboard.sv(109) @ 5082500: uvm_test_top.env.sco [SCO] WRITE addr=0xa0 data=0x0
# KERNEL: UVM_INFO /home/runner/accel_axil_agent.sv(121) @ 5082500: uvm_test_top.env.axil_a.drv [axil_csr_drv] [CSR] Write Data transaction completed
# KERNEL: UVM_INFO /home/runner/accel_sequences.sv(31) @ 5082500: uvm_test_top.env.axil_a.seqr@@wr_seq [CSR_WRITE_SEQ] Written addr=0xa0 data=0x0
# KERNEL: UVM_INFO /home/runner/accel_axil_agent.sv(56) @ 5087500: uvm_test_top.env.axil_a.drv [axil_csr_drv] WRITE addr=0xe8 data=0x0
# KERNEL: UVM_INFO /home/runner/accel_scoreboard.sv(109) @ 5112500: uvm_test_top.env.sco [SCO] WRITE addr=0xe8 data=0x0
# KERNEL: UVM_INFO /home/runner/accel_axil_agent.sv(121) @ 5112500: uvm_test_top.env.axil_a.drv [axil_csr_drv] [CSR] Write Data transaction completed
# KERNEL: UVM_INFO /home/runner/accel_sequences.sv(31) @ 5112500: uvm_test_top.env.axil_a.seqr@@wr_seq [CSR_WRITE_SEQ] Written addr=0xe8 data=0x0
# KERNEL: UVM_INFO /home/runner/accel_axil_agent.sv(56) @ 5117500: uvm_test_top.env.axil_a.drv [axil_csr_drv] WRITE addr=0xec data=0x12f9
# KERNEL: UVM_INFO /home/runner/accel_scoreboard.sv(109) @ 5142500: uvm_test_top.env.sco [SCO] WRITE addr=0xec data=0x12f9
# KERNEL: UVM_INFO /home/runner/accel_axil_agent.sv(121) @ 5142500: uvm_test_top.env.axil_a.drv [axil_csr_drv] [CSR] Write Data transaction completed
# KERNEL: UVM_INFO /home/runner/accel_sequences.sv(31) @ 5142500: uvm_test_top.env.axil_a.seqr@@wr_seq [CSR_WRITE_SEQ] Written addr=0xec data=0x12f9
# KERNEL: UVM_INFO /home/runner/accel_axil_agent.sv(56) @ 5147500: uvm_test_top.env.axil_a.drv [axil_csr_drv] WRITE addr=0xec data=0x12f9
# KERNEL: UVM_INFO /home/runner/accel_scoreboard.sv(109) @ 5172500: uvm_test_top.env.sco [SCO] WRITE addr=0xec data=0x12f9
# KERNEL: UVM_INFO /home/runner/accel_axil_agent.sv(121) @ 5172500: uvm_test_top.env.axil_a.drv [axil_csr_drv] [CSR] Write Data transaction completed
# KERNEL: UVM_INFO /home/runner/accel_sequences.sv(31) @ 5172500: uvm_test_top.env.axil_a.seqr@@wr_seq [CSR_WRITE_SEQ] Written addr=0xec data=0x12f9
# KERNEL: UVM_INFO /home/runner/accel_axil_agent.sv(56) @ 5177500: uvm_test_top.env.axil_a.drv [axil_csr_drv] WRITE addr=0xec data=0x12f9
# KERNEL: UVM_INFO /home/runner/accel_scoreboard.sv(109) @ 5202500: uvm_test_top.env.sco [SCO] WRITE addr=0xec data=0x12f9
# KERNEL: UVM_INFO /home/runner/accel_axil_agent.sv(121) @ 5202500: uvm_test_top.env.axil_a.drv [axil_csr_drv] [CSR] Write Data transaction completed
# KERNEL: UVM_INFO /home/runner/accel_sequences.sv(31) @ 5202500: uvm_test_top.env.axil_a.seqr@@wr_seq [CSR_WRITE_SEQ] Written addr=0xec data=0x12f9
# KERNEL: UVM_INFO /home/runner/accel_axil_agent.sv(56) @ 5207500: uvm_test_top.env.axil_a.drv [axil_csr_drv] WRITE addr=0xec data=0x12f9
# KERNEL: UVM_INFO /home/runner/accel_scoreboard.sv(109) @ 5232500: uvm_test_top.env.sco [SCO] WRITE addr=0xec data=0x12f9
# KERNEL: UVM_INFO /home/runner/accel_axil_agent.sv(121) @ 5232500: uvm_test_top.env.axil_a.drv [axil_csr_drv] [CSR] Write Data transaction completed
# KERNEL: UVM_INFO /home/runner/accel_sequences.sv(31) @ 5232500: uvm_test_top.env.axil_a.seqr@@wr_seq [CSR_WRITE_SEQ] Written addr=0xec data=0x12f9
# KERNEL: UVM_INFO /home/runner/accel_axil_agent.sv(56) @ 5237500: uvm_test_top.env.axil_a.drv [axil_csr_drv] WRITE addr=0xec data=0x12f9
# KERNEL: UVM_INFO /home/runner/accel_scoreboard.sv(109) @ 5262500: uvm_test_top.env.sco [SCO] WRITE addr=0xec data=0x12f9
# KERNEL: UVM_INFO /home/runner/accel_axil_agent.sv(121) @ 5262500: uvm_test_top.env.axil_a.drv [axil_csr_drv] [CSR] Write Data transaction completed
# KERNEL: UVM_INFO /home/runner/accel_sequences.sv(31) @ 5262500: uvm_test_top.env.axil_a.seqr@@wr_seq [CSR_WRITE_SEQ] Written addr=0xec data=0x12f9
# KERNEL: UVM_INFO /home/runner/accel_axil_agent.sv(56) @ 5267500: uvm_test_top.env.axil_a.drv [axil_csr_drv] WRITE addr=0xec data=0x12f9
# KERNEL: UVM_INFO /home/runner/accel_scoreboard.sv(109) @ 5292500: uvm_test_top.env.sco [SCO] WRITE addr=0xec data=0x12f9
# KERNEL: UVM_INFO /home/runner/accel_axil_agent.sv(121) @ 5292500: uvm_test_top.env.axil_a.drv [axil_csr_drv] [CSR] Write Data transaction completed
# KERNEL: UVM_INFO /home/runner/accel_sequences.sv(31) @ 5292500: uvm_test_top.env.axil_a.seqr@@wr_seq [CSR_WRITE_SEQ] Written addr=0xec data=0x12f9
# KERNEL: UVM_INFO /home/runner/accel_axil_agent.sv(56) @ 5297500: uvm_test_top.env.axil_a.drv [axil_csr_drv] WRITE addr=0xec data=0x12f9
# KERNEL: UVM_INFO /home/runner/accel_scoreboard.sv(109) @ 5322500: uvm_test_top.env.sco [SCO] WRITE addr=0xec data=0x12f9
# KERNEL: UVM_INFO /home/runner/accel_axil_agent.sv(121) @ 5322500: uvm_test_top.env.axil_a.drv [axil_csr_drv] [CSR] Write Data transaction completed
# KERNEL: UVM_INFO /home/runner/accel_sequences.sv(31) @ 5322500: uvm_test_top.env.axil_a.seqr@@wr_seq [CSR_WRITE_SEQ] Written addr=0xec data=0x12f9
# KERNEL: UVM_INFO /home/runner/accel_axil_agent.sv(56) @ 5327500: uvm_test_top.env.axil_a.drv [axil_csr_drv] WRITE addr=0xec data=0x12f9
# KERNEL: UVM_INFO /home/runner/accel_scoreboard.sv(109) @ 5352500: uvm_test_top.env.sco [SCO] WRITE addr=0xec data=0x12f9
# KERNEL: UVM_INFO /home/runner/accel_axil_agent.sv(121) @ 5352500: uvm_test_top.env.axil_a.drv [axil_csr_drv] [CSR] Write Data transaction completed
# KERNEL: UVM_INFO /home/runner/accel_sequences.sv(31) @ 5352500: uvm_test_top.env.axil_a.seqr@@wr_seq [CSR_WRITE_SEQ] Written addr=0xec data=0x12f9
# KERNEL: UVM_INFO /home/runner/accel_axil_agent.sv(56) @ 5357500: uvm_test_top.env.axil_a.drv [axil_csr_drv] WRITE addr=0xec data=0x12f9
# KERNEL: UVM_INFO /home/runner/accel_scoreboard.sv(109) @ 5382500: uvm_test_top.env.sco [SCO] WRITE addr=0xec data=0x12f9
# KERNEL: UVM_INFO /home/runner/accel_axil_agent.sv(121) @ 5382500: uvm_test_top.env.axil_a.drv [axil_csr_drv] [CSR] Write Data transaction completed
# KERNEL: UVM_INFO /home/runner/accel_sequences.sv(31) @ 5382500: uvm_test_top.env.axil_a.seqr@@wr_seq [CSR_WRITE_SEQ] Written addr=0xec data=0x12f9
# KERNEL: UVM_INFO /home/runner/accel_axil_agent.sv(56) @ 5387500: uvm_test_top.env.axil_a.drv [axil_csr_drv] WRITE addr=0xec data=0x12f9
# KERNEL: UVM_INFO /home/runner/accel_scoreboard.sv(109) @ 5412500: uvm_test_top.env.sco [SCO] WRITE addr=0xec data=0x12f9
# KERNEL: UVM_INFO /home/runner/accel_axil_agent.sv(121) @ 5412500: uvm_test_top.env.axil_a.drv [axil_csr_drv] [CSR] Write Data transaction completed
# KERNEL: UVM_INFO /home/runner/accel_sequences.sv(31) @ 5412500: uvm_test_top.env.axil_a.seqr@@wr_seq [CSR_WRITE_SEQ] Written addr=0xec data=0x12f9
# KERNEL: UVM_INFO /home/runner/accel_axil_agent.sv(56) @ 5417500: uvm_test_top.env.axil_a.drv [axil_csr_drv] WRITE addr=0xec data=0x12f9
# KERNEL: UVM_INFO /home/runner/accel_scoreboard.sv(109) @ 5442500: uvm_test_top.env.sco [SCO] WRITE addr=0xec data=0x12f9
# KERNEL: UVM_INFO /home/runner/accel_axil_agent.sv(121) @ 5442500: uvm_test_top.env.axil_a.drv [axil_csr_drv] [CSR] Write Data transaction completed
# KERNEL: UVM_INFO /home/runner/accel_sequences.sv(31) @ 5442500: uvm_test_top.env.axil_a.seqr@@wr_seq [CSR_WRITE_SEQ] Written addr=0xec data=0x12f9
# KERNEL: UVM_INFO /home/runner/accel_axil_agent.sv(56) @ 5447500: uvm_test_top.env.axil_a.drv [axil_csr_drv] WRITE addr=0xec data=0x12f9
# KERNEL: UVM_INFO /home/runner/accel_scoreboard.sv(109) @ 5472500: uvm_test_top.env.sco [SCO] WRITE addr=0xec data=0x12f9
# KERNEL: UVM_INFO /home/runner/accel_axil_agent.sv(121) @ 5472500: uvm_test_top.env.axil_a.drv [axil_csr_drv] [CSR] Write Data transaction completed
# KERNEL: UVM_INFO /home/runner/accel_sequences.sv(31) @ 5472500: uvm_test_top.env.axil_a.seqr@@wr_seq [CSR_WRITE_SEQ] Written addr=0xec data=0x12f9
# KERNEL: UVM_INFO /home/runner/accel_axil_agent.sv(56) @ 5477500: uvm_test_top.env.axil_a.drv [axil_csr_drv] WRITE addr=0xec data=0x12f9
# KERNEL: UVM_INFO /home/runner/accel_scoreboard.sv(109) @ 5502500: uvm_test_top.env.sco [SCO] WRITE addr=0xec data=0x12f9
# KERNEL: UVM_INFO /home/runner/accel_axil_agent.sv(121) @ 5502500: uvm_test_top.env.axil_a.drv [axil_csr_drv] [CSR] Write Data transaction completed
# KERNEL: UVM_INFO /home/runner/accel_sequences.sv(31) @ 5502500: uvm_test_top.env.axil_a.seqr@@wr_seq [CSR_WRITE_SEQ] Written addr=0xec data=0x12f9
# KERNEL: UVM_INFO /home/runner/accel_axil_agent.sv(56) @ 5507500: uvm_test_top.env.axil_a.drv [axil_csr_drv] WRITE addr=0xec data=0x12f9
# KERNEL: UVM_INFO /home/runner/accel_scoreboard.sv(109) @ 5532500: uvm_test_top.env.sco [SCO] WRITE addr=0xec data=0x12f9
# KERNEL: UVM_INFO /home/runner/accel_axil_agent.sv(121) @ 5532500: uvm_test_top.env.axil_a.drv [axil_csr_drv] [CSR] Write Data transaction completed
# KERNEL: UVM_INFO /home/runner/accel_sequences.sv(31) @ 5532500: uvm_test_top.env.axil_a.seqr@@wr_seq [CSR_WRITE_SEQ] Written addr=0xec data=0x12f9
# KERNEL: UVM_INFO /home/runner/accel_axil_agent.sv(56) @ 5537500: uvm_test_top.env.axil_a.drv [axil_csr_drv] WRITE addr=0xec data=0x12f9
# KERNEL: UVM_INFO /home/runner/accel_scoreboard.sv(109) @ 5562500: uvm_test_top.env.sco [SCO] WRITE addr=0xec data=0x12f9
# KERNEL: UVM_INFO /home/runner/accel_axil_agent.sv(121) @ 5562500: uvm_test_top.env.axil_a.drv [axil_csr_drv] [CSR] Write Data transaction completed
# KERNEL: UVM_INFO /home/runner/accel_sequences.sv(31) @ 5562500: uvm_test_top.env.axil_a.seqr@@wr_seq [CSR_WRITE_SEQ] Written addr=0xec data=0x12f9
# KERNEL: UVM_INFO /home/runner/accel_axil_agent.sv(56) @ 5567500: uvm_test_top.env.axil_a.drv [axil_csr_drv] WRITE addr=0xec data=0x12f9
# KERNEL: UVM_INFO /home/runner/accel_scoreboard.sv(109) @ 5592500: uvm_test_top.env.sco [SCO] WRITE addr=0xec data=0x12f9
# KERNEL: UVM_INFO /home/runner/accel_axil_agent.sv(121) @ 5592500: uvm_test_top.env.axil_a.drv [axil_csr_drv] [CSR] Write Data transaction completed
# KERNEL: UVM_INFO /home/runner/accel_sequences.sv(31) @ 5592500: uvm_test_top.env.axil_a.seqr@@wr_seq [CSR_WRITE_SEQ] Written addr=0xec data=0x12f9
# KERNEL: UVM_INFO /home/runner/accel_axil_agent.sv(56) @ 5597500: uvm_test_top.env.axil_a.drv [axil_csr_drv] WRITE addr=0x8 data=0x10001
# KERNEL: UVM_INFO /home/runner/accel_scoreboard.sv(109) @ 5622500: uvm_test_top.env.sco [SCO] WRITE addr=0x8 data=0x10001
# KERNEL: UVM_INFO /home/runner/accel_axil_agent.sv(121) @ 5622500: uvm_test_top.env.axil_a.drv [axil_csr_drv] [CSR] Write Data transaction completed
# KERNEL: UVM_INFO /home/runner/accel_sequences.sv(31) @ 5622500: uvm_test_top.env.axil_a.seqr@@wr_seq [CSR_WRITE_SEQ] Written addr=0x8 data=0x10001
# KERNEL: UVM_INFO /home/runner/accel_axil_agent.sv(56) @ 5627500: uvm_test_top.env.axil_a.drv [axil_csr_drv] WRITE addr=0xe4 data=0x10000
# KERNEL: UVM_INFO /home/runner/accel_scoreboard.sv(109) @ 5652500: uvm_test_top.env.sco [SCO] WRITE addr=0xe4 data=0x10000
# KERNEL: UVM_INFO /home/runner/accel_axil_agent.sv(121) @ 5652500: uvm_test_top.env.axil_a.drv [axil_csr_drv] [CSR] Write Data transaction completed
# KERNEL: UVM_INFO /home/runner/accel_sequences.sv(31) @ 5652500: uvm_test_top.env.axil_a.seqr@@wr_seq [CSR_WRITE_SEQ] Written addr=0xe4 data=0x10000
# KERNEL: UVM_INFO /home/runner/accel_axil_agent.sv(56) @ 5657500: uvm_test_top.env.axil_a.drv [axil_csr_drv] WRITE addr=0xc data=0x1
# KERNEL: UVM_INFO /home/runner/accel_scoreboard.sv(109) @ 5682500: uvm_test_top.env.sco [SCO] WRITE addr=0xc data=0x1
# KERNEL: UVM_INFO /home/runner/accel_axil_agent.sv(121) @ 5682500: uvm_test_top.env.axil_a.drv [axil_csr_drv] [CSR] Write Data transaction completed
# KERNEL: UVM_INFO /home/runner/accel_sequences.sv(31) @ 5682500: uvm_test_top.env.axil_a.seqr@@wr_seq [CSR_WRITE_SEQ] Written addr=0xc data=0x1
# KERNEL: UVM_INFO /home/runner/accel_axil_agent.sv(56) @ 5687500: uvm_test_top.env.axil_a.drv [axil_csr_drv] WRITE addr=0x0 data=0x1
# KERNEL: UVM_INFO /home/runner/accel_scoreboard.sv(109) @ 5712500: uvm_test_top.env.sco [SCO] WRITE addr=0x0 data=0x1
# KERNEL: UVM_INFO /home/runner/accel_axil_agent.sv(121) @ 5712500: uvm_test_top.env.axil_a.drv [axil_csr_drv] [CSR] Write Data transaction completed
# KERNEL: UVM_INFO /home/runner/accel_sequences.sv(31) @ 5712500: uvm_test_top.env.axil_a.seqr@@wr_seq [CSR_WRITE_SEQ] Written addr=0x0 data=0x1
# KERNEL: UVM_INFO /home/runner/accel_axis_weight_agent.sv(179) @ 5967500: uvm_test_top.env.weight_a.mon [WEIGHT_MON] w0[0]=1 w1[0]=1 idx0[0]=0 idx1[0]=1
# KERNEL: UVM_INFO /home/runner/accel_axis_weight_agent.sv(180) @ 5967500: uvm_test_top.env.weight_a.mon [WEIGHT_MON] Weight tile captured
# KERNEL: UVM_INFO /home/runner/accel_scoreboard.sv(149) @ 5967500: uvm_test_top.env.sco [SCO] Weight tile stored â€” queue=1
# KERNEL: UVM_INFO /home/runner/accel_axis_weight_agent.sv(101) @ 5967500: uvm_test_top.env.weight_a.drv [WEIGHT_DRV] Tile complete
# KERNEL: UVM_INFO /home/runner/accel_sequences.sv(89) @ 5967500: uvm_test_top.env.weight_a.seqr@@w_tile_seq [WEIGHT_TILE_SEQ] Weight tile streamed
# KERNEL: UVM_INFO /home/runner/accel_axil_agent.sv(56) @ 5982500: uvm_test_top.env.axil_a.drv [axil_csr_drv] WRITE addr=0x0 data=0x3
# KERNEL: UVM_INFO /home/runner/accel_scoreboard.sv(109) @ 6007500: uvm_test_top.env.sco [SCO] WRITE addr=0x0 data=0x3
# KERNEL: UVM_INFO /home/runner/accel_axil_agent.sv(121) @ 6007500: uvm_test_top.env.axil_a.drv [axil_csr_drv] [CSR] Write Data transaction completed
# KERNEL: UVM_INFO /home/runner/accel_sequences.sv(31) @ 6007500: uvm_test_top.env.axil_a.seqr@@wr_seq [CSR_WRITE_SEQ] Written addr=0x0 data=0x3
# KERNEL: UVM_INFO /home/runner/accel_axis_act_agent.sv(69) @ 6097500: uvm_test_top.env.act_a.drv [ACT_DRV] Beat 1/2 sent mode=DENSE last=1
# KERNEL: UVM_INFO /home/runner/accel_scoreboard.sv(154) @ 6102500: uvm_test_top.env.sco [SCO] Act vector stored â€” queue=1
# KERNEL: UVM_INFO /home/runner/accel_axis_act_agent.sv(143) @ 6102500: uvm_test_top.env.act_a.mon [ACT_MON] Vector captured a0=1 a1=1 a2=1 a3=1 last=1 mode=DENSE
# KERNEL: UVM_INFO /home/runner/accel_axis_act_agent.sv(69) @ 6102500: uvm_test_top.env.act_a.drv [ACT_DRV] Beat 2/2 sent mode=DENSE last=1
# KERNEL: UVM_INFO /home/runner/accel_sequences.sv(115) @ 6102500: uvm_test_top.env.act_a.seqr@@a_stream_seq [ACT_STREAM_SEQ] Activation vector streamed
# KERNEL: UVM_INFO /home/runner/accel_axis_result_agent.sv(69) @ 6457500: uvm_test_top.env.result_a.mon [RESULT_MON] Result vector captured â€” last=1
# KERNEL: UVM_INFO /home/runner/accel_scoreboard.sv(174) @ 6457500: uvm_test_top.env.sco [SCO] Computing: w0[0]=1 w1[0]=1 a0=1 a1=1
# KERNEL: UVM_INFO /home/runner/accel_axil_agent.sv(56) @ 6572500: uvm_test_top.env.axil_a.drv [axil_csr_drv] WRITE addr=0x0 data=0x48
# KERNEL: UVM_INFO /home/runner/accel_scoreboard.sv(109) @ 6597500: uvm_test_top.env.sco [SCO] WRITE addr=0x0 data=0x48
# KERNEL: UVM_INFO /home/runner/accel_axil_agent.sv(121) @ 6597500: uvm_test_top.env.axil_a.drv [axil_csr_drv] [CSR] Write Data transaction completed
# KERNEL: UVM_INFO /home/runner/accel_sequences.sv(31) @ 6597500: uvm_test_top.env.axil_a.seqr@@wr_seq [CSR_WRITE_SEQ] Written addr=0x0 data=0x48
# KERNEL: UVM_INFO /home/runner/accel_axil_agent.sv(56) @ 6647500: uvm_test_top.env.axil_a.drv [axil_csr_drv] WRITE addr=0x0 data=0x8
# KERNEL: UVM_INFO /home/runner/accel_scoreboard.sv(109) @ 6672500: uvm_test_top.env.sco [SCO] WRITE addr=0x0 data=0x8
# KERNEL: UVM_INFO /home/runner/accel_axil_agent.sv(121) @ 6672500: uvm_test_top.env.axil_a.drv [axil_csr_drv] [CSR] Write Data transaction completed
# KERNEL: UVM_INFO /home/runner/accel_sequences.sv(31) @ 6672500: uvm_test_top.env.axil_a.seqr@@wr_seq [CSR_WRITE_SEQ] Written addr=0x0 data=0x8
# KERNEL: UVM_INFO /home/runner/accel_axil_agent.sv(56) @ 6697500: uvm_test_top.env.axil_a.drv [axil_csr_drv] WRITE addr=0xb0 data=0x204
# KERNEL: UVM_INFO /home/runner/accel_scoreboard.sv(109) @ 6722500: uvm_test_top.env.sco [SCO] WRITE addr=0xb0 data=0x204
# KERNEL: UVM_INFO /home/runner/accel_axil_agent.sv(121) @ 6722500: uvm_test_top.env.axil_a.drv [axil_csr_drv] [CSR] Write Data transaction completed
# KERNEL: UVM_INFO /home/runner/accel_sequences.sv(31) @ 6722500: uvm_test_top.env.axil_a.seqr@@wr_seq [CSR_WRITE_SEQ] Written addr=0xb0 data=0x204
# KERNEL: UVM_INFO /home/runner/accel_axil_agent.sv(56) @ 6727500: uvm_test_top.env.axil_a.drv [axil_csr_drv] WRITE addr=0xb4 data=0x80
# KERNEL: UVM_INFO /home/runner/accel_scoreboard.sv(109) @ 6752500: uvm_test_top.env.sco [SCO] WRITE addr=0xb4 data=0x80
# KERNEL: UVM_INFO /home/runner/accel_axil_agent.sv(121) @ 6752500: uvm_test_top.env.axil_a.drv [axil_csr_drv] [CSR] Write Data transaction completed
# KERNEL: UVM_INFO /home/runner/accel_sequences.sv(31) @ 6752500: uvm_test_top.env.axil_a.seqr@@wr_seq [CSR_WRITE_SEQ] Written addr=0xb4 data=0x80
# KERNEL: UVM_INFO /home/runner/accel_axil_agent.sv(56) @ 6757500: uvm_test_top.env.axil_a.drv [axil_csr_drv] WRITE addr=0xb8 data=0x9
# KERNEL: UVM_INFO /home/runner/accel_scoreboard.sv(109) @ 6782500: uvm_test_top.env.sco [SCO] WRITE addr=0xb8 data=0x9
# KERNEL: UVM_INFO /home/runner/accel_axil_agent.sv(121) @ 6782500: uvm_test_top.env.axil_a.drv [axil_csr_drv] [CSR] Write Data transaction completed
# KERNEL: UVM_INFO /home/runner/accel_sequences.sv(31) @ 6782500: uvm_test_top.env.axil_a.seqr@@wr_seq [CSR_WRITE_SEQ] Written addr=0xb8 data=0x9
# KERNEL: UVM_INFO /home/runner/accel_axil_agent.sv(56) @ 6787500: uvm_test_top.env.axil_a.drv [axil_csr_drv] WRITE addr=0xbc data=0x39766047
# KERNEL: UVM_INFO /home/runner/accel_scoreboard.sv(109) @ 6812500: uvm_test_top.env.sco [SCO] WRITE addr=0xbc data=0x39766047
# KERNEL: UVM_INFO /home/runner/accel_axil_agent.sv(121) @ 6812500: uvm_test_top.env.axil_a.drv [axil_csr_drv] [CSR] Write Data transaction completed
# KERNEL: UVM_INFO /home/runner/accel_sequences.sv(31) @ 6812500: uvm_test_top.env.axil_a.seqr@@wr_seq [CSR_WRITE_SEQ] Written addr=0xbc data=0x39766047
# KERNEL: UVM_INFO /home/runner/accel_axil_agent.sv(56) @ 6817500: uvm_test_top.env.axil_a.drv [axil_csr_drv] WRITE addr=0xc0 data=0xcf39c01a
# KERNEL: UVM_INFO /home/runner/accel_scoreboard.sv(109) @ 6842500: uvm_test_top.env.sco [SCO] WRITE addr=0xc0 data=0xcf39c01a
# KERNEL: UVM_INFO /home/runner/accel_axil_agent.sv(121) @ 6842500: uvm_test_top.env.axil_a.drv [axil_csr_drv] [CSR] Write Data transaction completed
# KERNEL: UVM_INFO /home/runner/accel_sequences.sv(31) @ 6842500: uvm_test_top.env.axil_a.seqr@@wr_seq [CSR_WRITE_SEQ] Written addr=0xc0 data=0xcf39c01a
# KERNEL: UVM_INFO /home/runner/accel_axil_agent.sv(56) @ 6847500: uvm_test_top.env.axil_a.drv [axil_csr_drv] WRITE addr=0xa0 data=0x3
# KERNEL: UVM_INFO /home/runner/accel_scoreboard.sv(109) @ 6872500: uvm_test_top.env.sco [SCO] WRITE addr=0xa0 data=0x3
# KERNEL: UVM_INFO /home/runner/accel_axil_agent.sv(121) @ 6872500: uvm_test_top.env.axil_a.drv [axil_csr_drv] [CSR] Write Data transaction completed
# KERNEL: UVM_INFO /home/runner/accel_sequences.sv(31) @ 6872500: uvm_test_top.env.axil_a.seqr@@wr_seq [CSR_WRITE_SEQ] Written addr=0xa0 data=0x3
# KERNEL: UVM_INFO /home/runner/accel_axil_agent.sv(56) @ 6877500: uvm_test_top.env.axil_a.drv [axil_csr_drv] WRITE addr=0xe8 data=0x0
# KERNEL: UVM_INFO /home/runner/accel_scoreboard.sv(109) @ 6902500: uvm_test_top.env.sco [SCO] WRITE addr=0xe8 data=0x0
# KERNEL: UVM_INFO /home/runner/accel_axil_agent.sv(121) @ 6902500: uvm_test_top.env.axil_a.drv [axil_csr_drv] [CSR] Write Data transaction completed
# KERNEL: UVM_INFO /home/runner/accel_sequences.sv(31) @ 6902500: uvm_test_top.env.axil_a.seqr@@wr_seq [CSR_WRITE_SEQ] Written addr=0xe8 data=0x0
# KERNEL: UVM_INFO /home/runner/accel_axil_agent.sv(56) @ 6907500: uvm_test_top.env.axil_a.drv [axil_csr_drv] WRITE addr=0xec data=0xcf8
# KERNEL: UVM_INFO /home/runner/accel_scoreboard.sv(109) @ 6932500: uvm_test_top.env.sco [SCO] WRITE addr=0xec data=0xcf8
# KERNEL: UVM_INFO /home/runner/accel_axil_agent.sv(121) @ 6932500: uvm_test_top.env.axil_a.drv [axil_csr_drv] [CSR] Write Data transaction completed
# KERNEL: UVM_INFO /home/runner/accel_sequences.sv(31) @ 6932500: uvm_test_top.env.axil_a.seqr@@wr_seq [CSR_WRITE_SEQ] Written addr=0xec data=0xcf8
# KERNEL: UVM_INFO /home/runner/accel_axil_agent.sv(56) @ 6937500: uvm_test_top.env.axil_a.drv [axil_csr_drv] WRITE addr=0xec data=0xcf8
# KERNEL: UVM_INFO /home/runner/accel_scoreboard.sv(109) @ 6962500: uvm_test_top.env.sco [SCO] WRITE addr=0xec data=0xcf8
# KERNEL: UVM_INFO /home/runner/accel_axil_agent.sv(121) @ 6962500: uvm_test_top.env.axil_a.drv [axil_csr_drv] [CSR] Write Data transaction completed
# KERNEL: UVM_INFO /home/runner/accel_sequences.sv(31) @ 6962500: uvm_test_top.env.axil_a.seqr@@wr_seq [CSR_WRITE_SEQ] Written addr=0xec data=0xcf8
# KERNEL: UVM_INFO /home/runner/accel_axil_agent.sv(56) @ 6967500: uvm_test_top.env.axil_a.drv [axil_csr_drv] WRITE addr=0xec data=0xcf8
# KERNEL: UVM_INFO /home/runner/accel_scoreboard.sv(109) @ 6992500: uvm_test_top.env.sco [SCO] WRITE addr=0xec data=0xcf8
# KERNEL: UVM_INFO /home/runner/accel_axil_agent.sv(121) @ 6992500: uvm_test_top.env.axil_a.drv [axil_csr_drv] [CSR] Write Data transaction completed
# KERNEL: UVM_INFO /home/runner/accel_sequences.sv(31) @ 6992500: uvm_test_top.env.axil_a.seqr@@wr_seq [CSR_WRITE_SEQ] Written addr=0xec data=0xcf8
# KERNEL: UVM_INFO /home/runner/accel_axil_agent.sv(56) @ 6997500: uvm_test_top.env.axil_a.drv [axil_csr_drv] WRITE addr=0xec data=0xcf8
# KERNEL: UVM_INFO /home/runner/accel_scoreboard.sv(109) @ 7022500: uvm_test_top.env.sco [SCO] WRITE addr=0xec data=0xcf8
# KERNEL: UVM_INFO /home/runner/accel_axil_agent.sv(121) @ 7022500: uvm_test_top.env.axil_a.drv [axil_csr_drv] [CSR] Write Data transaction completed
# KERNEL: UVM_INFO /home/runner/accel_sequences.sv(31) @ 7022500: uvm_test_top.env.axil_a.seqr@@wr_seq [CSR_WRITE_SEQ] Written addr=0xec data=0xcf8
# KERNEL: UVM_INFO /home/runner/accel_axil_agent.sv(56) @ 7027500: uvm_test_top.env.axil_a.drv [axil_csr_drv] WRITE addr=0xec data=0xcf8
# KERNEL: UVM_INFO /home/runner/accel_scoreboard.sv(109) @ 7052500: uvm_test_top.env.sco [SCO] WRITE addr=0xec data=0xcf8
# KERNEL: UVM_INFO /home/runner/accel_axil_agent.sv(121) @ 7052500: uvm_test_top.env.axil_a.drv [axil_csr_drv] [CSR] Write Data transaction completed
# KERNEL: UVM_INFO /home/runner/accel_sequences.sv(31) @ 7052500: uvm_test_top.env.axil_a.seqr@@wr_seq [CSR_WRITE_SEQ] Written addr=0xec data=0xcf8
# KERNEL: UVM_INFO /home/runner/accel_axil_agent.sv(56) @ 7057500: uvm_test_top.env.axil_a.drv [axil_csr_drv] WRITE addr=0xec data=0xcf8
# KERNEL: UVM_INFO /home/runner/accel_scoreboard.sv(109) @ 7082500: uvm_test_top.env.sco [SCO] WRITE addr=0xec data=0xcf8
# KERNEL: UVM_INFO /home/runner/accel_axil_agent.sv(121) @ 7082500: uvm_test_top.env.axil_a.drv [axil_csr_drv] [CSR] Write Data transaction completed
# KERNEL: UVM_INFO /home/runner/accel_sequences.sv(31) @ 7082500: uvm_test_top.env.axil_a.seqr@@wr_seq [CSR_WRITE_SEQ] Written addr=0xec data=0xcf8
# KERNEL: UVM_INFO /home/runner/accel_axil_agent.sv(56) @ 7087500: uvm_test_top.env.axil_a.drv [axil_csr_drv] WRITE addr=0xec data=0xcf8
# KERNEL: UVM_INFO /home/runner/accel_scoreboard.sv(109) @ 7112500: uvm_test_top.env.sco [SCO] WRITE addr=0xec data=0xcf8
# KERNEL: UVM_INFO /home/runner/accel_axil_agent.sv(121) @ 7112500: uvm_test_top.env.axil_a.drv [axil_csr_drv] [CSR] Write Data transaction completed
# KERNEL: UVM_INFO /home/runner/accel_sequences.sv(31) @ 7112500: uvm_test_top.env.axil_a.seqr@@wr_seq [CSR_WRITE_SEQ] Written addr=0xec data=0xcf8
# KERNEL: UVM_INFO /home/runner/accel_axil_agent.sv(56) @ 7117500: uvm_test_top.env.axil_a.drv [axil_csr_drv] WRITE addr=0xec data=0xcf8
# KERNEL: UVM_INFO /home/runner/accel_scoreboard.sv(109) @ 7142500: uvm_test_top.env.sco [SCO] WRITE addr=0xec data=0xcf8
# KERNEL: UVM_INFO /home/runner/accel_axil_agent.sv(121) @ 7142500: uvm_test_top.env.axil_a.drv [axil_csr_drv] [CSR] Write Data transaction completed
# KERNEL: UVM_INFO /home/runner/accel_sequences.sv(31) @ 7142500: uvm_test_top.env.axil_a.seqr@@wr_seq [CSR_WRITE_SEQ] Written addr=0xec data=0xcf8
# KERNEL: UVM_INFO /home/runner/accel_axil_agent.sv(56) @ 7147500: uvm_test_top.env.axil_a.drv [axil_csr_drv] WRITE addr=0xec data=0xcf8
# KERNEL: UVM_INFO /home/runner/accel_scoreboard.sv(109) @ 7172500: uvm_test_top.env.sco [SCO] WRITE addr=0xec data=0xcf8
# KERNEL: UVM_INFO /home/runner/accel_axil_agent.sv(121) @ 7172500: uvm_test_top.env.axil_a.drv [axil_csr_drv] [CSR] Write Data transaction completed
# KERNEL: UVM_INFO /home/runner/accel_sequences.sv(31) @ 7172500: uvm_test_top.env.axil_a.seqr@@wr_seq [CSR_WRITE_SEQ] Written addr=0xec data=0xcf8
# KERNEL: UVM_INFO /home/runner/accel_axil_agent.sv(56) @ 7177500: uvm_test_top.env.axil_a.drv [axil_csr_drv] WRITE addr=0xec data=0xcf8
# KERNEL: UVM_INFO /home/runner/accel_scoreboard.sv(109) @ 7202500: uvm_test_top.env.sco [SCO] WRITE addr=0xec data=0xcf8
# KERNEL: UVM_INFO /home/runner/accel_axil_agent.sv(121) @ 7202500: uvm_test_top.env.axil_a.drv [axil_csr_drv] [CSR] Write Data transaction completed
# KERNEL: UVM_INFO /home/runner/accel_sequences.sv(31) @ 7202500: uvm_test_top.env.axil_a.seqr@@wr_seq [CSR_WRITE_SEQ] Written addr=0xec data=0xcf8
# KERNEL: UVM_INFO /home/runner/accel_axil_agent.sv(56) @ 7207500: uvm_test_top.env.axil_a.drv [axil_csr_drv] WRITE addr=0xec data=0xcf8
# KERNEL: UVM_INFO /home/runner/accel_scoreboard.sv(109) @ 7232500: uvm_test_top.env.sco [SCO] WRITE addr=0xec data=0xcf8
# KERNEL: UVM_INFO /home/runner/accel_axil_agent.sv(121) @ 7232500: uvm_test_top.env.axil_a.drv [axil_csr_drv] [CSR] Write Data transaction completed
# KERNEL: UVM_INFO /home/runner/accel_sequences.sv(31) @ 7232500: uvm_test_top.env.axil_a.seqr@@wr_seq [CSR_WRITE_SEQ] Written addr=0xec data=0xcf8
# KERNEL: UVM_INFO /home/runner/accel_axil_agent.sv(56) @ 7237500: uvm_test_top.env.axil_a.drv [axil_csr_drv] WRITE addr=0xec data=0xcf8
# KERNEL: UVM_INFO /home/runner/accel_scoreboard.sv(109) @ 7262500: uvm_test_top.env.sco [SCO] WRITE addr=0xec data=0xcf8
# KERNEL: UVM_INFO /home/runner/accel_axil_agent.sv(121) @ 7262500: uvm_test_top.env.axil_a.drv [axil_csr_drv] [CSR] Write Data transaction completed
# KERNEL: UVM_INFO /home/runner/accel_sequences.sv(31) @ 7262500: uvm_test_top.env.axil_a.seqr@@wr_seq [CSR_WRITE_SEQ] Written addr=0xec data=0xcf8
# KERNEL: UVM_INFO /home/runner/accel_axil_agent.sv(56) @ 7267500: uvm_test_top.env.axil_a.drv [axil_csr_drv] WRITE addr=0xec data=0xcf8
# KERNEL: UVM_INFO /home/runner/accel_scoreboard.sv(109) @ 7292500: uvm_test_top.env.sco [SCO] WRITE addr=0xec data=0xcf8
# KERNEL: UVM_INFO /home/runner/accel_axil_agent.sv(121) @ 7292500: uvm_test_top.env.axil_a.drv [axil_csr_drv] [CSR] Write Data transaction completed
# KERNEL: UVM_INFO /home/runner/accel_sequences.sv(31) @ 7292500: uvm_test_top.env.axil_a.seqr@@wr_seq [CSR_WRITE_SEQ] Written addr=0xec data=0xcf8
# KERNEL: UVM_INFO /home/runner/accel_axil_agent.sv(56) @ 7297500: uvm_test_top.env.axil_a.drv [axil_csr_drv] WRITE addr=0xec data=0xcf8
# KERNEL: UVM_INFO /home/runner/accel_scoreboard.sv(109) @ 7322500: uvm_test_top.env.sco [SCO] WRITE addr=0xec data=0xcf8
# KERNEL: UVM_INFO /home/runner/accel_axil_agent.sv(121) @ 7322500: uvm_test_top.env.axil_a.drv [axil_csr_drv] [CSR] Write Data transaction completed
# KERNEL: UVM_INFO /home/runner/accel_sequences.sv(31) @ 7322500: uvm_test_top.env.axil_a.seqr@@wr_seq [CSR_WRITE_SEQ] Written addr=0xec data=0xcf8
# KERNEL: UVM_INFO /home/runner/accel_axil_agent.sv(56) @ 7327500: uvm_test_top.env.axil_a.drv [axil_csr_drv] WRITE addr=0xec data=0xcf8
# KERNEL: UVM_INFO /home/runner/accel_scoreboard.sv(109) @ 7352500: uvm_test_top.env.sco [SCO] WRITE addr=0xec data=0xcf8
# KERNEL: UVM_INFO /home/runner/accel_axil_agent.sv(121) @ 7352500: uvm_test_top.env.axil_a.drv [axil_csr_drv] [CSR] Write Data transaction completed
# KERNEL: UVM_INFO /home/runner/accel_sequences.sv(31) @ 7352500: uvm_test_top.env.axil_a.seqr@@wr_seq [CSR_WRITE_SEQ] Written addr=0xec data=0xcf8
# KERNEL: UVM_INFO /home/runner/accel_axil_agent.sv(56) @ 7357500: uvm_test_top.env.axil_a.drv [axil_csr_drv] WRITE addr=0xec data=0xcf8
# KERNEL: UVM_INFO /home/runner/accel_scoreboard.sv(109) @ 7382500: uvm_test_top.env.sco [SCO] WRITE addr=0xec data=0xcf8
# KERNEL: UVM_INFO /home/runner/accel_axil_agent.sv(121) @ 7382500: uvm_test_top.env.axil_a.drv [axil_csr_drv] [CSR] Write Data transaction completed
# KERNEL: UVM_INFO /home/runner/accel_sequences.sv(31) @ 7382500: uvm_test_top.env.axil_a.seqr@@wr_seq [CSR_WRITE_SEQ] Written addr=0xec data=0xcf8
# KERNEL: UVM_INFO /home/runner/accel_axil_agent.sv(56) @ 7387500: uvm_test_top.env.axil_a.drv [axil_csr_drv] WRITE addr=0x8 data=0x10001
# KERNEL: UVM_INFO /home/runner/accel_scoreboard.sv(109) @ 7412500: uvm_test_top.env.sco [SCO] WRITE addr=0x8 data=0x10001
# KERNEL: UVM_INFO /home/runner/accel_axil_agent.sv(121) @ 7412500: uvm_test_top.env.axil_a.drv [axil_csr_drv] [CSR] Write Data transaction completed
# KERNEL: UVM_INFO /home/runner/accel_sequences.sv(31) @ 7412500: uvm_test_top.env.axil_a.seqr@@wr_seq [CSR_WRITE_SEQ] Written addr=0x8 data=0x10001
# KERNEL: UVM_INFO /home/runner/accel_axil_agent.sv(56) @ 7417500: uvm_test_top.env.axil_a.drv [axil_csr_drv] WRITE addr=0xe4 data=0x10000
# KERNEL: UVM_INFO /home/runner/accel_scoreboard.sv(109) @ 7442500: uvm_test_top.env.sco [SCO] WRITE addr=0xe4 data=0x10000
# KERNEL: UVM_INFO /home/runner/accel_axil_agent.sv(121) @ 7442500: uvm_test_top.env.axil_a.drv [axil_csr_drv] [CSR] Write Data transaction completed
# KERNEL: UVM_INFO /home/runner/accel_sequences.sv(31) @ 7442500: uvm_test_top.env.axil_a.seqr@@wr_seq [CSR_WRITE_SEQ] Written addr=0xe4 data=0x10000
# KERNEL: UVM_INFO /home/runner/accel_axil_agent.sv(56) @ 7447500: uvm_test_top.env.axil_a.drv [axil_csr_drv] WRITE addr=0xc data=0x1
# KERNEL: UVM_INFO /home/runner/accel_scoreboard.sv(109) @ 7472500: uvm_test_top.env.sco [SCO] WRITE addr=0xc data=0x1
# KERNEL: UVM_INFO /home/runner/accel_axil_agent.sv(121) @ 7472500: uvm_test_top.env.axil_a.drv [axil_csr_drv] [CSR] Write Data transaction completed
# KERNEL: UVM_INFO /home/runner/accel_sequences.sv(31) @ 7472500: uvm_test_top.env.axil_a.seqr@@wr_seq [CSR_WRITE_SEQ] Written addr=0xc data=0x1
# KERNEL: UVM_INFO /home/runner/accel_axil_agent.sv(56) @ 7477500: uvm_test_top.env.axil_a.drv [axil_csr_drv] WRITE addr=0x0 data=0x1
# KERNEL: UVM_INFO /home/runner/accel_scoreboard.sv(109) @ 7502500: uvm_test_top.env.sco [SCO] WRITE addr=0x0 data=0x1
# KERNEL: UVM_INFO /home/runner/accel_axil_agent.sv(121) @ 7502500: uvm_test_top.env.axil_a.drv [axil_csr_drv] [CSR] Write Data transaction completed
# KERNEL: UVM_INFO /home/runner/accel_sequences.sv(31) @ 7502500: uvm_test_top.env.axil_a.seqr@@wr_seq [CSR_WRITE_SEQ] Written addr=0x0 data=0x1
# KERNEL: UVM_INFO /home/runner/accel_axis_weight_agent.sv(179) @ 7757500: uvm_test_top.env.weight_a.mon [WEIGHT_MON] w0[0]=1 w1[0]=1 idx0[0]=0 idx1[0]=1
# KERNEL: UVM_INFO /home/runner/accel_axis_weight_agent.sv(180) @ 7757500: uvm_test_top.env.weight_a.mon [WEIGHT_MON] Weight tile captured
# KERNEL: UVM_INFO /home/runner/accel_scoreboard.sv(149) @ 7757500: uvm_test_top.env.sco [SCO] Weight tile stored â€” queue=1
# KERNEL: UVM_INFO /home/runner/accel_axis_weight_agent.sv(101) @ 7757500: uvm_test_top.env.weight_a.drv [WEIGHT_DRV] Tile complete
# KERNEL: UVM_INFO /home/runner/accel_sequences.sv(89) @ 7757500: uvm_test_top.env.weight_a.seqr@@w_tile_seq [WEIGHT_TILE_SEQ] Weight tile streamed
# KERNEL: UVM_INFO /home/runner/accel_axil_agent.sv(56) @ 7772500: uvm_test_top.env.axil_a.drv [axil_csr_drv] WRITE addr=0x0 data=0x3
# KERNEL: UVM_INFO /home/runner/accel_scoreboard.sv(109) @ 7797500: uvm_test_top.env.sco [SCO] WRITE addr=0x0 data=0x3
# KERNEL: UVM_INFO /home/runner/accel_axil_agent.sv(121) @ 7797500: uvm_test_top.env.axil_a.drv [axil_csr_drv] [CSR] Write Data transaction completed
# KERNEL: UVM_INFO /home/runner/accel_sequences.sv(31) @ 7797500: uvm_test_top.env.axil_a.seqr@@wr_seq [CSR_WRITE_SEQ] Written addr=0x0 data=0x3
# KERNEL: UVM_INFO /home/runner/accel_axis_act_agent.sv(69) @ 7887500: uvm_test_top.env.act_a.drv [ACT_DRV] Beat 1/2 sent mode=DENSE last=1
# KERNEL: UVM_INFO /home/runner/accel_scoreboard.sv(154) @ 7892500: uvm_test_top.env.sco [SCO] Act vector stored â€” queue=1
# KERNEL: UVM_INFO /home/runner/accel_axis_act_agent.sv(143) @ 7892500: uvm_test_top.env.act_a.mon [ACT_MON] Vector captured a0=1 a1=1 a2=1 a3=1 last=1 mode=DENSE
# KERNEL: UVM_INFO /home/runner/accel_axis_act_agent.sv(69) @ 7892500: uvm_test_top.env.act_a.drv [ACT_DRV] Beat 2/2 sent mode=DENSE last=1
# KERNEL: UVM_INFO /home/runner/accel_sequences.sv(115) @ 7892500: uvm_test_top.env.act_a.seqr@@a_stream_seq [ACT_STREAM_SEQ] Activation vector streamed
# KERNEL: UVM_INFO /home/runner/accel_axis_result_agent.sv(69) @ 8247500: uvm_test_top.env.result_a.mon [RESULT_MON] Result vector captured â€” last=1
# KERNEL: UVM_INFO /home/runner/accel_scoreboard.sv(174) @ 8247500: uvm_test_top.env.sco [SCO] Computing: w0[0]=1 w1[0]=1 a0=1 a1=1
# KERNEL:     Seed 4/10: op=4 scl=128 shft=9 sat=1 fn=3
# KERNEL: UVM_INFO /home/runner/accel_axil_agent.sv(56) @ 8362500: uvm_test_top.env.axil_a.drv [axil_csr_drv] WRITE addr=0x0 data=0x48
# KERNEL: UVM_INFO /home/runner/accel_scoreboard.sv(109) @ 8387500: uvm_test_top.env.sco [SCO] WRITE addr=0x0 data=0x48
# KERNEL: UVM_INFO /home/runner/accel_axil_agent.sv(121) @ 8387500: uvm_test_top.env.axil_a.drv [axil_csr_drv] [CSR] Write Data transaction completed
# KERNEL: UVM_INFO /home/runner/accel_sequences.sv(31) @ 8387500: uvm_test_top.env.axil_a.seqr@@wr_seq [CSR_WRITE_SEQ] Written addr=0x0 data=0x48
# KERNEL: UVM_INFO /home/runner/accel_axil_agent.sv(56) @ 8437500: uvm_test_top.env.axil_a.drv [axil_csr_drv] WRITE addr=0x0 data=0x8
# KERNEL: UVM_INFO /home/runner/accel_scoreboard.sv(109) @ 8462500: uvm_test_top.env.sco [SCO] WRITE addr=0x0 data=0x8
# KERNEL: UVM_INFO /home/runner/accel_axil_agent.sv(121) @ 8462500: uvm_test_top.env.axil_a.drv [axil_csr_drv] [CSR] Write Data transaction completed
# KERNEL: UVM_INFO /home/runner/accel_sequences.sv(31) @ 8462500: uvm_test_top.env.axil_a.seqr@@wr_seq [CSR_WRITE_SEQ] Written addr=0x0 data=0x8
# KERNEL: UVM_INFO /home/runner/accel_axil_agent.sv(56) @ 8487500: uvm_test_top.env.axil_a.drv [axil_csr_drv] WRITE addr=0xb0 data=0x2
# KERNEL: UVM_INFO /home/runner/accel_scoreboard.sv(109) @ 8512500: uvm_test_top.env.sco [SCO] WRITE addr=0xb0 data=0x2
# KERNEL: UVM_INFO /home/runner/accel_axil_agent.sv(121) @ 8512500: uvm_test_top.env.axil_a.drv [axil_csr_drv] [CSR] Write Data transaction completed
# KERNEL: UVM_INFO /home/runner/accel_sequences.sv(31) @ 8512500: uvm_test_top.env.axil_a.seqr@@wr_seq [CSR_WRITE_SEQ] Written addr=0xb0 data=0x2
# KERNEL: UVM_INFO /home/runner/accel_axil_agent.sv(56) @ 8517500: uvm_test_top.env.axil_a.drv [axil_csr_drv] WRITE addr=0xb4 data=0xfe
# KERNEL: UVM_INFO /home/runner/accel_scoreboard.sv(109) @ 8542500: uvm_test_top.env.sco [SCO] WRITE addr=0xb4 data=0xfe
# KERNEL: UVM_INFO /home/runner/accel_axil_agent.sv(121) @ 8542500: uvm_test_top.env.axil_a.drv [axil_csr_drv] [CSR] Write Data transaction completed
# KERNEL: UVM_INFO /home/runner/accel_sequences.sv(31) @ 8542500: uvm_test_top.env.axil_a.seqr@@wr_seq [CSR_WRITE_SEQ] Written addr=0xb4 data=0xfe
# KERNEL: UVM_INFO /home/runner/accel_axil_agent.sv(56) @ 8547500: uvm_test_top.env.axil_a.drv [axil_csr_drv] WRITE addr=0xb8 data=0x8
# KERNEL: UVM_INFO /home/runner/accel_scoreboard.sv(109) @ 8572500: uvm_test_top.env.sco [SCO] WRITE addr=0xb8 data=0x8
# KERNEL: UVM_INFO /home/runner/accel_axil_agent.sv(121) @ 8572500: uvm_test_top.env.axil_a.drv [axil_csr_drv] [CSR] Write Data transaction completed
# KERNEL: UVM_INFO /home/runner/accel_sequences.sv(31) @ 8572500: uvm_test_top.env.axil_a.seqr@@wr_seq [CSR_WRITE_SEQ] Written addr=0xb8 data=0x8
# KERNEL: UVM_INFO /home/runner/accel_axil_agent.sv(56) @ 8577500: uvm_test_top.env.axil_a.drv [axil_csr_drv] WRITE addr=0xa0 data=0x1
# KERNEL: UVM_INFO /home/runner/accel_scoreboard.sv(109) @ 8602500: uvm_test_top.env.sco [SCO] WRITE addr=0xa0 data=0x1
# KERNEL: UVM_INFO /home/runner/accel_axil_agent.sv(121) @ 8602500: uvm_test_top.env.axil_a.drv [axil_csr_drv] [CSR] Write Data transaction completed
# KERNEL: UVM_INFO /home/runner/accel_sequences.sv(31) @ 8602500: uvm_test_top.env.axil_a.seqr@@wr_seq [CSR_WRITE_SEQ] Written addr=0xa0 data=0x1
# KERNEL: UVM_INFO /home/runner/accel_axil_agent.sv(56) @ 8607500: uvm_test_top.env.axil_a.drv [axil_csr_drv] WRITE addr=0x8 data=0x10001
# KERNEL: UVM_INFO /home/runner/accel_scoreboard.sv(109) @ 8632500: uvm_test_top.env.sco [SCO] WRITE addr=0x8 data=0x10001
# KERNEL: UVM_INFO /home/runner/accel_axil_agent.sv(121) @ 8632500: uvm_test_top.env.axil_a.drv [axil_csr_drv] [CSR] Write Data transaction completed
# KERNEL: UVM_INFO /home/runner/accel_sequences.sv(31) @ 8632500: uvm_test_top.env.axil_a.seqr@@wr_seq [CSR_WRITE_SEQ] Written addr=0x8 data=0x10001
# KERNEL: UVM_INFO /home/runner/accel_axil_agent.sv(56) @ 8637500: uvm_test_top.env.axil_a.drv [axil_csr_drv] WRITE addr=0xe4 data=0x10000
# KERNEL: UVM_INFO /home/runner/accel_scoreboard.sv(109) @ 8662500: uvm_test_top.env.sco [SCO] WRITE addr=0xe4 data=0x10000
# KERNEL: UVM_INFO /home/runner/accel_axil_agent.sv(121) @ 8662500: uvm_test_top.env.axil_a.drv [axil_csr_drv] [CSR] Write Data transaction completed
# KERNEL: UVM_INFO /home/runner/accel_sequences.sv(31) @ 8662500: uvm_test_top.env.axil_a.seqr@@wr_seq [CSR_WRITE_SEQ] Written addr=0xe4 data=0x10000
# KERNEL: UVM_INFO /home/runner/accel_axil_agent.sv(56) @ 8667500: uvm_test_top.env.axil_a.drv [axil_csr_drv] WRITE addr=0xc data=0x1
# KERNEL: UVM_INFO /home/runner/accel_scoreboard.sv(109) @ 8692500: uvm_test_top.env.sco [SCO] WRITE addr=0xc data=0x1
# KERNEL: UVM_INFO /home/runner/accel_axil_agent.sv(121) @ 8692500: uvm_test_top.env.axil_a.drv [axil_csr_drv] [CSR] Write Data transaction completed
# KERNEL: UVM_INFO /home/runner/accel_sequences.sv(31) @ 8692500: uvm_test_top.env.axil_a.seqr@@wr_seq [CSR_WRITE_SEQ] Written addr=0xc data=0x1
# KERNEL: UVM_INFO /home/runner/accel_axil_agent.sv(56) @ 8697500: uvm_test_top.env.axil_a.drv [axil_csr_drv] WRITE addr=0x0 data=0x1
# KERNEL: UVM_INFO /home/runner/accel_scoreboard.sv(109) @ 8722500: uvm_test_top.env.sco [SCO] WRITE addr=0x0 data=0x1
# KERNEL: UVM_INFO /home/runner/accel_axil_agent.sv(121) @ 8722500: uvm_test_top.env.axil_a.drv [axil_csr_drv] [CSR] Write Data transaction completed
# KERNEL: UVM_INFO /home/runner/accel_sequences.sv(31) @ 8722500: uvm_test_top.env.axil_a.seqr@@wr_seq [CSR_WRITE_SEQ] Written addr=0x0 data=0x1
# KERNEL: UVM_INFO /home/runner/accel_axis_weight_agent.sv(179) @ 8977500: uvm_test_top.env.weight_a.mon [WEIGHT_MON] w0[0]=1 w1[0]=1 idx0[0]=0 idx1[0]=1
# KERNEL: UVM_INFO /home/runner/accel_axis_weight_agent.sv(180) @ 8977500: uvm_test_top.env.weight_a.mon [WEIGHT_MON] Weight tile captured
# KERNEL: UVM_INFO /home/runner/accel_scoreboard.sv(149) @ 8977500: uvm_test_top.env.sco [SCO] Weight tile stored â€” queue=1
# KERNEL: UVM_INFO /home/runner/accel_axis_weight_agent.sv(101) @ 8977500: uvm_test_top.env.weight_a.drv [WEIGHT_DRV] Tile complete
# KERNEL: UVM_INFO /home/runner/accel_sequences.sv(89) @ 8977500: uvm_test_top.env.weight_a.seqr@@w_tile_seq [WEIGHT_TILE_SEQ] Weight tile streamed
# KERNEL: UVM_INFO /home/runner/accel_axil_agent.sv(56) @ 8992500: uvm_test_top.env.axil_a.drv [axil_csr_drv] WRITE addr=0x0 data=0x3
# KERNEL: UVM_INFO /home/runner/accel_scoreboard.sv(109) @ 9017500: uvm_test_top.env.sco [SCO] WRITE addr=0x0 data=0x3
# KERNEL: UVM_INFO /home/runner/accel_axil_agent.sv(121) @ 9017500: uvm_test_top.env.axil_a.drv [axil_csr_drv] [CSR] Write Data transaction completed
# KERNEL: UVM_INFO /home/runner/accel_sequences.sv(31) @ 9017500: uvm_test_top.env.axil_a.seqr@@wr_seq [CSR_WRITE_SEQ] Written addr=0x0 data=0x3
# KERNEL: UVM_INFO /home/runner/accel_axis_act_agent.sv(69) @ 9107500: uvm_test_top.env.act_a.drv [ACT_DRV] Beat 1/2 sent mode=DENSE last=1
# KERNEL: UVM_INFO /home/runner/accel_scoreboard.sv(154) @ 9112500: uvm_test_top.env.sco [SCO] Act vector stored â€” queue=1
# KERNEL: UVM_INFO /home/runner/accel_axis_act_agent.sv(143) @ 9112500: uvm_test_top.env.act_a.mon [ACT_MON] Vector captured a0=1 a1=1 a2=1 a3=1 last=1 mode=DENSE
# KERNEL: UVM_INFO /home/runner/accel_axis_act_agent.sv(69) @ 9112500: uvm_test_top.env.act_a.drv [ACT_DRV] Beat 2/2 sent mode=DENSE last=1
# KERNEL: UVM_INFO /home/runner/accel_sequences.sv(115) @ 9112500: uvm_test_top.env.act_a.seqr@@a_stream_seq [ACT_STREAM_SEQ] Activation vector streamed
# KERNEL: UVM_INFO /home/runner/accel_axis_result_agent.sv(69) @ 9467500: uvm_test_top.env.result_a.mon [RESULT_MON] Result vector captured â€” last=1
# KERNEL: UVM_INFO /home/runner/accel_scoreboard.sv(174) @ 9467500: uvm_test_top.env.sco [SCO] Computing: w0[0]=1 w1[0]=1 a0=1 a1=1
# KERNEL: UVM_INFO /home/runner/accel_axil_agent.sv(56) @ 9582500: uvm_test_top.env.axil_a.drv [axil_csr_drv] WRITE addr=0x0 data=0x48
# KERNEL: UVM_INFO /home/runner/accel_scoreboard.sv(109) @ 9607500: uvm_test_top.env.sco [SCO] WRITE addr=0x0 data=0x48
# KERNEL: UVM_INFO /home/runner/accel_axil_agent.sv(121) @ 9607500: uvm_test_top.env.axil_a.drv [axil_csr_drv] [CSR] Write Data transaction completed
# KERNEL: UVM_INFO /home/runner/accel_sequences.sv(31) @ 9607500: uvm_test_top.env.axil_a.seqr@@wr_seq [CSR_WRITE_SEQ] Written addr=0x0 data=0x48
# KERNEL: UVM_INFO /home/runner/accel_axil_agent.sv(56) @ 9657500: uvm_test_top.env.axil_a.drv [axil_csr_drv] WRITE addr=0x0 data=0x8
# KERNEL: UVM_INFO /home/runner/accel_scoreboard.sv(109) @ 9682500: uvm_test_top.env.sco [SCO] WRITE addr=0x0 data=0x8
# KERNEL: UVM_INFO /home/runner/accel_axil_agent.sv(121) @ 9682500: uvm_test_top.env.axil_a.drv [axil_csr_drv] [CSR] Write Data transaction completed
# KERNEL: UVM_INFO /home/runner/accel_sequences.sv(31) @ 9682500: uvm_test_top.env.axil_a.seqr@@wr_seq [CSR_WRITE_SEQ] Written addr=0x0 data=0x8
# KERNEL: UVM_INFO /home/runner/accel_axil_agent.sv(56) @ 9707500: uvm_test_top.env.axil_a.drv [axil_csr_drv] WRITE addr=0xb0 data=0x101
# KERNEL: UVM_INFO /home/runner/accel_scoreboard.sv(109) @ 9732500: uvm_test_top.env.sco [SCO] WRITE addr=0xb0 data=0x101
# KERNEL: UVM_INFO /home/runner/accel_axil_agent.sv(121) @ 9732500: uvm_test_top.env.axil_a.drv [axil_csr_drv] [CSR] Write Data transaction completed
# KERNEL: UVM_INFO /home/runner/accel_sequences.sv(31) @ 9732500: uvm_test_top.env.axil_a.seqr@@wr_seq [CSR_WRITE_SEQ] Written addr=0xb0 data=0x101
# KERNEL: UVM_INFO /home/runner/accel_axil_agent.sv(56) @ 9737500: uvm_test_top.env.axil_a.drv [axil_csr_drv] WRITE addr=0xb4 data=0x8f
# KERNEL: UVM_INFO /home/runner/accel_scoreboard.sv(109) @ 9762500: uvm_test_top.env.sco [SCO] WRITE addr=0xb4 data=0x8f
# KERNEL: UVM_INFO /home/runner/accel_axil_agent.sv(121) @ 9762500: uvm_test_top.env.axil_a.drv [axil_csr_drv] [CSR] Write Data transaction completed
# KERNEL: UVM_INFO /home/runner/accel_sequences.sv(31) @ 9762500: uvm_test_top.env.axil_a.seqr@@wr_seq [CSR_WRITE_SEQ] Written addr=0xb4 data=0x8f
# KERNEL: UVM_INFO /home/runner/accel_axil_agent.sv(56) @ 9767500: uvm_test_top.env.axil_a.drv [axil_csr_drv] WRITE addr=0xb8 data=0x6
# KERNEL: UVM_INFO /home/runner/accel_scoreboard.sv(109) @ 9792500: uvm_test_top.env.sco [SCO] WRITE addr=0xb8 data=0x6
# KERNEL: UVM_INFO /home/runner/accel_axil_agent.sv(121) @ 9792500: uvm_test_top.env.axil_a.drv [axil_csr_drv] [CSR] Write Data transaction completed
# KERNEL: UVM_INFO /home/runner/accel_sequences.sv(31) @ 9792500: uvm_test_top.env.axil_a.seqr@@wr_seq [CSR_WRITE_SEQ] Written addr=0xb8 data=0x6
# KERNEL: UVM_INFO /home/runner/accel_axil_agent.sv(56) @ 9797500: uvm_test_top.env.axil_a.drv [axil_csr_drv] WRITE addr=0xa0 data=0x3
# KERNEL: UVM_INFO /home/runner/accel_scoreboard.sv(109) @ 9822500: uvm_test_top.env.sco [SCO] WRITE addr=0xa0 data=0x3
# KERNEL: UVM_INFO /home/runner/accel_axil_agent.sv(121) @ 9822500: uvm_test_top.env.axil_a.drv [axil_csr_drv] [CSR] Write Data transaction completed
# KERNEL: UVM_INFO /home/runner/accel_sequences.sv(31) @ 9822500: uvm_test_top.env.axil_a.seqr@@wr_seq [CSR_WRITE_SEQ] Written addr=0xa0 data=0x3
# KERNEL: UVM_INFO /home/runner/accel_axil_agent.sv(56) @ 9827500: uvm_test_top.env.axil_a.drv [axil_csr_drv] WRITE addr=0xe8 data=0x0
# KERNEL: UVM_INFO /home/runner/accel_scoreboard.sv(109) @ 9852500: uvm_test_top.env.sco [SCO] WRITE addr=0xe8 data=0x0
# KERNEL: UVM_INFO /home/runner/accel_axil_agent.sv(121) @ 9852500: uvm_test_top.env.axil_a.drv [axil_csr_drv] [CSR] Write Data transaction completed
# KERNEL: UVM_INFO /home/runner/accel_sequences.sv(31) @ 9852500: uvm_test_top.env.axil_a.seqr@@wr_seq [CSR_WRITE_SEQ] Written addr=0xe8 data=0x0
# KERNEL: UVM_INFO /home/runner/accel_axil_agent.sv(56) @ 9857500: uvm_test_top.env.axil_a.drv [axil_csr_drv] WRITE addr=0xec data=0xe234
# KERNEL: UVM_INFO /home/runner/accel_scoreboard.sv(109) @ 9882500: uvm_test_top.env.sco [SCO] WRITE addr=0xec data=0xe234
# KERNEL: UVM_INFO /home/runner/accel_axil_agent.sv(121) @ 9882500: uvm_test_top.env.axil_a.drv [axil_csr_drv] [CSR] Write Data transaction completed
# KERNEL: UVM_INFO /home/runner/accel_sequences.sv(31) @ 9882500: uvm_test_top.env.axil_a.seqr@@wr_seq [CSR_WRITE_SEQ] Written addr=0xec data=0xe234
# KERNEL: UVM_INFO /home/runner/accel_axil_agent.sv(56) @ 9887500: uvm_test_top.env.axil_a.drv [axil_csr_drv] WRITE addr=0xec data=0xe234
# KERNEL: UVM_INFO /home/runner/accel_scoreboard.sv(109) @ 9912500: uvm_test_top.env.sco [SCO] WRITE addr=0xec data=0xe234
# KERNEL: UVM_INFO /home/runner/accel_axil_agent.sv(121) @ 9912500: uvm_test_top.env.axil_a.drv [axil_csr_drv] [CSR] Write Data transaction completed
# KERNEL: UVM_INFO /home/runner/accel_sequences.sv(31) @ 9912500: uvm_test_top.env.axil_a.seqr@@wr_seq [CSR_WRITE_SEQ] Written addr=0xec data=0xe234
# KERNEL: UVM_INFO /home/runner/accel_axil_agent.sv(56) @ 9917500: uvm_test_top.env.axil_a.drv [axil_csr_drv] WRITE addr=0xec data=0xe234
# KERNEL: UVM_INFO /home/runner/accel_scoreboard.sv(109) @ 9942500: uvm_test_top.env.sco [SCO] WRITE addr=0xec data=0xe234
# KERNEL: UVM_INFO /home/runner/accel_axil_agent.sv(121) @ 9942500: uvm_test_top.env.axil_a.drv [axil_csr_drv] [CSR] Write Data transaction completed
# KERNEL: UVM_INFO /home/runner/accel_sequences.sv(31) @ 9942500: uvm_test_top.env.axil_a.seqr@@wr_seq [CSR_WRITE_SEQ] Written addr=0xec data=0xe234
# KERNEL: UVM_INFO /home/runner/accel_axil_agent.sv(56) @ 9947500: uvm_test_top.env.axil_a.drv [axil_csr_drv] WRITE addr=0xec data=0xe234
# KERNEL: UVM_INFO /home/runner/accel_scoreboard.sv(109) @ 9972500: uvm_test_top.env.sco [SCO] WRITE addr=0xec data=0xe234
# KERNEL: UVM_INFO /home/runner/accel_axil_agent.sv(121) @ 9972500: uvm_test_top.env.axil_a.drv [axil_csr_drv] [CSR] Write Data transaction completed
# KERNEL: UVM_INFO /home/runner/accel_sequences.sv(31) @ 9972500: uvm_test_top.env.axil_a.seqr@@wr_seq [CSR_WRITE_SEQ] Written addr=0xec data=0xe234
# KERNEL: UVM_INFO /home/runner/accel_axil_agent.sv(56) @ 9977500: uvm_test_top.env.axil_a.drv [axil_csr_drv] WRITE addr=0xec data=0xe234
# KERNEL: UVM_INFO /home/runner/accel_scoreboard.sv(109) @ 10002500: uvm_test_top.env.sco [SCO] WRITE addr=0xec data=0xe234
# KERNEL: UVM_INFO /home/runner/accel_axil_agent.sv(121) @ 10002500: uvm_test_top.env.axil_a.drv [axil_csr_drv] [CSR] Write Data transaction completed
# KERNEL: UVM_INFO /home/runner/accel_sequences.sv(31) @ 10002500: uvm_test_top.env.axil_a.seqr@@wr_seq [CSR_WRITE_SEQ] Written addr=0xec data=0xe234
# KERNEL: UVM_INFO /home/runner/accel_axil_agent.sv(56) @ 10007500: uvm_test_top.env.axil_a.drv [axil_csr_drv] WRITE addr=0xec data=0xe234
# KERNEL: UVM_INFO /home/runner/accel_scoreboard.sv(109) @ 10032500: uvm_test_top.env.sco [SCO] WRITE addr=0xec data=0xe234
# KERNEL: UVM_INFO /home/runner/accel_axil_agent.sv(121) @ 10032500: uvm_test_top.env.axil_a.drv [axil_csr_drv] [CSR] Write Data transaction completed
# KERNEL: UVM_INFO /home/runner/accel_sequences.sv(31) @ 10032500: uvm_test_top.env.axil_a.seqr@@wr_seq [CSR_WRITE_SEQ] Written addr=0xec data=0xe234
# KERNEL: UVM_INFO /home/runner/accel_axil_agent.sv(56) @ 10037500: uvm_test_top.env.axil_a.drv [axil_csr_drv] WRITE addr=0xec data=0xe234
# KERNEL: UVM_INFO /home/runner/accel_scoreboard.sv(109) @ 10062500: uvm_test_top.env.sco [SCO] WRITE addr=0xec data=0xe234
# KERNEL: UVM_INFO /home/runner/accel_axil_agent.sv(121) @ 10062500: uvm_test_top.env.axil_a.drv [axil_csr_drv] [CSR] Write Data transaction completed
# KERNEL: UVM_INFO /home/runner/accel_sequences.sv(31) @ 10062500: uvm_test_top.env.axil_a.seqr@@wr_seq [CSR_WRITE_SEQ] Written addr=0xec data=0xe234
# KERNEL: UVM_INFO /home/runner/accel_axil_agent.sv(56) @ 10067500: uvm_test_top.env.axil_a.drv [axil_csr_drv] WRITE addr=0xec data=0xe234
# KERNEL: UVM_INFO /home/runner/accel_scoreboard.sv(109) @ 10092500: uvm_test_top.env.sco [SCO] WRITE addr=0xec data=0xe234
# KERNEL: UVM_INFO /home/runner/accel_axil_agent.sv(121) @ 10092500: uvm_test_top.env.axil_a.drv [axil_csr_drv] [CSR] Write Data transaction completed
# KERNEL: UVM_INFO /home/runner/accel_sequences.sv(31) @ 10092500: uvm_test_top.env.axil_a.seqr@@wr_seq [CSR_WRITE_SEQ] Written addr=0xec data=0xe234
# KERNEL: UVM_INFO /home/runner/accel_axil_agent.sv(56) @ 10097500: uvm_test_top.env.axil_a.drv [axil_csr_drv] WRITE addr=0xec data=0xe234
# KERNEL: UVM_INFO /home/runner/accel_scoreboard.sv(109) @ 10122500: uvm_test_top.env.sco [SCO] WRITE addr=0xec data=0xe234
# KERNEL: UVM_INFO /home/runner/accel_axil_agent.sv(121) @ 10122500: uvm_test_top.env.axil_a.drv [axil_csr_drv] [CSR] Write Data transaction completed
# KERNEL: UVM_INFO /home/runner/accel_sequences.sv(31) @ 10122500: uvm_test_top.env.axil_a.seqr@@wr_seq [CSR_WRITE_SEQ] Written addr=0xec data=0xe234
# KERNEL: UVM_INFO /home/runner/accel_axil_agent.sv(56) @ 10127500: uvm_test_top.env.axil_a.drv [axil_csr_drv] WRITE addr=0xec data=0xe234
# KERNEL: UVM_INFO /home/runner/accel_scoreboard.sv(109) @ 10152500: uvm_test_top.env.sco [SCO] WRITE addr=0xec data=0xe234
# KERNEL: UVM_INFO /home/runner/accel_axil_agent.sv(121) @ 10152500: uvm_test_top.env.axil_a.drv [axil_csr_drv] [CSR] Write Data transaction completed
# KERNEL: UVM_INFO /home/runner/accel_sequences.sv(31) @ 10152500: uvm_test_top.env.axil_a.seqr@@wr_seq [CSR_WRITE_SEQ] Written addr=0xec data=0xe234
# KERNEL: UVM_INFO /home/runner/accel_axil_agent.sv(56) @ 10157500: uvm_test_top.env.axil_a.drv [axil_csr_drv] WRITE addr=0xec data=0xe234
# KERNEL: UVM_INFO /home/runner/accel_scoreboard.sv(109) @ 10182500: uvm_test_top.env.sco [SCO] WRITE addr=0xec data=0xe234
# KERNEL: UVM_INFO /home/runner/accel_axil_agent.sv(121) @ 10182500: uvm_test_top.env.axil_a.drv [axil_csr_drv] [CSR] Write Data transaction completed
# KERNEL: UVM_INFO /home/runner/accel_sequences.sv(31) @ 10182500: uvm_test_top.env.axil_a.seqr@@wr_seq [CSR_WRITE_SEQ] Written addr=0xec data=0xe234
# KERNEL: UVM_INFO /home/runner/accel_axil_agent.sv(56) @ 10187500: uvm_test_top.env.axil_a.drv [axil_csr_drv] WRITE addr=0xec data=0xe234
# KERNEL: UVM_INFO /home/runner/accel_scoreboard.sv(109) @ 10212500: uvm_test_top.env.sco [SCO] WRITE addr=0xec data=0xe234
# KERNEL: UVM_INFO /home/runner/accel_axil_agent.sv(121) @ 10212500: uvm_test_top.env.axil_a.drv [axil_csr_drv] [CSR] Write Data transaction completed
# KERNEL: UVM_INFO /home/runner/accel_sequences.sv(31) @ 10212500: uvm_test_top.env.axil_a.seqr@@wr_seq [CSR_WRITE_SEQ] Written addr=0xec data=0xe234
# KERNEL: UVM_INFO /home/runner/accel_axil_agent.sv(56) @ 10217500: uvm_test_top.env.axil_a.drv [axil_csr_drv] WRITE addr=0xec data=0xe234
# KERNEL: UVM_INFO /home/runner/accel_scoreboard.sv(109) @ 10242500: uvm_test_top.env.sco [SCO] WRITE addr=0xec data=0xe234
# KERNEL: UVM_INFO /home/runner/accel_axil_agent.sv(121) @ 10242500: uvm_test_top.env.axil_a.drv [axil_csr_drv] [CSR] Write Data transaction completed
# KERNEL: UVM_INFO /home/runner/accel_sequences.sv(31) @ 10242500: uvm_test_top.env.axil_a.seqr@@wr_seq [CSR_WRITE_SEQ] Written addr=0xec data=0xe234
# KERNEL: UVM_INFO /home/runner/accel_axil_agent.sv(56) @ 10247500: uvm_test_top.env.axil_a.drv [axil_csr_drv] WRITE addr=0xec data=0xe234
# KERNEL: UVM_INFO /home/runner/accel_scoreboard.sv(109) @ 10272500: uvm_test_top.env.sco [SCO] WRITE addr=0xec data=0xe234
# KERNEL: UVM_INFO /home/runner/accel_axil_agent.sv(121) @ 10272500: uvm_test_top.env.axil_a.drv [axil_csr_drv] [CSR] Write Data transaction completed
