# KERNEL: ASDB file was created in location /home/runner/dataset.asdb
# KERNEL: UVM_INFO @ 0: reporter [RNTST] Running test test_045_result_tready_backpressure...
# KERNEL: UVM_INFO @ 0: reporter [MAXQUITSET] '+UVM_MAX_QUIT_COUNT=1,YES' provided on the command line is being applied.
# KERNEL: ===================================================Test_045 : Result Stream TREADY Backpressure - Start=================================================================
# KERNEL: UVM_INFO /home/runner/accel_scoreboard.sv(297) @ 0: uvm_test_top.env.sco [SCO] Queues flushed
# KERNEL:                 Step 1 : Soft Reset + Clear                 
# KERNEL: UVM_INFO /home/runner/accel_axil_agent.sv(42) @ 102500: uvm_test_top.env.axil_a.drv [axil_csr_drv] DUT RESET COMPLETED
# KERNEL: =========================================================================================================================================
# KERNEL: UVM_INFO /home/runner/accel_axis_weight_agent.sv(35) @ 102500: uvm_test_top.env.weight_a.drv [WEIGHT_DRV] Reset done
# KERNEL: =========================================================================================================================================
# KERNEL: UVM_INFO /home/runner/accel_axis_act_agent.sv(35) @ 102500: uvm_test_top.env.act_a.drv [ACT_DRV] Reset done
# KERNEL: =========================================================================================================================================
# KERNEL: UVM_INFO /home/runner/accel_axil_agent.sv(56) @ 102500: uvm_test_top.env.axil_a.drv [axil_csr_drv] WRITE addr=0x0 data=0x48
# KERNEL: UVM_INFO /home/runner/accel_scoreboard.sv(109) @ 127500: uvm_test_top.env.sco [SCO] WRITE addr=0x0 data=0x48
# KERNEL: UVM_INFO /home/runner/accel_axil_agent.sv(121) @ 127500: uvm_test_top.env.axil_a.drv [axil_csr_drv] [CSR] Write Data transaction completed
# KERNEL: UVM_INFO /home/runner/accel_sequences.sv(31) @ 127500: uvm_test_top.env.axil_a.seqr@@wr_seq [CSR_WRITE_SEQ] Written addr=0x0 data=0x48
# KERNEL: UVM_INFO /home/runner/accel_axil_agent.sv(56) @ 177500: uvm_test_top.env.axil_a.drv [axil_csr_drv] WRITE addr=0x0 data=0x8
# KERNEL: UVM_INFO /home/runner/accel_scoreboard.sv(109) @ 202500: uvm_test_top.env.sco [SCO] WRITE addr=0x0 data=0x8
# KERNEL: UVM_INFO /home/runner/accel_axil_agent.sv(121) @ 202500: uvm_test_top.env.axil_a.drv [axil_csr_drv] [CSR] Write Data transaction completed
# KERNEL: UVM_INFO /home/runner/accel_sequences.sv(31) @ 202500: uvm_test_top.env.axil_a.seqr@@wr_seq [CSR_WRITE_SEQ] Written addr=0x0 data=0x8
# KERNEL:                 Step 2 : Configure 1 tile, 100 vectors, dense                
# KERNEL: UVM_INFO /home/runner/accel_axil_agent.sv(56) @ 227500: uvm_test_top.env.axil_a.drv [axil_csr_drv] WRITE addr=0x8 data=0x10064
# KERNEL: UVM_INFO /home/runner/accel_scoreboard.sv(109) @ 252500: uvm_test_top.env.sco [SCO] WRITE addr=0x8 data=0x10064
# KERNEL: UVM_INFO /home/runner/accel_axil_agent.sv(121) @ 252500: uvm_test_top.env.axil_a.drv [axil_csr_drv] [CSR] Write Data transaction completed
# KERNEL: UVM_INFO /home/runner/accel_sequences.sv(31) @ 252500: uvm_test_top.env.axil_a.seqr@@wr_seq [CSR_WRITE_SEQ] Written addr=0x8 data=0x10064
# KERNEL: UVM_INFO /home/runner/accel_axil_agent.sv(56) @ 257500: uvm_test_top.env.axil_a.drv [axil_csr_drv] WRITE addr=0xe4 data=0x10000
# KERNEL: UVM_INFO /home/runner/accel_scoreboard.sv(109) @ 282500: uvm_test_top.env.sco [SCO] WRITE addr=0xe4 data=0x10000
# KERNEL: UVM_INFO /home/runner/accel_axil_agent.sv(121) @ 282500: uvm_test_top.env.axil_a.drv [axil_csr_drv] [CSR] Write Data transaction completed
# KERNEL: UVM_INFO /home/runner/accel_sequences.sv(31) @ 282500: uvm_test_top.env.axil_a.seqr@@wr_seq [CSR_WRITE_SEQ] Written addr=0xe4 data=0x10000
# KERNEL: UVM_INFO /home/runner/accel_axil_agent.sv(56) @ 287500: uvm_test_top.env.axil_a.drv [axil_csr_drv] WRITE addr=0xc data=0x1
# KERNEL: UVM_INFO /home/runner/accel_scoreboard.sv(109) @ 312500: uvm_test_top.env.sco [SCO] WRITE addr=0xc data=0x1
# KERNEL: UVM_INFO /home/runner/accel_axil_agent.sv(121) @ 312500: uvm_test_top.env.axil_a.drv [axil_csr_drv] [CSR] Write Data transaction completed
# KERNEL: UVM_INFO /home/runner/accel_sequences.sv(31) @ 312500: uvm_test_top.env.axil_a.seqr@@wr_seq [CSR_WRITE_SEQ] Written addr=0xc data=0x1
# KERNEL: UVM_INFO /home/runner/accel_axil_agent.sv(56) @ 317500: uvm_test_top.env.axil_a.drv [axil_csr_drv] WRITE addr=0x0 data=0x1
# KERNEL: UVM_INFO /home/runner/accel_scoreboard.sv(109) @ 342500: uvm_test_top.env.sco [SCO] WRITE addr=0x0 data=0x1
# KERNEL: UVM_INFO /home/runner/accel_axil_agent.sv(121) @ 342500: uvm_test_top.env.axil_a.drv [axil_csr_drv] [CSR] Write Data transaction completed
# KERNEL: UVM_INFO /home/runner/accel_sequences.sv(31) @ 342500: uvm_test_top.env.axil_a.seqr@@wr_seq [CSR_WRITE_SEQ] Written addr=0x0 data=0x1
# KERNEL:                 Step 3 : Stream weights                 
# KERNEL: UVM_INFO /home/runner/accel_axis_weight_agent.sv(179) @ 607500: uvm_test_top.env.weight_a.mon [WEIGHT_MON] w0[0]=1 w1[0]=1 idx0[0]=0 idx1[0]=1
# KERNEL: UVM_INFO /home/runner/accel_axis_weight_agent.sv(180) @ 607500: uvm_test_top.env.weight_a.mon [WEIGHT_MON] Weight tile captured
# KERNEL: UVM_INFO /home/runner/accel_scoreboard.sv(149) @ 607500: uvm_test_top.env.sco [SCO] Weight tile stored â€” queue=1
# KERNEL: UVM_INFO /home/runner/accel_axis_weight_agent.sv(101) @ 607500: uvm_test_top.env.weight_a.drv [WEIGHT_DRV] Tile complete
# KERNEL: UVM_INFO /home/runner/accel_sequences.sv(89) @ 607500: uvm_test_top.env.weight_a.seqr@@w_tile_seq [WEIGHT_TILE_SEQ] Weight tile streamed
# KERNEL:                 Step 4 : Enable + Start                 
# KERNEL: UVM_INFO /home/runner/accel_axil_agent.sv(56) @ 622500: uvm_test_top.env.axil_a.drv [axil_csr_drv] WRITE addr=0x0 data=0x3
# KERNEL: UVM_INFO /home/runner/accel_scoreboard.sv(109) @ 647500: uvm_test_top.env.sco [SCO] WRITE addr=0x0 data=0x3
# KERNEL: UVM_INFO /home/runner/accel_axil_agent.sv(121) @ 647500: uvm_test_top.env.axil_a.drv [axil_csr_drv] [CSR] Write Data transaction completed
# KERNEL: UVM_INFO /home/runner/accel_sequences.sv(31) @ 647500: uvm_test_top.env.axil_a.seqr@@wr_seq [CSR_WRITE_SEQ] Written addr=0x0 data=0x3
# KERNEL:                 Step 5 : Disable result TREADY to induce backpressure                
# KERNEL:                 Step 6 : Stream 100 activation vectors (expect OFIFO full, no data loss)                 
# KERNEL:                 Step 7 : Wait a few cycles then reâ€‘enable result TREADY                 
# KERNEL: UVM_INFO /home/runner/accel_axis_act_agent.sv(69) @ 737500: uvm_test_top.env.act_a.drv [ACT_DRV] Beat 1/2 sent mode=DENSE last=0
# KERNEL: UVM_INFO /home/runner/accel_scoreboard.sv(154) @ 742500: uvm_test_top.env.sco [SCO] Act vector stored â€” queue=1
# KERNEL: UVM_INFO /home/runner/accel_axis_act_agent.sv(143) @ 742500: uvm_test_top.env.act_a.mon [ACT_MON] Vector captured a0=1 a1=1 a2=1 a3=1 last=0 mode=DENSE
# KERNEL: UVM_INFO /home/runner/accel_axis_act_agent.sv(69) @ 742500: uvm_test_top.env.act_a.drv [ACT_DRV] Beat 2/2 sent mode=DENSE last=0
# KERNEL: UVM_INFO /home/runner/accel_sequences.sv(115) @ 742500: uvm_test_top.env.act_a.seqr@@a_stream_seq [ACT_STREAM_SEQ] Activation vector streamed
# KERNEL: UVM_INFO /home/runner/accel_axis_act_agent.sv(69) @ 747500: uvm_test_top.env.act_a.drv [ACT_DRV] Beat 1/2 sent mode=DENSE last=0
# KERNEL: UVM_INFO /home/runner/accel_scoreboard.sv(154) @ 752500: uvm_test_top.env.sco [SCO] Act vector stored â€” queue=2
# KERNEL: UVM_INFO /home/runner/accel_axis_act_agent.sv(143) @ 752500: uvm_test_top.env.act_a.mon [ACT_MON] Vector captured a0=1 a1=1 a2=1 a3=1 last=0 mode=DENSE
# KERNEL: UVM_INFO /home/runner/accel_axis_act_agent.sv(69) @ 752500: uvm_test_top.env.act_a.drv [ACT_DRV] Beat 2/2 sent mode=DENSE last=0
# KERNEL: UVM_INFO /home/runner/accel_sequences.sv(115) @ 752500: uvm_test_top.env.act_a.seqr@@a_stream_seq [ACT_STREAM_SEQ] Activation vector streamed
# KERNEL: UVM_INFO /home/runner/accel_axis_act_agent.sv(69) @ 757500: uvm_test_top.env.act_a.drv [ACT_DRV] Beat 1/2 sent mode=DENSE last=0
# KERNEL: UVM_INFO /home/runner/accel_scoreboard.sv(154) @ 762500: uvm_test_top.env.sco [SCO] Act vector stored â€” queue=3
# KERNEL: UVM_INFO /home/runner/accel_axis_act_agent.sv(143) @ 762500: uvm_test_top.env.act_a.mon [ACT_MON] Vector captured a0=1 a1=1 a2=1 a3=1 last=0 mode=DENSE
# KERNEL: UVM_INFO /home/runner/accel_axis_act_agent.sv(69) @ 762500: uvm_test_top.env.act_a.drv [ACT_DRV] Beat 2/2 sent mode=DENSE last=0
# KERNEL: UVM_INFO /home/runner/accel_sequences.sv(115) @ 762500: uvm_test_top.env.act_a.seqr@@a_stream_seq [ACT_STREAM_SEQ] Activation vector streamed
# KERNEL: UVM_INFO /home/runner/accel_axis_act_agent.sv(69) @ 767500: uvm_test_top.env.act_a.drv [ACT_DRV] Beat 1/2 sent mode=DENSE last=0
# KERNEL: UVM_INFO /home/runner/accel_scoreboard.sv(154) @ 772500: uvm_test_top.env.sco [SCO] Act vector stored â€” queue=4
# KERNEL: UVM_INFO /home/runner/accel_axis_act_agent.sv(143) @ 772500: uvm_test_top.env.act_a.mon [ACT_MON] Vector captured a0=1 a1=1 a2=1 a3=1 last=0 mode=DENSE
# KERNEL: UVM_INFO /home/runner/accel_axis_act_agent.sv(69) @ 772500: uvm_test_top.env.act_a.drv [ACT_DRV] Beat 2/2 sent mode=DENSE last=0
# KERNEL: UVM_INFO /home/runner/accel_sequences.sv(115) @ 772500: uvm_test_top.env.act_a.seqr@@a_stream_seq [ACT_STREAM_SEQ] Activation vector streamed
# KERNEL: UVM_INFO /home/runner/accel_axis_act_agent.sv(69) @ 777500: uvm_test_top.env.act_a.drv [ACT_DRV] Beat 1/2 sent mode=DENSE last=0
# KERNEL: UVM_INFO /home/runner/accel_scoreboard.sv(154) @ 782500: uvm_test_top.env.sco [SCO] Act vector stored â€” queue=5
# KERNEL: UVM_INFO /home/runner/accel_axis_act_agent.sv(143) @ 782500: uvm_test_top.env.act_a.mon [ACT_MON] Vector captured a0=1 a1=1 a2=1 a3=1 last=0 mode=DENSE
# KERNEL: UVM_INFO /home/runner/accel_axis_act_agent.sv(69) @ 782500: uvm_test_top.env.act_a.drv [ACT_DRV] Beat 2/2 sent mode=DENSE last=0
# KERNEL: UVM_INFO /home/runner/accel_sequences.sv(115) @ 782500: uvm_test_top.env.act_a.seqr@@a_stream_seq [ACT_STREAM_SEQ] Activation vector streamed
# KERNEL: UVM_INFO /home/runner/accel_axis_act_agent.sv(69) @ 787500: uvm_test_top.env.act_a.drv [ACT_DRV] Beat 1/2 sent mode=DENSE last=0
# KERNEL: UVM_INFO /home/runner/accel_scoreboard.sv(154) @ 792500: uvm_test_top.env.sco [SCO] Act vector stored â€” queue=6
# KERNEL: UVM_INFO /home/runner/accel_axis_act_agent.sv(143) @ 792500: uvm_test_top.env.act_a.mon [ACT_MON] Vector captured a0=1 a1=1 a2=1 a3=1 last=0 mode=DENSE
# KERNEL: UVM_INFO /home/runner/accel_axis_act_agent.sv(69) @ 792500: uvm_test_top.env.act_a.drv [ACT_DRV] Beat 2/2 sent mode=DENSE last=0
# KERNEL: UVM_INFO /home/runner/accel_sequences.sv(115) @ 792500: uvm_test_top.env.act_a.seqr@@a_stream_seq [ACT_STREAM_SEQ] Activation vector streamed
# KERNEL: UVM_INFO /home/runner/accel_axis_act_agent.sv(69) @ 797500: uvm_test_top.env.act_a.drv [ACT_DRV] Beat 1/2 sent mode=DENSE last=0
# KERNEL: UVM_INFO /home/runner/accel_scoreboard.sv(154) @ 802500: uvm_test_top.env.sco [SCO] Act vector stored â€” queue=7
# KERNEL: UVM_INFO /home/runner/accel_axis_act_agent.sv(143) @ 802500: uvm_test_top.env.act_a.mon [ACT_MON] Vector captured a0=1 a1=1 a2=1 a3=1 last=0 mode=DENSE
# KERNEL: UVM_INFO /home/runner/accel_axis_act_agent.sv(69) @ 802500: uvm_test_top.env.act_a.drv [ACT_DRV] Beat 2/2 sent mode=DENSE last=0
# KERNEL: UVM_INFO /home/runner/accel_sequences.sv(115) @ 802500: uvm_test_top.env.act_a.seqr@@a_stream_seq [ACT_STREAM_SEQ] Activation vector streamed
# KERNEL: UVM_INFO /home/runner/accel_axis_act_agent.sv(69) @ 807500: uvm_test_top.env.act_a.drv [ACT_DRV] Beat 1/2 sent mode=DENSE last=0
# KERNEL: UVM_INFO /home/runner/accel_scoreboard.sv(154) @ 812500: uvm_test_top.env.sco [SCO] Act vector stored â€” queue=8
# KERNEL: UVM_INFO /home/runner/accel_axis_act_agent.sv(143) @ 812500: uvm_test_top.env.act_a.mon [ACT_MON] Vector captured a0=1 a1=1 a2=1 a3=1 last=0 mode=DENSE
# KERNEL: UVM_INFO /home/runner/accel_axis_act_agent.sv(69) @ 812500: uvm_test_top.env.act_a.drv [ACT_DRV] Beat 2/2 sent mode=DENSE last=0
# KERNEL: UVM_INFO /home/runner/accel_sequences.sv(115) @ 812500: uvm_test_top.env.act_a.seqr@@a_stream_seq [ACT_STREAM_SEQ] Activation vector streamed
# KERNEL: UVM_INFO /home/runner/accel_axis_act_agent.sv(69) @ 817500: uvm_test_top.env.act_a.drv [ACT_DRV] Beat 1/2 sent mode=DENSE last=0
# KERNEL: UVM_INFO /home/runner/accel_scoreboard.sv(154) @ 822500: uvm_test_top.env.sco [SCO] Act vector stored â€” queue=9
# KERNEL: UVM_INFO /home/runner/accel_axis_act_agent.sv(143) @ 822500: uvm_test_top.env.act_a.mon [ACT_MON] Vector captured a0=1 a1=1 a2=1 a3=1 last=0 mode=DENSE
# KERNEL: UVM_INFO /home/runner/accel_axis_act_agent.sv(69) @ 822500: uvm_test_top.env.act_a.drv [ACT_DRV] Beat 2/2 sent mode=DENSE last=0
# KERNEL: UVM_INFO /home/runner/accel_sequences.sv(115) @ 822500: uvm_test_top.env.act_a.seqr@@a_stream_seq [ACT_STREAM_SEQ] Activation vector streamed
# KERNEL: UVM_INFO /home/runner/accel_axis_act_agent.sv(69) @ 827500: uvm_test_top.env.act_a.drv [ACT_DRV] Beat 1/2 sent mode=DENSE last=0
# KERNEL: UVM_INFO /home/runner/accel_scoreboard.sv(154) @ 832500: uvm_test_top.env.sco [SCO] Act vector stored â€” queue=10
# KERNEL: UVM_INFO /home/runner/accel_axis_act_agent.sv(143) @ 832500: uvm_test_top.env.act_a.mon [ACT_MON] Vector captured a0=1 a1=1 a2=1 a3=1 last=0 mode=DENSE
# KERNEL: UVM_INFO /home/runner/accel_axis_act_agent.sv(69) @ 832500: uvm_test_top.env.act_a.drv [ACT_DRV] Beat 2/2 sent mode=DENSE last=0
# KERNEL: UVM_INFO /home/runner/accel_sequences.sv(115) @ 832500: uvm_test_top.env.act_a.seqr@@a_stream_seq [ACT_STREAM_SEQ] Activation vector streamed
# KERNEL: UVM_INFO /home/runner/accel_axis_act_agent.sv(69) @ 837500: uvm_test_top.env.act_a.drv [ACT_DRV] Beat 1/2 sent mode=DENSE last=0
# KERNEL: UVM_INFO /home/runner/accel_scoreboard.sv(154) @ 842500: uvm_test_top.env.sco [SCO] Act vector stored â€” queue=11
# KERNEL: UVM_INFO /home/runner/accel_axis_act_agent.sv(143) @ 842500: uvm_test_top.env.act_a.mon [ACT_MON] Vector captured a0=1 a1=1 a2=1 a3=1 last=0 mode=DENSE
# KERNEL: UVM_INFO /home/runner/accel_axis_act_agent.sv(69) @ 842500: uvm_test_top.env.act_a.drv [ACT_DRV] Beat 2/2 sent mode=DENSE last=0
# KERNEL: UVM_INFO /home/runner/accel_sequences.sv(115) @ 842500: uvm_test_top.env.act_a.seqr@@a_stream_seq [ACT_STREAM_SEQ] Activation vector streamed
# KERNEL: UVM_INFO /home/runner/accel_axis_act_agent.sv(69) @ 847500: uvm_test_top.env.act_a.drv [ACT_DRV] Beat 1/2 sent mode=DENSE last=0
# KERNEL: UVM_INFO /home/runner/accel_scoreboard.sv(154) @ 852500: uvm_test_top.env.sco [SCO] Act vector stored â€” queue=12
# KERNEL: UVM_INFO /home/runner/accel_axis_act_agent.sv(143) @ 852500: uvm_test_top.env.act_a.mon [ACT_MON] Vector captured a0=1 a1=1 a2=1 a3=1 last=0 mode=DENSE
# KERNEL: UVM_INFO /home/runner/accel_axis_act_agent.sv(69) @ 852500: uvm_test_top.env.act_a.drv [ACT_DRV] Beat 2/2 sent mode=DENSE last=0
# KERNEL: UVM_INFO /home/runner/accel_sequences.sv(115) @ 852500: uvm_test_top.env.act_a.seqr@@a_stream_seq [ACT_STREAM_SEQ] Activation vector streamed
# KERNEL: UVM_INFO /home/runner/accel_axis_act_agent.sv(69) @ 857500: uvm_test_top.env.act_a.drv [ACT_DRV] Beat 1/2 sent mode=DENSE last=0
# KERNEL: UVM_INFO /home/runner/accel_scoreboard.sv(154) @ 862500: uvm_test_top.env.sco [SCO] Act vector stored â€” queue=13
# KERNEL: UVM_INFO /home/runner/accel_axis_act_agent.sv(143) @ 862500: uvm_test_top.env.act_a.mon [ACT_MON] Vector captured a0=1 a1=1 a2=1 a3=1 last=0 mode=DENSE
# KERNEL: UVM_INFO /home/runner/accel_axis_act_agent.sv(69) @ 862500: uvm_test_top.env.act_a.drv [ACT_DRV] Beat 2/2 sent mode=DENSE last=0
# KERNEL: UVM_INFO /home/runner/accel_sequences.sv(115) @ 862500: uvm_test_top.env.act_a.seqr@@a_stream_seq [ACT_STREAM_SEQ] Activation vector streamed
# KERNEL: UVM_INFO /home/runner/accel_axis_act_agent.sv(69) @ 867500: uvm_test_top.env.act_a.drv [ACT_DRV] Beat 1/2 sent mode=DENSE last=0
# KERNEL: UVM_INFO /home/runner/accel_scoreboard.sv(154) @ 872500: uvm_test_top.env.sco [SCO] Act vector stored â€” queue=14
# KERNEL: UVM_INFO /home/runner/accel_axis_act_agent.sv(143) @ 872500: uvm_test_top.env.act_a.mon [ACT_MON] Vector captured a0=1 a1=1 a2=1 a3=1 last=0 mode=DENSE
# KERNEL: UVM_INFO /home/runner/accel_axis_act_agent.sv(69) @ 872500: uvm_test_top.env.act_a.drv [ACT_DRV] Beat 2/2 sent mode=DENSE last=0
# KERNEL: UVM_INFO /home/runner/accel_sequences.sv(115) @ 872500: uvm_test_top.env.act_a.seqr@@a_stream_seq [ACT_STREAM_SEQ] Activation vector streamed
# KERNEL: UVM_INFO /home/runner/accel_axis_act_agent.sv(69) @ 877500: uvm_test_top.env.act_a.drv [ACT_DRV] Beat 1/2 sent mode=DENSE last=0
# KERNEL: UVM_INFO /home/runner/accel_scoreboard.sv(154) @ 882500: uvm_test_top.env.sco [SCO] Act vector stored â€” queue=15
# KERNEL: UVM_INFO /home/runner/accel_axis_act_agent.sv(143) @ 882500: uvm_test_top.env.act_a.mon [ACT_MON] Vector captured a0=1 a1=1 a2=1 a3=1 last=0 mode=DENSE
# KERNEL: UVM_INFO /home/runner/accel_axis_act_agent.sv(69) @ 882500: uvm_test_top.env.act_a.drv [ACT_DRV] Beat 2/2 sent mode=DENSE last=0
# KERNEL: UVM_INFO /home/runner/accel_sequences.sv(115) @ 882500: uvm_test_top.env.act_a.seqr@@a_stream_seq [ACT_STREAM_SEQ] Activation vector streamed
# KERNEL: UVM_INFO /home/runner/accel_axis_act_agent.sv(69) @ 887500: uvm_test_top.env.act_a.drv [ACT_DRV] Beat 1/2 sent mode=DENSE last=0
# KERNEL: UVM_INFO /home/runner/accel_scoreboard.sv(154) @ 892500: uvm_test_top.env.sco [SCO] Act vector stored â€” queue=16
# KERNEL: UVM_INFO /home/runner/accel_axis_act_agent.sv(143) @ 892500: uvm_test_top.env.act_a.mon [ACT_MON] Vector captured a0=1 a1=1 a2=1 a3=1 last=0 mode=DENSE
# KERNEL: UVM_INFO /home/runner/accel_axis_act_agent.sv(69) @ 892500: uvm_test_top.env.act_a.drv [ACT_DRV] Beat 2/2 sent mode=DENSE last=0
# KERNEL: UVM_INFO /home/runner/accel_sequences.sv(115) @ 892500: uvm_test_top.env.act_a.seqr@@a_stream_seq [ACT_STREAM_SEQ] Activation vector streamed
# KERNEL: UVM_INFO /home/runner/accel_axis_act_agent.sv(69) @ 897500: uvm_test_top.env.act_a.drv [ACT_DRV] Beat 1/2 sent mode=DENSE last=0
# KERNEL: UVM_INFO /home/runner/accel_scoreboard.sv(154) @ 902500: uvm_test_top.env.sco [SCO] Act vector stored â€” queue=17
# KERNEL: UVM_INFO /home/runner/accel_axis_act_agent.sv(143) @ 902500: uvm_test_top.env.act_a.mon [ACT_MON] Vector captured a0=1 a1=1 a2=1 a3=1 last=0 mode=DENSE
# KERNEL: UVM_INFO /home/runner/accel_axis_act_agent.sv(69) @ 902500: uvm_test_top.env.act_a.drv [ACT_DRV] Beat 2/2 sent mode=DENSE last=0
# KERNEL: UVM_INFO /home/runner/accel_sequences.sv(115) @ 902500: uvm_test_top.env.act_a.seqr@@a_stream_seq [ACT_STREAM_SEQ] Activation vector streamed
# KERNEL: UVM_INFO /home/runner/accel_axis_act_agent.sv(69) @ 907500: uvm_test_top.env.act_a.drv [ACT_DRV] Beat 1/2 sent mode=DENSE last=0
# KERNEL: UVM_INFO /home/runner/accel_scoreboard.sv(154) @ 912500: uvm_test_top.env.sco [SCO] Act vector stored â€” queue=18
# KERNEL: UVM_INFO /home/runner/accel_axis_act_agent.sv(143) @ 912500: uvm_test_top.env.act_a.mon [ACT_MON] Vector captured a0=1 a1=1 a2=1 a3=1 last=0 mode=DENSE
# KERNEL: UVM_INFO /home/runner/accel_axis_act_agent.sv(69) @ 912500: uvm_test_top.env.act_a.drv [ACT_DRV] Beat 2/2 sent mode=DENSE last=0
# KERNEL: UVM_INFO /home/runner/accel_sequences.sv(115) @ 912500: uvm_test_top.env.act_a.seqr@@a_stream_seq [ACT_STREAM_SEQ] Activation vector streamed
# KERNEL: UVM_INFO /home/runner/accel_axis_act_agent.sv(69) @ 917500: uvm_test_top.env.act_a.drv [ACT_DRV] Beat 1/2 sent mode=DENSE last=0
# KERNEL: UVM_INFO /home/runner/accel_scoreboard.sv(154) @ 922500: uvm_test_top.env.sco [SCO] Act vector stored â€” queue=19
# KERNEL: UVM_INFO /home/runner/accel_axis_act_agent.sv(143) @ 922500: uvm_test_top.env.act_a.mon [ACT_MON] Vector captured a0=1 a1=1 a2=1 a3=1 last=0 mode=DENSE
# KERNEL: UVM_INFO /home/runner/accel_axis_act_agent.sv(69) @ 922500: uvm_test_top.env.act_a.drv [ACT_DRV] Beat 2/2 sent mode=DENSE last=0
# KERNEL: UVM_INFO /home/runner/accel_sequences.sv(115) @ 922500: uvm_test_top.env.act_a.seqr@@a_stream_seq [ACT_STREAM_SEQ] Activation vector streamed
# KERNEL: UVM_INFO /home/runner/accel_axis_act_agent.sv(69) @ 927500: uvm_test_top.env.act_a.drv [ACT_DRV] Beat 1/2 sent mode=DENSE last=0
# KERNEL: UVM_INFO /home/runner/accel_scoreboard.sv(154) @ 932500: uvm_test_top.env.sco [SCO] Act vector stored â€” queue=20
# KERNEL: UVM_INFO /home/runner/accel_axis_act_agent.sv(143) @ 932500: uvm_test_top.env.act_a.mon [ACT_MON] Vector captured a0=1 a1=1 a2=1 a3=1 last=0 mode=DENSE
# KERNEL: UVM_INFO /home/runner/accel_axis_act_agent.sv(69) @ 932500: uvm_test_top.env.act_a.drv [ACT_DRV] Beat 2/2 sent mode=DENSE last=0
# KERNEL: UVM_INFO /home/runner/accel_sequences.sv(115) @ 932500: uvm_test_top.env.act_a.seqr@@a_stream_seq [ACT_STREAM_SEQ] Activation vector streamed
# KERNEL: UVM_INFO /home/runner/accel_axis_act_agent.sv(69) @ 937500: uvm_test_top.env.act_a.drv [ACT_DRV] Beat 1/2 sent mode=DENSE last=0
# KERNEL: UVM_INFO /home/runner/accel_scoreboard.sv(154) @ 942500: uvm_test_top.env.sco [SCO] Act vector stored â€” queue=21
# KERNEL: UVM_INFO /home/runner/accel_axis_act_agent.sv(143) @ 942500: uvm_test_top.env.act_a.mon [ACT_MON] Vector captured a0=1 a1=1 a2=1 a3=1 last=0 mode=DENSE
# KERNEL: UVM_INFO /home/runner/accel_axis_act_agent.sv(69) @ 942500: uvm_test_top.env.act_a.drv [ACT_DRV] Beat 2/2 sent mode=DENSE last=0
# KERNEL: UVM_INFO /home/runner/accel_sequences.sv(115) @ 942500: uvm_test_top.env.act_a.seqr@@a_stream_seq [ACT_STREAM_SEQ] Activation vector streamed
# KERNEL: UVM_INFO /home/runner/accel_axis_act_agent.sv(69) @ 947500: uvm_test_top.env.act_a.drv [ACT_DRV] Beat 1/2 sent mode=DENSE last=0
# KERNEL: UVM_INFO /home/runner/accel_scoreboard.sv(154) @ 952500: uvm_test_top.env.sco [SCO] Act vector stored â€” queue=22
# KERNEL: UVM_INFO /home/runner/accel_axis_act_agent.sv(143) @ 952500: uvm_test_top.env.act_a.mon [ACT_MON] Vector captured a0=1 a1=1 a2=1 a3=1 last=0 mode=DENSE
# KERNEL: UVM_INFO /home/runner/accel_axis_act_agent.sv(69) @ 952500: uvm_test_top.env.act_a.drv [ACT_DRV] Beat 2/2 sent mode=DENSE last=0
# KERNEL: UVM_INFO /home/runner/accel_sequences.sv(115) @ 952500: uvm_test_top.env.act_a.seqr@@a_stream_seq [ACT_STREAM_SEQ] Activation vector streamed
# KERNEL: UVM_INFO /home/runner/accel_axis_act_agent.sv(69) @ 957500: uvm_test_top.env.act_a.drv [ACT_DRV] Beat 1/2 sent mode=DENSE last=0
# KERNEL: UVM_INFO /home/runner/accel_scoreboard.sv(154) @ 962500: uvm_test_top.env.sco [SCO] Act vector stored â€” queue=23
# KERNEL: UVM_INFO /home/runner/accel_axis_act_agent.sv(143) @ 962500: uvm_test_top.env.act_a.mon [ACT_MON] Vector captured a0=1 a1=1 a2=1 a3=1 last=0 mode=DENSE
# KERNEL: UVM_INFO /home/runner/accel_axis_act_agent.sv(69) @ 962500: uvm_test_top.env.act_a.drv [ACT_DRV] Beat 2/2 sent mode=DENSE last=0
# KERNEL: UVM_INFO /home/runner/accel_sequences.sv(115) @ 962500: uvm_test_top.env.act_a.seqr@@a_stream_seq [ACT_STREAM_SEQ] Activation vector streamed
# KERNEL: UVM_INFO /home/runner/accel_axis_act_agent.sv(69) @ 967500: uvm_test_top.env.act_a.drv [ACT_DRV] Beat 1/2 sent mode=DENSE last=0
# KERNEL: UVM_INFO /home/runner/accel_scoreboard.sv(154) @ 972500: uvm_test_top.env.sco [SCO] Act vector stored â€” queue=24
# KERNEL: UVM_INFO /home/runner/accel_axis_act_agent.sv(143) @ 972500: uvm_test_top.env.act_a.mon [ACT_MON] Vector captured a0=1 a1=1 a2=1 a3=1 last=0 mode=DENSE
# KERNEL: UVM_INFO /home/runner/accel_axis_act_agent.sv(69) @ 972500: uvm_test_top.env.act_a.drv [ACT_DRV] Beat 2/2 sent mode=DENSE last=0
# KERNEL: UVM_INFO /home/runner/accel_sequences.sv(115) @ 972500: uvm_test_top.env.act_a.seqr@@a_stream_seq [ACT_STREAM_SEQ] Activation vector streamed
# KERNEL: UVM_INFO /home/runner/accel_axis_act_agent.sv(69) @ 977500: uvm_test_top.env.act_a.drv [ACT_DRV] Beat 1/2 sent mode=DENSE last=0
# KERNEL: UVM_INFO /home/runner/accel_scoreboard.sv(154) @ 982500: uvm_test_top.env.sco [SCO] Act vector stored â€” queue=25
# KERNEL: UVM_INFO /home/runner/accel_axis_act_agent.sv(143) @ 982500: uvm_test_top.env.act_a.mon [ACT_MON] Vector captured a0=1 a1=1 a2=1 a3=1 last=0 mode=DENSE
# KERNEL: UVM_INFO /home/runner/accel_axis_act_agent.sv(69) @ 982500: uvm_test_top.env.act_a.drv [ACT_DRV] Beat 2/2 sent mode=DENSE last=0
# KERNEL: UVM_INFO /home/runner/accel_sequences.sv(115) @ 982500: uvm_test_top.env.act_a.seqr@@a_stream_seq [ACT_STREAM_SEQ] Activation vector streamed
# KERNEL: UVM_INFO /home/runner/accel_axis_act_agent.sv(69) @ 987500: uvm_test_top.env.act_a.drv [ACT_DRV] Beat 1/2 sent mode=DENSE last=0
# KERNEL: UVM_INFO /home/runner/accel_scoreboard.sv(154) @ 992500: uvm_test_top.env.sco [SCO] Act vector stored â€” queue=26
# KERNEL: UVM_INFO /home/runner/accel_axis_act_agent.sv(143) @ 992500: uvm_test_top.env.act_a.mon [ACT_MON] Vector captured a0=1 a1=1 a2=1 a3=1 last=0 mode=DENSE
# KERNEL: UVM_INFO /home/runner/accel_axis_act_agent.sv(69) @ 992500: uvm_test_top.env.act_a.drv [ACT_DRV] Beat 2/2 sent mode=DENSE last=0
# KERNEL: UVM_INFO /home/runner/accel_sequences.sv(115) @ 992500: uvm_test_top.env.act_a.seqr@@a_stream_seq [ACT_STREAM_SEQ] Activation vector streamed
# KERNEL: UVM_INFO /home/runner/accel_axis_act_agent.sv(69) @ 997500: uvm_test_top.env.act_a.drv [ACT_DRV] Beat 1/2 sent mode=DENSE last=0
# KERNEL: UVM_INFO /home/runner/accel_scoreboard.sv(154) @ 1002500: uvm_test_top.env.sco [SCO] Act vector stored â€” queue=27
# KERNEL: UVM_INFO /home/runner/accel_axis_act_agent.sv(143) @ 1002500: uvm_test_top.env.act_a.mon [ACT_MON] Vector captured a0=1 a1=1 a2=1 a3=1 last=0 mode=DENSE
# KERNEL: UVM_INFO /home/runner/accel_axis_act_agent.sv(69) @ 1002500: uvm_test_top.env.act_a.drv [ACT_DRV] Beat 2/2 sent mode=DENSE last=0
# KERNEL: UVM_INFO /home/runner/accel_sequences.sv(115) @ 1002500: uvm_test_top.env.act_a.seqr@@a_stream_seq [ACT_STREAM_SEQ] Activation vector streamed
# KERNEL: UVM_INFO /home/runner/accel_axis_act_agent.sv(69) @ 1007500: uvm_test_top.env.act_a.drv [ACT_DRV] Beat 1/2 sent mode=DENSE last=0
# KERNEL: UVM_INFO /home/runner/accel_scoreboard.sv(154) @ 1012500: uvm_test_top.env.sco [SCO] Act vector stored â€” queue=28
# KERNEL: UVM_INFO /home/runner/accel_axis_act_agent.sv(143) @ 1012500: uvm_test_top.env.act_a.mon [ACT_MON] Vector captured a0=1 a1=1 a2=1 a3=1 last=0 mode=DENSE
# KERNEL: UVM_INFO /home/runner/accel_axis_act_agent.sv(69) @ 1012500: uvm_test_top.env.act_a.drv [ACT_DRV] Beat 2/2 sent mode=DENSE last=0
# KERNEL: UVM_INFO /home/runner/accel_sequences.sv(115) @ 1012500: uvm_test_top.env.act_a.seqr@@a_stream_seq [ACT_STREAM_SEQ] Activation vector streamed
# KERNEL: UVM_INFO /home/runner/accel_axis_act_agent.sv(69) @ 1017500: uvm_test_top.env.act_a.drv [ACT_DRV] Beat 1/2 sent mode=DENSE last=0
# KERNEL: UVM_INFO /home/runner/accel_scoreboard.sv(154) @ 1022500: uvm_test_top.env.sco [SCO] Act vector stored â€” queue=29
# KERNEL: UVM_INFO /home/runner/accel_axis_act_agent.sv(143) @ 1022500: uvm_test_top.env.act_a.mon [ACT_MON] Vector captured a0=1 a1=1 a2=1 a3=1 last=0 mode=DENSE
# KERNEL: UVM_INFO /home/runner/accel_axis_act_agent.sv(69) @ 1022500: uvm_test_top.env.act_a.drv [ACT_DRV] Beat 2/2 sent mode=DENSE last=0
# KERNEL: UVM_INFO /home/runner/accel_sequences.sv(115) @ 1022500: uvm_test_top.env.act_a.seqr@@a_stream_seq [ACT_STREAM_SEQ] Activation vector streamed
# KERNEL: UVM_INFO /home/runner/accel_axis_act_agent.sv(69) @ 1027500: uvm_test_top.env.act_a.drv [ACT_DRV] Beat 1/2 sent mode=DENSE last=0
# KERNEL: UVM_INFO /home/runner/accel_scoreboard.sv(154) @ 1032500: uvm_test_top.env.sco [SCO] Act vector stored â€” queue=30
# KERNEL: UVM_INFO /home/runner/accel_axis_act_agent.sv(143) @ 1032500: uvm_test_top.env.act_a.mon [ACT_MON] Vector captured a0=1 a1=1 a2=1 a3=1 last=0 mode=DENSE
# KERNEL: UVM_INFO /home/runner/accel_axis_act_agent.sv(69) @ 1032500: uvm_test_top.env.act_a.drv [ACT_DRV] Beat 2/2 sent mode=DENSE last=0
# KERNEL: UVM_INFO /home/runner/accel_sequences.sv(115) @ 1032500: uvm_test_top.env.act_a.seqr@@a_stream_seq [ACT_STREAM_SEQ] Activation vector streamed
# KERNEL: UVM_INFO /home/runner/accel_axis_act_agent.sv(69) @ 1037500: uvm_test_top.env.act_a.drv [ACT_DRV] Beat 1/2 sent mode=DENSE last=0
# KERNEL: UVM_INFO /home/runner/accel_scoreboard.sv(154) @ 1042500: uvm_test_top.env.sco [SCO] Act vector stored â€” queue=31
# KERNEL: UVM_INFO /home/runner/accel_axis_act_agent.sv(143) @ 1042500: uvm_test_top.env.act_a.mon [ACT_MON] Vector captured a0=1 a1=1 a2=1 a3=1 last=0 mode=DENSE
# KERNEL: UVM_INFO /home/runner/accel_axis_act_agent.sv(69) @ 1042500: uvm_test_top.env.act_a.drv [ACT_DRV] Beat 2/2 sent mode=DENSE last=0
# KERNEL: UVM_INFO /home/runner/accel_sequences.sv(115) @ 1042500: uvm_test_top.env.act_a.seqr@@a_stream_seq [ACT_STREAM_SEQ] Activation vector streamed
# KERNEL: UVM_INFO /home/runner/accel_axis_act_agent.sv(69) @ 1047500: uvm_test_top.env.act_a.drv [ACT_DRV] Beat 1/2 sent mode=DENSE last=0
# KERNEL: UVM_INFO /home/runner/accel_scoreboard.sv(154) @ 1052500: uvm_test_top.env.sco [SCO] Act vector stored â€” queue=32
# KERNEL: UVM_INFO /home/runner/accel_axis_act_agent.sv(143) @ 1052500: uvm_test_top.env.act_a.mon [ACT_MON] Vector captured a0=1 a1=1 a2=1 a3=1 last=0 mode=DENSE
# KERNEL: UVM_INFO /home/runner/accel_axis_act_agent.sv(69) @ 1052500: uvm_test_top.env.act_a.drv [ACT_DRV] Beat 2/2 sent mode=DENSE last=0
# KERNEL: UVM_INFO /home/runner/accel_sequences.sv(115) @ 1052500: uvm_test_top.env.act_a.seqr@@a_stream_seq [ACT_STREAM_SEQ] Activation vector streamed
# KERNEL: UVM_INFO /home/runner/accel_axis_act_agent.sv(69) @ 1057500: uvm_test_top.env.act_a.drv [ACT_DRV] Beat 1/2 sent mode=DENSE last=0
# KERNEL: UVM_INFO /home/runner/accel_scoreboard.sv(154) @ 1062500: uvm_test_top.env.sco [SCO] Act vector stored â€” queue=33
# KERNEL: UVM_INFO /home/runner/accel_axis_act_agent.sv(143) @ 1062500: uvm_test_top.env.act_a.mon [ACT_MON] Vector captured a0=1 a1=1 a2=1 a3=1 last=0 mode=DENSE
# KERNEL: UVM_INFO /home/runner/accel_axis_act_agent.sv(69) @ 1062500: uvm_test_top.env.act_a.drv [ACT_DRV] Beat 2/2 sent mode=DENSE last=0
# KERNEL: UVM_INFO /home/runner/accel_sequences.sv(115) @ 1062500: uvm_test_top.env.act_a.seqr@@a_stream_seq [ACT_STREAM_SEQ] Activation vector streamed
# KERNEL: UVM_INFO /home/runner/accel_axis_act_agent.sv(69) @ 1067500: uvm_test_top.env.act_a.drv [ACT_DRV] Beat 1/2 sent mode=DENSE last=0
# KERNEL: UVM_INFO /home/runner/accel_scoreboard.sv(154) @ 1072500: uvm_test_top.env.sco [SCO] Act vector stored â€” queue=34
# KERNEL: UVM_INFO /home/runner/accel_axis_act_agent.sv(143) @ 1072500: uvm_test_top.env.act_a.mon [ACT_MON] Vector captured a0=1 a1=1 a2=1 a3=1 last=0 mode=DENSE
# KERNEL: UVM_INFO /home/runner/accel_axis_act_agent.sv(69) @ 1072500: uvm_test_top.env.act_a.drv [ACT_DRV] Beat 2/2 sent mode=DENSE last=0
# KERNEL: UVM_INFO /home/runner/accel_sequences.sv(115) @ 1072500: uvm_test_top.env.act_a.seqr@@a_stream_seq [ACT_STREAM_SEQ] Activation vector streamed
# KERNEL: UVM_INFO /home/runner/accel_axis_act_agent.sv(69) @ 1077500: uvm_test_top.env.act_a.drv [ACT_DRV] Beat 1/2 sent mode=DENSE last=0
# KERNEL: UVM_INFO /home/runner/accel_scoreboard.sv(154) @ 1082500: uvm_test_top.env.sco [SCO] Act vector stored â€” queue=35
# KERNEL: UVM_INFO /home/runner/accel_axis_act_agent.sv(143) @ 1082500: uvm_test_top.env.act_a.mon [ACT_MON] Vector captured a0=1 a1=1 a2=1 a3=1 last=0 mode=DENSE
# KERNEL: UVM_INFO /home/runner/accel_axis_act_agent.sv(69) @ 1082500: uvm_test_top.env.act_a.drv [ACT_DRV] Beat 2/2 sent mode=DENSE last=0
# KERNEL: UVM_INFO /home/runner/accel_sequences.sv(115) @ 1082500: uvm_test_top.env.act_a.seqr@@a_stream_seq [ACT_STREAM_SEQ] Activation vector streamed
# KERNEL: UVM_INFO /home/runner/accel_axis_act_agent.sv(69) @ 1087500: uvm_test_top.env.act_a.drv [ACT_DRV] Beat 1/2 sent mode=DENSE last=0
# KERNEL: UVM_INFO /home/runner/accel_scoreboard.sv(154) @ 1092500: uvm_test_top.env.sco [SCO] Act vector stored â€” queue=36
# KERNEL: UVM_INFO /home/runner/accel_axis_act_agent.sv(143) @ 1092500: uvm_test_top.env.act_a.mon [ACT_MON] Vector captured a0=1 a1=1 a2=1 a3=1 last=0 mode=DENSE
# KERNEL: UVM_INFO /home/runner/accel_axis_act_agent.sv(69) @ 1092500: uvm_test_top.env.act_a.drv [ACT_DRV] Beat 2/2 sent mode=DENSE last=0
# KERNEL: UVM_INFO /home/runner/accel_sequences.sv(115) @ 1092500: uvm_test_top.env.act_a.seqr@@a_stream_seq [ACT_STREAM_SEQ] Activation vector streamed
# KERNEL: UVM_INFO /home/runner/accel_axis_act_agent.sv(69) @ 1097500: uvm_test_top.env.act_a.drv [ACT_DRV] Beat 1/2 sent mode=DENSE last=0
# KERNEL: UVM_INFO /home/runner/accel_scoreboard.sv(154) @ 1102500: uvm_test_top.env.sco [SCO] Act vector stored â€” queue=37
# KERNEL: UVM_INFO /home/runner/accel_axis_act_agent.sv(143) @ 1102500: uvm_test_top.env.act_a.mon [ACT_MON] Vector captured a0=1 a1=1 a2=1 a3=1 last=0 mode=DENSE
# KERNEL: UVM_INFO /home/runner/accel_axis_act_agent.sv(69) @ 1102500: uvm_test_top.env.act_a.drv [ACT_DRV] Beat 2/2 sent mode=DENSE last=0
# KERNEL: UVM_INFO /home/runner/accel_sequences.sv(115) @ 1102500: uvm_test_top.env.act_a.seqr@@a_stream_seq [ACT_STREAM_SEQ] Activation vector streamed
# KERNEL: UVM_INFO /home/runner/accel_axis_act_agent.sv(69) @ 1107500: uvm_test_top.env.act_a.drv [ACT_DRV] Beat 1/2 sent mode=DENSE last=0
# KERNEL: UVM_INFO /home/runner/accel_scoreboard.sv(154) @ 1112500: uvm_test_top.env.sco [SCO] Act vector stored â€” queue=38
# KERNEL: UVM_INFO /home/runner/accel_axis_act_agent.sv(143) @ 1112500: uvm_test_top.env.act_a.mon [ACT_MON] Vector captured a0=1 a1=1 a2=1 a3=1 last=0 mode=DENSE
# KERNEL: UVM_INFO /home/runner/accel_axis_act_agent.sv(69) @ 1112500: uvm_test_top.env.act_a.drv [ACT_DRV] Beat 2/2 sent mode=DENSE last=0
# KERNEL: UVM_INFO /home/runner/accel_sequences.sv(115) @ 1112500: uvm_test_top.env.act_a.seqr@@a_stream_seq [ACT_STREAM_SEQ] Activation vector streamed
# KERNEL: UVM_INFO /home/runner/accel_axis_act_agent.sv(69) @ 1117500: uvm_test_top.env.act_a.drv [ACT_DRV] Beat 1/2 sent mode=DENSE last=0
# KERNEL: UVM_INFO /home/runner/accel_scoreboard.sv(154) @ 1122500: uvm_test_top.env.sco [SCO] Act vector stored â€” queue=39
# KERNEL: UVM_INFO /home/runner/accel_axis_act_agent.sv(143) @ 1122500: uvm_test_top.env.act_a.mon [ACT_MON] Vector captured a0=1 a1=1 a2=1 a3=1 last=0 mode=DENSE
# KERNEL: UVM_INFO /home/runner/accel_axis_act_agent.sv(69) @ 1122500: uvm_test_top.env.act_a.drv [ACT_DRV] Beat 2/2 sent mode=DENSE last=0
# KERNEL: UVM_INFO /home/runner/accel_sequences.sv(115) @ 1122500: uvm_test_top.env.act_a.seqr@@a_stream_seq [ACT_STREAM_SEQ] Activation vector streamed
# KERNEL: UVM_INFO /home/runner/accel_axis_act_agent.sv(69) @ 1127500: uvm_test_top.env.act_a.drv [ACT_DRV] Beat 1/2 sent mode=DENSE last=0
# KERNEL: UVM_INFO /home/runner/accel_scoreboard.sv(154) @ 1132500: uvm_test_top.env.sco [SCO] Act vector stored â€” queue=40
# KERNEL: UVM_INFO /home/runner/accel_axis_act_agent.sv(143) @ 1132500: uvm_test_top.env.act_a.mon [ACT_MON] Vector captured a0=1 a1=1 a2=1 a3=1 last=0 mode=DENSE
# KERNEL: UVM_INFO /home/runner/accel_axis_act_agent.sv(69) @ 1132500: uvm_test_top.env.act_a.drv [ACT_DRV] Beat 2/2 sent mode=DENSE last=0
# KERNEL: UVM_INFO /home/runner/accel_sequences.sv(115) @ 1132500: uvm_test_top.env.act_a.seqr@@a_stream_seq [ACT_STREAM_SEQ] Activation vector streamed
# KERNEL: UVM_INFO /home/runner/accel_axis_act_agent.sv(69) @ 1137500: uvm_test_top.env.act_a.drv [ACT_DRV] Beat 1/2 sent mode=DENSE last=0
# KERNEL: UVM_INFO /home/runner/accel_scoreboard.sv(154) @ 1142500: uvm_test_top.env.sco [SCO] Act vector stored â€” queue=41
# KERNEL: UVM_INFO /home/runner/accel_axis_act_agent.sv(143) @ 1142500: uvm_test_top.env.act_a.mon [ACT_MON] Vector captured a0=1 a1=1 a2=1 a3=1 last=0 mode=DENSE
# KERNEL: UVM_INFO /home/runner/accel_axis_act_agent.sv(69) @ 1142500: uvm_test_top.env.act_a.drv [ACT_DRV] Beat 2/2 sent mode=DENSE last=0
# KERNEL: UVM_INFO /home/runner/accel_sequences.sv(115) @ 1142500: uvm_test_top.env.act_a.seqr@@a_stream_seq [ACT_STREAM_SEQ] Activation vector streamed
# KERNEL: UVM_INFO /home/runner/accel_axis_act_agent.sv(69) @ 1147500: uvm_test_top.env.act_a.drv [ACT_DRV] Beat 1/2 sent mode=DENSE last=0
# KERNEL: UVM_INFO /home/runner/accel_scoreboard.sv(154) @ 1152500: uvm_test_top.env.sco [SCO] Act vector stored â€” queue=42
# KERNEL: UVM_INFO /home/runner/accel_axis_act_agent.sv(143) @ 1152500: uvm_test_top.env.act_a.mon [ACT_MON] Vector captured a0=1 a1=1 a2=1 a3=1 last=0 mode=DENSE
# KERNEL: UVM_INFO /home/runner/accel_axis_act_agent.sv(69) @ 1152500: uvm_test_top.env.act_a.drv [ACT_DRV] Beat 2/2 sent mode=DENSE last=0
# KERNEL: UVM_INFO /home/runner/accel_sequences.sv(115) @ 1152500: uvm_test_top.env.act_a.seqr@@a_stream_seq [ACT_STREAM_SEQ] Activation vector streamed
# KERNEL: UVM_INFO /home/runner/accel_axis_act_agent.sv(69) @ 1157500: uvm_test_top.env.act_a.drv [ACT_DRV] Beat 1/2 sent mode=DENSE last=0
# KERNEL: UVM_INFO /home/runner/accel_scoreboard.sv(154) @ 1162500: uvm_test_top.env.sco [SCO] Act vector stored â€” queue=43
# KERNEL: UVM_INFO /home/runner/accel_axis_act_agent.sv(143) @ 1162500: uvm_test_top.env.act_a.mon [ACT_MON] Vector captured a0=1 a1=1 a2=1 a3=1 last=0 mode=DENSE
# KERNEL: UVM_INFO /home/runner/accel_axis_act_agent.sv(69) @ 1162500: uvm_test_top.env.act_a.drv [ACT_DRV] Beat 2/2 sent mode=DENSE last=0
# KERNEL: UVM_INFO /home/runner/accel_sequences.sv(115) @ 1162500: uvm_test_top.env.act_a.seqr@@a_stream_seq [ACT_STREAM_SEQ] Activation vector streamed
# KERNEL: UVM_INFO /home/runner/accel_axis_act_agent.sv(69) @ 1167500: uvm_test_top.env.act_a.drv [ACT_DRV] Beat 1/2 sent mode=DENSE last=0
# KERNEL: UVM_INFO /home/runner/accel_scoreboard.sv(154) @ 1172500: uvm_test_top.env.sco [SCO] Act vector stored â€” queue=44
# KERNEL: UVM_INFO /home/runner/accel_axis_act_agent.sv(143) @ 1172500: uvm_test_top.env.act_a.mon [ACT_MON] Vector captured a0=1 a1=1 a2=1 a3=1 last=0 mode=DENSE
# KERNEL: UVM_INFO /home/runner/accel_axis_act_agent.sv(69) @ 1172500: uvm_test_top.env.act_a.drv [ACT_DRV] Beat 2/2 sent mode=DENSE last=0
# KERNEL: UVM_INFO /home/runner/accel_sequences.sv(115) @ 1172500: uvm_test_top.env.act_a.seqr@@a_stream_seq [ACT_STREAM_SEQ] Activation vector streamed
# KERNEL: UVM_INFO /home/runner/accel_axis_act_agent.sv(69) @ 1177500: uvm_test_top.env.act_a.drv [ACT_DRV] Beat 1/2 sent mode=DENSE last=0
# KERNEL: UVM_INFO /home/runner/accel_scoreboard.sv(154) @ 1182500: uvm_test_top.env.sco [SCO] Act vector stored â€” queue=45
# KERNEL: UVM_INFO /home/runner/accel_axis_act_agent.sv(143) @ 1182500: uvm_test_top.env.act_a.mon [ACT_MON] Vector captured a0=1 a1=1 a2=1 a3=1 last=0 mode=DENSE
# KERNEL: UVM_INFO /home/runner/accel_axis_act_agent.sv(69) @ 1182500: uvm_test_top.env.act_a.drv [ACT_DRV] Beat 2/2 sent mode=DENSE last=0
# KERNEL: UVM_INFO /home/runner/accel_sequences.sv(115) @ 1182500: uvm_test_top.env.act_a.seqr@@a_stream_seq [ACT_STREAM_SEQ] Activation vector streamed
# KERNEL: UVM_INFO /home/runner/accel_axis_act_agent.sv(69) @ 1187500: uvm_test_top.env.act_a.drv [ACT_DRV] Beat 1/2 sent mode=DENSE last=0
# KERNEL: UVM_INFO /home/runner/accel_scoreboard.sv(154) @ 1192500: uvm_test_top.env.sco [SCO] Act vector stored â€” queue=46
# KERNEL: UVM_INFO /home/runner/accel_axis_act_agent.sv(143) @ 1192500: uvm_test_top.env.act_a.mon [ACT_MON] Vector captured a0=1 a1=1 a2=1 a3=1 last=0 mode=DENSE
# KERNEL: UVM_INFO /home/runner/accel_axis_act_agent.sv(69) @ 1192500: uvm_test_top.env.act_a.drv [ACT_DRV] Beat 2/2 sent mode=DENSE last=0
# KERNEL: UVM_INFO /home/runner/accel_sequences.sv(115) @ 1192500: uvm_test_top.env.act_a.seqr@@a_stream_seq [ACT_STREAM_SEQ] Activation vector streamed
# KERNEL: UVM_INFO /home/runner/accel_axis_act_agent.sv(69) @ 1197500: uvm_test_top.env.act_a.drv [ACT_DRV] Beat 1/2 sent mode=DENSE last=0
# KERNEL: UVM_INFO /home/runner/accel_scoreboard.sv(154) @ 1202500: uvm_test_top.env.sco [SCO] Act vector stored â€” queue=47
# KERNEL: UVM_INFO /home/runner/accel_axis_act_agent.sv(143) @ 1202500: uvm_test_top.env.act_a.mon [ACT_MON] Vector captured a0=1 a1=1 a2=1 a3=1 last=0 mode=DENSE
# KERNEL: UVM_INFO /home/runner/accel_axis_act_agent.sv(69) @ 1202500: uvm_test_top.env.act_a.drv [ACT_DRV] Beat 2/2 sent mode=DENSE last=0
# KERNEL: UVM_INFO /home/runner/accel_sequences.sv(115) @ 1202500: uvm_test_top.env.act_a.seqr@@a_stream_seq [ACT_STREAM_SEQ] Activation vector streamed
# KERNEL: UVM_INFO /home/runner/accel_axis_act_agent.sv(69) @ 1207500: uvm_test_top.env.act_a.drv [ACT_DRV] Beat 1/2 sent mode=DENSE last=0
# KERNEL: UVM_INFO /home/runner/accel_scoreboard.sv(154) @ 1212500: uvm_test_top.env.sco [SCO] Act vector stored â€” queue=48
# KERNEL: UVM_INFO /home/runner/accel_axis_act_agent.sv(143) @ 1212500: uvm_test_top.env.act_a.mon [ACT_MON] Vector captured a0=1 a1=1 a2=1 a3=1 last=0 mode=DENSE
# KERNEL: UVM_INFO /home/runner/accel_axis_act_agent.sv(69) @ 1212500: uvm_test_top.env.act_a.drv [ACT_DRV] Beat 2/2 sent mode=DENSE last=0
# KERNEL: UVM_INFO /home/runner/accel_sequences.sv(115) @ 1212500: uvm_test_top.env.act_a.seqr@@a_stream_seq [ACT_STREAM_SEQ] Activation vector streamed
# KERNEL: UVM_INFO /home/runner/accel_axis_act_agent.sv(69) @ 1217500: uvm_test_top.env.act_a.drv [ACT_DRV] Beat 1/2 sent mode=DENSE last=0
# KERNEL: UVM_INFO /home/runner/accel_scoreboard.sv(154) @ 1222500: uvm_test_top.env.sco [SCO] Act vector stored â€” queue=49
# KERNEL: UVM_INFO /home/runner/accel_axis_act_agent.sv(143) @ 1222500: uvm_test_top.env.act_a.mon [ACT_MON] Vector captured a0=1 a1=1 a2=1 a3=1 last=0 mode=DENSE
# KERNEL: UVM_INFO /home/runner/accel_axis_act_agent.sv(69) @ 1222500: uvm_test_top.env.act_a.drv [ACT_DRV] Beat 2/2 sent mode=DENSE last=0
# KERNEL: UVM_INFO /home/runner/accel_sequences.sv(115) @ 1222500: uvm_test_top.env.act_a.seqr@@a_stream_seq [ACT_STREAM_SEQ] Activation vector streamed
# KERNEL: UVM_INFO /home/runner/accel_axis_act_agent.sv(69) @ 1227500: uvm_test_top.env.act_a.drv [ACT_DRV] Beat 1/2 sent mode=DENSE last=0
# KERNEL: UVM_INFO /home/runner/accel_scoreboard.sv(154) @ 1232500: uvm_test_top.env.sco [SCO] Act vector stored â€” queue=50
# KERNEL: UVM_INFO /home/runner/accel_axis_act_agent.sv(143) @ 1232500: uvm_test_top.env.act_a.mon [ACT_MON] Vector captured a0=1 a1=1 a2=1 a3=1 last=0 mode=DENSE
# KERNEL: UVM_INFO /home/runner/accel_axis_act_agent.sv(69) @ 1232500: uvm_test_top.env.act_a.drv [ACT_DRV] Beat 2/2 sent mode=DENSE last=0
# KERNEL: UVM_INFO /home/runner/accel_sequences.sv(115) @ 1232500: uvm_test_top.env.act_a.seqr@@a_stream_seq [ACT_STREAM_SEQ] Activation vector streamed
# KERNEL: UVM_INFO /home/runner/accel_axis_act_agent.sv(69) @ 1237500: uvm_test_top.env.act_a.drv [ACT_DRV] Beat 1/2 sent mode=DENSE last=0
# KERNEL: UVM_INFO /home/runner/accel_scoreboard.sv(154) @ 1242500: uvm_test_top.env.sco [SCO] Act vector stored â€” queue=51
# KERNEL: UVM_INFO /home/runner/accel_axis_act_agent.sv(143) @ 1242500: uvm_test_top.env.act_a.mon [ACT_MON] Vector captured a0=1 a1=1 a2=1 a3=1 last=0 mode=DENSE
# KERNEL: UVM_INFO /home/runner/accel_axis_act_agent.sv(69) @ 1242500: uvm_test_top.env.act_a.drv [ACT_DRV] Beat 2/2 sent mode=DENSE last=0
# KERNEL: UVM_INFO /home/runner/accel_sequences.sv(115) @ 1242500: uvm_test_top.env.act_a.seqr@@a_stream_seq [ACT_STREAM_SEQ] Activation vector streamed
# KERNEL: UVM_INFO /home/runner/accel_axis_act_agent.sv(69) @ 1247500: uvm_test_top.env.act_a.drv [ACT_DRV] Beat 1/2 sent mode=DENSE last=0
# KERNEL: UVM_INFO /home/runner/accel_scoreboard.sv(154) @ 1252500: uvm_test_top.env.sco [SCO] Act vector stored â€” queue=52
# KERNEL: UVM_INFO /home/runner/accel_axis_act_agent.sv(143) @ 1252500: uvm_test_top.env.act_a.mon [ACT_MON] Vector captured a0=1 a1=1 a2=1 a3=1 last=0 mode=DENSE
# KERNEL: UVM_INFO /home/runner/accel_axis_act_agent.sv(69) @ 1252500: uvm_test_top.env.act_a.drv [ACT_DRV] Beat 2/2 sent mode=DENSE last=0
# KERNEL: UVM_INFO /home/runner/accel_sequences.sv(115) @ 1252500: uvm_test_top.env.act_a.seqr@@a_stream_seq [ACT_STREAM_SEQ] Activation vector streamed
# KERNEL: UVM_INFO /home/runner/accel_axis_act_agent.sv(69) @ 1257500: uvm_test_top.env.act_a.drv [ACT_DRV] Beat 1/2 sent mode=DENSE last=0
# KERNEL: UVM_INFO /home/runner/accel_scoreboard.sv(154) @ 1262500: uvm_test_top.env.sco [SCO] Act vector stored â€” queue=53
# KERNEL: UVM_INFO /home/runner/accel_axis_act_agent.sv(143) @ 1262500: uvm_test_top.env.act_a.mon [ACT_MON] Vector captured a0=1 a1=1 a2=1 a3=1 last=0 mode=DENSE
# KERNEL: UVM_INFO /home/runner/accel_axis_act_agent.sv(69) @ 1262500: uvm_test_top.env.act_a.drv [ACT_DRV] Beat 2/2 sent mode=DENSE last=0
# KERNEL: UVM_INFO /home/runner/accel_sequences.sv(115) @ 1262500: uvm_test_top.env.act_a.seqr@@a_stream_seq [ACT_STREAM_SEQ] Activation vector streamed
# KERNEL: UVM_INFO /home/runner/accel_axis_act_agent.sv(69) @ 1267500: uvm_test_top.env.act_a.drv [ACT_DRV] Beat 1/2 sent mode=DENSE last=0
# KERNEL: UVM_INFO /home/runner/accel_scoreboard.sv(154) @ 1272500: uvm_test_top.env.sco [SCO] Act vector stored â€” queue=54
# KERNEL: UVM_INFO /home/runner/accel_axis_act_agent.sv(143) @ 1272500: uvm_test_top.env.act_a.mon [ACT_MON] Vector captured a0=1 a1=1 a2=1 a3=1 last=0 mode=DENSE
# KERNEL: UVM_INFO /home/runner/accel_axis_act_agent.sv(69) @ 1272500: uvm_test_top.env.act_a.drv [ACT_DRV] Beat 2/2 sent mode=DENSE last=0
# KERNEL: UVM_INFO /home/runner/accel_sequences.sv(115) @ 1272500: uvm_test_top.env.act_a.seqr@@a_stream_seq [ACT_STREAM_SEQ] Activation vector streamed
# KERNEL: UVM_INFO /home/runner/accel_axis_act_agent.sv(69) @ 1277500: uvm_test_top.env.act_a.drv [ACT_DRV] Beat 1/2 sent mode=DENSE last=0
# KERNEL: UVM_INFO /home/runner/accel_scoreboard.sv(154) @ 1282500: uvm_test_top.env.sco [SCO] Act vector stored â€” queue=55
# KERNEL: UVM_INFO /home/runner/accel_axis_act_agent.sv(143) @ 1282500: uvm_test_top.env.act_a.mon [ACT_MON] Vector captured a0=1 a1=1 a2=1 a3=1 last=0 mode=DENSE
# KERNEL: UVM_INFO /home/runner/accel_axis_act_agent.sv(69) @ 1282500: uvm_test_top.env.act_a.drv [ACT_DRV] Beat 2/2 sent mode=DENSE last=0
# KERNEL: UVM_INFO /home/runner/accel_sequences.sv(115) @ 1282500: uvm_test_top.env.act_a.seqr@@a_stream_seq [ACT_STREAM_SEQ] Activation vector streamed
# KERNEL: UVM_INFO /home/runner/accel_axis_act_agent.sv(69) @ 1287500: uvm_test_top.env.act_a.drv [ACT_DRV] Beat 1/2 sent mode=DENSE last=0
# KERNEL: UVM_INFO /home/runner/accel_scoreboard.sv(154) @ 1292500: uvm_test_top.env.sco [SCO] Act vector stored â€” queue=56
# KERNEL: UVM_INFO /home/runner/accel_axis_act_agent.sv(143) @ 1292500: uvm_test_top.env.act_a.mon [ACT_MON] Vector captured a0=1 a1=1 a2=1 a3=1 last=0 mode=DENSE
# KERNEL: UVM_INFO /home/runner/accel_axis_act_agent.sv(69) @ 1292500: uvm_test_top.env.act_a.drv [ACT_DRV] Beat 2/2 sent mode=DENSE last=0
# KERNEL: UVM_INFO /home/runner/accel_sequences.sv(115) @ 1292500: uvm_test_top.env.act_a.seqr@@a_stream_seq [ACT_STREAM_SEQ] Activation vector streamed
# KERNEL: UVM_INFO /home/runner/accel_axis_act_agent.sv(69) @ 1297500: uvm_test_top.env.act_a.drv [ACT_DRV] Beat 1/2 sent mode=DENSE last=0
# KERNEL: UVM_INFO /home/runner/accel_scoreboard.sv(154) @ 1302500: uvm_test_top.env.sco [SCO] Act vector stored â€” queue=57
# KERNEL: UVM_INFO /home/runner/accel_axis_act_agent.sv(143) @ 1302500: uvm_test_top.env.act_a.mon [ACT_MON] Vector captured a0=1 a1=1 a2=1 a3=1 last=0 mode=DENSE
# KERNEL: UVM_INFO /home/runner/accel_axis_act_agent.sv(69) @ 1302500: uvm_test_top.env.act_a.drv [ACT_DRV] Beat 2/2 sent mode=DENSE last=0
# KERNEL: UVM_INFO /home/runner/accel_sequences.sv(115) @ 1302500: uvm_test_top.env.act_a.seqr@@a_stream_seq [ACT_STREAM_SEQ] Activation vector streamed
# KERNEL: UVM_INFO /home/runner/accel_axis_act_agent.sv(69) @ 1307500: uvm_test_top.env.act_a.drv [ACT_DRV] Beat 1/2 sent mode=DENSE last=0
# KERNEL: UVM_INFO /home/runner/accel_scoreboard.sv(154) @ 1312500: uvm_test_top.env.sco [SCO] Act vector stored â€” queue=58
# KERNEL: UVM_INFO /home/runner/accel_axis_act_agent.sv(143) @ 1312500: uvm_test_top.env.act_a.mon [ACT_MON] Vector captured a0=1 a1=1 a2=1 a3=1 last=0 mode=DENSE
# KERNEL: UVM_INFO /home/runner/accel_axis_act_agent.sv(69) @ 1312500: uvm_test_top.env.act_a.drv [ACT_DRV] Beat 2/2 sent mode=DENSE last=0
# KERNEL: UVM_INFO /home/runner/accel_sequences.sv(115) @ 1312500: uvm_test_top.env.act_a.seqr@@a_stream_seq [ACT_STREAM_SEQ] Activation vector streamed
# KERNEL: UVM_INFO /home/runner/accel_axis_act_agent.sv(69) @ 1317500: uvm_test_top.env.act_a.drv [ACT_DRV] Beat 1/2 sent mode=DENSE last=0
# KERNEL: UVM_INFO /home/runner/accel_scoreboard.sv(154) @ 1322500: uvm_test_top.env.sco [SCO] Act vector stored â€” queue=59
# KERNEL: UVM_INFO /home/runner/accel_axis_act_agent.sv(143) @ 1322500: uvm_test_top.env.act_a.mon [ACT_MON] Vector captured a0=1 a1=1 a2=1 a3=1 last=0 mode=DENSE
# KERNEL: UVM_INFO /home/runner/accel_axis_act_agent.sv(69) @ 1322500: uvm_test_top.env.act_a.drv [ACT_DRV] Beat 2/2 sent mode=DENSE last=0
# KERNEL: UVM_INFO /home/runner/accel_sequences.sv(115) @ 1322500: uvm_test_top.env.act_a.seqr@@a_stream_seq [ACT_STREAM_SEQ] Activation vector streamed
# KERNEL: UVM_INFO /home/runner/accel_axis_act_agent.sv(69) @ 1327500: uvm_test_top.env.act_a.drv [ACT_DRV] Beat 1/2 sent mode=DENSE last=0
# KERNEL: UVM_INFO /home/runner/accel_scoreboard.sv(154) @ 1332500: uvm_test_top.env.sco [SCO] Act vector stored â€” queue=60
# KERNEL: UVM_INFO /home/runner/accel_axis_act_agent.sv(143) @ 1332500: uvm_test_top.env.act_a.mon [ACT_MON] Vector captured a0=1 a1=1 a2=1 a3=1 last=0 mode=DENSE
# KERNEL: UVM_INFO /home/runner/accel_axis_act_agent.sv(69) @ 1332500: uvm_test_top.env.act_a.drv [ACT_DRV] Beat 2/2 sent mode=DENSE last=0
# KERNEL: UVM_INFO /home/runner/accel_sequences.sv(115) @ 1332500: uvm_test_top.env.act_a.seqr@@a_stream_seq [ACT_STREAM_SEQ] Activation vector streamed
# KERNEL: UVM_INFO /home/runner/accel_axis_act_agent.sv(69) @ 1337500: uvm_test_top.env.act_a.drv [ACT_DRV] Beat 1/2 sent mode=DENSE last=0
# KERNEL: UVM_INFO /home/runner/accel_scoreboard.sv(154) @ 1342500: uvm_test_top.env.sco [SCO] Act vector stored â€” queue=61
# KERNEL: UVM_INFO /home/runner/accel_axis_act_agent.sv(143) @ 1342500: uvm_test_top.env.act_a.mon [ACT_MON] Vector captured a0=1 a1=1 a2=1 a3=1 last=0 mode=DENSE
# KERNEL: UVM_INFO /home/runner/accel_axis_act_agent.sv(69) @ 1342500: uvm_test_top.env.act_a.drv [ACT_DRV] Beat 2/2 sent mode=DENSE last=0
# KERNEL: UVM_INFO /home/runner/accel_sequences.sv(115) @ 1342500: uvm_test_top.env.act_a.seqr@@a_stream_seq [ACT_STREAM_SEQ] Activation vector streamed
# KERNEL: UVM_INFO /home/runner/accel_axis_act_agent.sv(69) @ 1347500: uvm_test_top.env.act_a.drv [ACT_DRV] Beat 1/2 sent mode=DENSE last=0
# KERNEL: UVM_INFO /home/runner/accel_scoreboard.sv(154) @ 1352500: uvm_test_top.env.sco [SCO] Act vector stored â€” queue=62
# KERNEL: UVM_INFO /home/runner/accel_axis_act_agent.sv(143) @ 1352500: uvm_test_top.env.act_a.mon [ACT_MON] Vector captured a0=1 a1=1 a2=1 a3=1 last=0 mode=DENSE
# KERNEL: UVM_INFO /home/runner/accel_axis_act_agent.sv(69) @ 1352500: uvm_test_top.env.act_a.drv [ACT_DRV] Beat 2/2 sent mode=DENSE last=0
# KERNEL: UVM_INFO /home/runner/accel_sequences.sv(115) @ 1352500: uvm_test_top.env.act_a.seqr@@a_stream_seq [ACT_STREAM_SEQ] Activation vector streamed
# KERNEL: UVM_INFO /home/runner/accel_axis_act_agent.sv(69) @ 1357500: uvm_test_top.env.act_a.drv [ACT_DRV] Beat 1/2 sent mode=DENSE last=0
# KERNEL: UVM_INFO /home/runner/accel_scoreboard.sv(154) @ 1362500: uvm_test_top.env.sco [SCO] Act vector stored â€” queue=63
# KERNEL: UVM_INFO /home/runner/accel_axis_act_agent.sv(143) @ 1362500: uvm_test_top.env.act_a.mon [ACT_MON] Vector captured a0=1 a1=1 a2=1 a3=1 last=0 mode=DENSE
# KERNEL: UVM_INFO /home/runner/accel_axis_act_agent.sv(69) @ 1362500: uvm_test_top.env.act_a.drv [ACT_DRV] Beat 2/2 sent mode=DENSE last=0
# KERNEL: UVM_INFO /home/runner/accel_sequences.sv(115) @ 1362500: uvm_test_top.env.act_a.seqr@@a_stream_seq [ACT_STREAM_SEQ] Activation vector streamed
# KERNEL: UVM_INFO /home/runner/accel_axis_act_agent.sv(69) @ 1367500: uvm_test_top.env.act_a.drv [ACT_DRV] Beat 1/2 sent mode=DENSE last=0
# KERNEL: UVM_INFO /home/runner/accel_scoreboard.sv(154) @ 1372500: uvm_test_top.env.sco [SCO] Act vector stored â€” queue=64
# KERNEL: UVM_INFO /home/runner/accel_axis_act_agent.sv(143) @ 1372500: uvm_test_top.env.act_a.mon [ACT_MON] Vector captured a0=1 a1=1 a2=1 a3=1 last=0 mode=DENSE
# KERNEL: UVM_INFO /home/runner/accel_axis_act_agent.sv(69) @ 1372500: uvm_test_top.env.act_a.drv [ACT_DRV] Beat 2/2 sent mode=DENSE last=0
# KERNEL: UVM_INFO /home/runner/accel_sequences.sv(115) @ 1372500: uvm_test_top.env.act_a.seqr@@a_stream_seq [ACT_STREAM_SEQ] Activation vector streamed
# KERNEL: UVM_INFO /home/runner/accel_axis_act_agent.sv(69) @ 1377500: uvm_test_top.env.act_a.drv [ACT_DRV] Beat 1/2 sent mode=DENSE last=0
# KERNEL: UVM_INFO /home/runner/accel_scoreboard.sv(154) @ 1382500: uvm_test_top.env.sco [SCO] Act vector stored â€” queue=65
# KERNEL: UVM_INFO /home/runner/accel_axis_act_agent.sv(143) @ 1382500: uvm_test_top.env.act_a.mon [ACT_MON] Vector captured a0=1 a1=1 a2=1 a3=1 last=0 mode=DENSE
# KERNEL: UVM_INFO /home/runner/accel_axis_act_agent.sv(69) @ 1382500: uvm_test_top.env.act_a.drv [ACT_DRV] Beat 2/2 sent mode=DENSE last=0
# KERNEL: UVM_INFO /home/runner/accel_sequences.sv(115) @ 1382500: uvm_test_top.env.act_a.seqr@@a_stream_seq [ACT_STREAM_SEQ] Activation vector streamed
# KERNEL: UVM_INFO /home/runner/accel_axis_act_agent.sv(69) @ 1387500: uvm_test_top.env.act_a.drv [ACT_DRV] Beat 1/2 sent mode=DENSE last=0
# KERNEL: UVM_INFO /home/runner/accel_scoreboard.sv(154) @ 1392500: uvm_test_top.env.sco [SCO] Act vector stored â€” queue=66
# KERNEL: UVM_INFO /home/runner/accel_axis_act_agent.sv(143) @ 1392500: uvm_test_top.env.act_a.mon [ACT_MON] Vector captured a0=1 a1=1 a2=1 a3=1 last=0 mode=DENSE
# KERNEL: UVM_INFO /home/runner/accel_axis_act_agent.sv(69) @ 1392500: uvm_test_top.env.act_a.drv [ACT_DRV] Beat 2/2 sent mode=DENSE last=0
# KERNEL: UVM_INFO /home/runner/accel_sequences.sv(115) @ 1392500: uvm_test_top.env.act_a.seqr@@a_stream_seq [ACT_STREAM_SEQ] Activation vector streamed
# KERNEL: UVM_INFO /home/runner/accel_axis_act_agent.sv(69) @ 1397500: uvm_test_top.env.act_a.drv [ACT_DRV] Beat 1/2 sent mode=DENSE last=0
# KERNEL: UVM_INFO /home/runner/accel_scoreboard.sv(154) @ 1402500: uvm_test_top.env.sco [SCO] Act vector stored â€” queue=67
# KERNEL: UVM_INFO /home/runner/accel_axis_act_agent.sv(143) @ 1402500: uvm_test_top.env.act_a.mon [ACT_MON] Vector captured a0=1 a1=1 a2=1 a3=1 last=0 mode=DENSE
# KERNEL: UVM_INFO /home/runner/accel_axis_act_agent.sv(69) @ 1402500: uvm_test_top.env.act_a.drv [ACT_DRV] Beat 2/2 sent mode=DENSE last=0
# KERNEL: UVM_INFO /home/runner/accel_sequences.sv(115) @ 1402500: uvm_test_top.env.act_a.seqr@@a_stream_seq [ACT_STREAM_SEQ] Activation vector streamed
# KERNEL: UVM_INFO /home/runner/accel_axis_act_agent.sv(69) @ 1407500: uvm_test_top.env.act_a.drv [ACT_DRV] Beat 1/2 sent mode=DENSE last=0
# KERNEL: UVM_INFO /home/runner/accel_scoreboard.sv(154) @ 1412500: uvm_test_top.env.sco [SCO] Act vector stored â€” queue=68
# KERNEL: UVM_INFO /home/runner/accel_axis_act_agent.sv(143) @ 1412500: uvm_test_top.env.act_a.mon [ACT_MON] Vector captured a0=1 a1=1 a2=1 a3=1 last=0 mode=DENSE
# KERNEL: UVM_INFO /home/runner/accel_axis_act_agent.sv(69) @ 1412500: uvm_test_top.env.act_a.drv [ACT_DRV] Beat 2/2 sent mode=DENSE last=0
# KERNEL: UVM_INFO /home/runner/accel_sequences.sv(115) @ 1412500: uvm_test_top.env.act_a.seqr@@a_stream_seq [ACT_STREAM_SEQ] Activation vector streamed
# KERNEL: UVM_INFO /home/runner/accel_axis_act_agent.sv(69) @ 1417500: uvm_test_top.env.act_a.drv [ACT_DRV] Beat 1/2 sent mode=DENSE last=0
# KERNEL: UVM_INFO /home/runner/accel_scoreboard.sv(154) @ 1422500: uvm_test_top.env.sco [SCO] Act vector stored â€” queue=69
# KERNEL: UVM_INFO /home/runner/accel_axis_act_agent.sv(143) @ 1422500: uvm_test_top.env.act_a.mon [ACT_MON] Vector captured a0=1 a1=1 a2=1 a3=1 last=0 mode=DENSE
# KERNEL: UVM_INFO /home/runner/accel_axis_act_agent.sv(69) @ 1422500: uvm_test_top.env.act_a.drv [ACT_DRV] Beat 2/2 sent mode=DENSE last=0
# KERNEL: UVM_INFO /home/runner/accel_sequences.sv(115) @ 1422500: uvm_test_top.env.act_a.seqr@@a_stream_seq [ACT_STREAM_SEQ] Activation vector streamed
# KERNEL: UVM_INFO /home/runner/accel_axis_act_agent.sv(69) @ 1427500: uvm_test_top.env.act_a.drv [ACT_DRV] Beat 1/2 sent mode=DENSE last=0
# KERNEL: UVM_INFO /home/runner/accel_scoreboard.sv(154) @ 1432500: uvm_test_top.env.sco [SCO] Act vector stored â€” queue=70
# KERNEL: UVM_INFO /home/runner/accel_axis_act_agent.sv(143) @ 1432500: uvm_test_top.env.act_a.mon [ACT_MON] Vector captured a0=1 a1=1 a2=1 a3=1 last=0 mode=DENSE
# KERNEL: UVM_INFO /home/runner/accel_axis_act_agent.sv(69) @ 1432500: uvm_test_top.env.act_a.drv [ACT_DRV] Beat 2/2 sent mode=DENSE last=0
# KERNEL: UVM_INFO /home/runner/accel_sequences.sv(115) @ 1432500: uvm_test_top.env.act_a.seqr@@a_stream_seq [ACT_STREAM_SEQ] Activation vector streamed
# KERNEL: UVM_INFO /home/runner/accel_axis_act_agent.sv(69) @ 1437500: uvm_test_top.env.act_a.drv [ACT_DRV] Beat 1/2 sent mode=DENSE last=0
# KERNEL: UVM_INFO /home/runner/accel_scoreboard.sv(154) @ 1442500: uvm_test_top.env.sco [SCO] Act vector stored â€” queue=71
# KERNEL: UVM_INFO /home/runner/accel_axis_act_agent.sv(143) @ 1442500: uvm_test_top.env.act_a.mon [ACT_MON] Vector captured a0=1 a1=1 a2=1 a3=1 last=0 mode=DENSE
# KERNEL: UVM_INFO /home/runner/accel_axis_act_agent.sv(69) @ 1442500: uvm_test_top.env.act_a.drv [ACT_DRV] Beat 2/2 sent mode=DENSE last=0
# KERNEL: UVM_INFO /home/runner/accel_sequences.sv(115) @ 1442500: uvm_test_top.env.act_a.seqr@@a_stream_seq [ACT_STREAM_SEQ] Activation vector streamed
# KERNEL: UVM_INFO /home/runner/accel_axis_act_agent.sv(69) @ 1447500: uvm_test_top.env.act_a.drv [ACT_DRV] Beat 1/2 sent mode=DENSE last=0
# KERNEL: UVM_INFO /home/runner/accel_scoreboard.sv(154) @ 1452500: uvm_test_top.env.sco [SCO] Act vector stored â€” queue=72
# KERNEL: UVM_INFO /home/runner/accel_axis_act_agent.sv(143) @ 1452500: uvm_test_top.env.act_a.mon [ACT_MON] Vector captured a0=1 a1=1 a2=1 a3=1 last=0 mode=DENSE
# KERNEL: UVM_INFO /home/runner/accel_axis_act_agent.sv(69) @ 1452500: uvm_test_top.env.act_a.drv [ACT_DRV] Beat 2/2 sent mode=DENSE last=0
# KERNEL: UVM_INFO /home/runner/accel_sequences.sv(115) @ 1452500: uvm_test_top.env.act_a.seqr@@a_stream_seq [ACT_STREAM_SEQ] Activation vector streamed
# KERNEL: UVM_INFO /home/runner/accel_axis_act_agent.sv(69) @ 1457500: uvm_test_top.env.act_a.drv [ACT_DRV] Beat 1/2 sent mode=DENSE last=0
# KERNEL: UVM_INFO /home/runner/accel_scoreboard.sv(154) @ 1462500: uvm_test_top.env.sco [SCO] Act vector stored â€” queue=73
# KERNEL: UVM_INFO /home/runner/accel_axis_act_agent.sv(143) @ 1462500: uvm_test_top.env.act_a.mon [ACT_MON] Vector captured a0=1 a1=1 a2=1 a3=1 last=0 mode=DENSE
# KERNEL: UVM_INFO /home/runner/accel_axis_act_agent.sv(69) @ 1462500: uvm_test_top.env.act_a.drv [ACT_DRV] Beat 2/2 sent mode=DENSE last=0
# KERNEL: UVM_INFO /home/runner/accel_sequences.sv(115) @ 1462500: uvm_test_top.env.act_a.seqr@@a_stream_seq [ACT_STREAM_SEQ] Activation vector streamed
# KERNEL: UVM_INFO /home/runner/accel_axis_act_agent.sv(69) @ 1467500: uvm_test_top.env.act_a.drv [ACT_DRV] Beat 1/2 sent mode=DENSE last=0
# KERNEL: UVM_INFO /home/runner/accel_scoreboard.sv(154) @ 1472500: uvm_test_top.env.sco [SCO] Act vector stored â€” queue=74
# KERNEL: UVM_INFO /home/runner/accel_axis_act_agent.sv(143) @ 1472500: uvm_test_top.env.act_a.mon [ACT_MON] Vector captured a0=1 a1=1 a2=1 a3=1 last=0 mode=DENSE
# KERNEL: UVM_INFO /home/runner/accel_axis_act_agent.sv(69) @ 1472500: uvm_test_top.env.act_a.drv [ACT_DRV] Beat 2/2 sent mode=DENSE last=0
# KERNEL: UVM_INFO /home/runner/accel_sequences.sv(115) @ 1472500: uvm_test_top.env.act_a.seqr@@a_stream_seq [ACT_STREAM_SEQ] Activation vector streamed
# KERNEL: UVM_INFO /home/runner/accel_axis_act_agent.sv(69) @ 1477500: uvm_test_top.env.act_a.drv [ACT_DRV] Beat 1/2 sent mode=DENSE last=0
# KERNEL: UVM_INFO /home/runner/accel_scoreboard.sv(154) @ 1482500: uvm_test_top.env.sco [SCO] Act vector stored â€” queue=75
# KERNEL: UVM_INFO /home/runner/accel_axis_act_agent.sv(143) @ 1482500: uvm_test_top.env.act_a.mon [ACT_MON] Vector captured a0=1 a1=1 a2=1 a3=1 last=0 mode=DENSE
# KERNEL: UVM_INFO /home/runner/accel_axis_act_agent.sv(69) @ 1482500: uvm_test_top.env.act_a.drv [ACT_DRV] Beat 2/2 sent mode=DENSE last=0
# KERNEL: UVM_INFO /home/runner/accel_sequences.sv(115) @ 1482500: uvm_test_top.env.act_a.seqr@@a_stream_seq [ACT_STREAM_SEQ] Activation vector streamed
# KERNEL: UVM_INFO /home/runner/accel_axis_act_agent.sv(69) @ 1487500: uvm_test_top.env.act_a.drv [ACT_DRV] Beat 1/2 sent mode=DENSE last=0
# KERNEL: UVM_INFO /home/runner/accel_scoreboard.sv(154) @ 1492500: uvm_test_top.env.sco [SCO] Act vector stored â€” queue=76
# KERNEL: UVM_INFO /home/runner/accel_axis_act_agent.sv(143) @ 1492500: uvm_test_top.env.act_a.mon [ACT_MON] Vector captured a0=1 a1=1 a2=1 a3=1 last=0 mode=DENSE
# KERNEL: UVM_INFO /home/runner/accel_axis_act_agent.sv(69) @ 1492500: uvm_test_top.env.act_a.drv [ACT_DRV] Beat 2/2 sent mode=DENSE last=0
# KERNEL: UVM_INFO /home/runner/accel_sequences.sv(115) @ 1492500: uvm_test_top.env.act_a.seqr@@a_stream_seq [ACT_STREAM_SEQ] Activation vector streamed
# KERNEL: UVM_INFO /home/runner/accel_axis_act_agent.sv(69) @ 1497500: uvm_test_top.env.act_a.drv [ACT_DRV] Beat 1/2 sent mode=DENSE last=0
# KERNEL: UVM_INFO /home/runner/accel_scoreboard.sv(154) @ 1502500: uvm_test_top.env.sco [SCO] Act vector stored â€” queue=77
# KERNEL: UVM_INFO /home/runner/accel_axis_act_agent.sv(143) @ 1502500: uvm_test_top.env.act_a.mon [ACT_MON] Vector captured a0=1 a1=1 a2=1 a3=1 last=0 mode=DENSE
# KERNEL: UVM_INFO /home/runner/accel_axis_act_agent.sv(69) @ 1502500: uvm_test_top.env.act_a.drv [ACT_DRV] Beat 2/2 sent mode=DENSE last=0
# KERNEL: UVM_INFO /home/runner/accel_sequences.sv(115) @ 1502500: uvm_test_top.env.act_a.seqr@@a_stream_seq [ACT_STREAM_SEQ] Activation vector streamed
# KERNEL: UVM_INFO /home/runner/accel_axis_act_agent.sv(69) @ 1507500: uvm_test_top.env.act_a.drv [ACT_DRV] Beat 1/2 sent mode=DENSE last=0
# KERNEL: UVM_INFO /home/runner/accel_scoreboard.sv(154) @ 1512500: uvm_test_top.env.sco [SCO] Act vector stored â€” queue=78
# KERNEL: UVM_INFO /home/runner/accel_axis_act_agent.sv(143) @ 1512500: uvm_test_top.env.act_a.mon [ACT_MON] Vector captured a0=1 a1=1 a2=1 a3=1 last=0 mode=DENSE
# KERNEL: UVM_INFO /home/runner/accel_axis_act_agent.sv(69) @ 1512500: uvm_test_top.env.act_a.drv [ACT_DRV] Beat 2/2 sent mode=DENSE last=0
# KERNEL: UVM_INFO /home/runner/accel_sequences.sv(115) @ 1512500: uvm_test_top.env.act_a.seqr@@a_stream_seq [ACT_STREAM_SEQ] Activation vector streamed
# KERNEL: UVM_INFO /home/runner/accel_axis_act_agent.sv(69) @ 1517500: uvm_test_top.env.act_a.drv [ACT_DRV] Beat 1/2 sent mode=DENSE last=0
# KERNEL: UVM_INFO /home/runner/accel_scoreboard.sv(154) @ 1522500: uvm_test_top.env.sco [SCO] Act vector stored â€” queue=79
# KERNEL: UVM_INFO /home/runner/accel_axis_act_agent.sv(143) @ 1522500: uvm_test_top.env.act_a.mon [ACT_MON] Vector captured a0=1 a1=1 a2=1 a3=1 last=0 mode=DENSE
# KERNEL: UVM_INFO /home/runner/accel_axis_act_agent.sv(69) @ 1522500: uvm_test_top.env.act_a.drv [ACT_DRV] Beat 2/2 sent mode=DENSE last=0
# KERNEL: UVM_INFO /home/runner/accel_sequences.sv(115) @ 1522500: uvm_test_top.env.act_a.seqr@@a_stream_seq [ACT_STREAM_SEQ] Activation vector streamed
# KERNEL: UVM_INFO /home/runner/accel_axis_act_agent.sv(69) @ 1527500: uvm_test_top.env.act_a.drv [ACT_DRV] Beat 1/2 sent mode=DENSE last=0
# KERNEL: UVM_INFO /home/runner/accel_scoreboard.sv(154) @ 1532500: uvm_test_top.env.sco [SCO] Act vector stored â€” queue=80
# KERNEL: UVM_INFO /home/runner/accel_axis_act_agent.sv(143) @ 1532500: uvm_test_top.env.act_a.mon [ACT_MON] Vector captured a0=1 a1=1 a2=1 a3=1 last=0 mode=DENSE
# KERNEL: UVM_INFO /home/runner/accel_axis_act_agent.sv(69) @ 1532500: uvm_test_top.env.act_a.drv [ACT_DRV] Beat 2/2 sent mode=DENSE last=0
# KERNEL: UVM_INFO /home/runner/accel_sequences.sv(115) @ 1532500: uvm_test_top.env.act_a.seqr@@a_stream_seq [ACT_STREAM_SEQ] Activation vector streamed
# KERNEL: UVM_INFO /home/runner/accel_axis_act_agent.sv(69) @ 1537500: uvm_test_top.env.act_a.drv [ACT_DRV] Beat 1/2 sent mode=DENSE last=0
# KERNEL: UVM_INFO /home/runner/accel_scoreboard.sv(154) @ 1542500: uvm_test_top.env.sco [SCO] Act vector stored â€” queue=81
# KERNEL: UVM_INFO /home/runner/accel_axis_act_agent.sv(143) @ 1542500: uvm_test_top.env.act_a.mon [ACT_MON] Vector captured a0=1 a1=1 a2=1 a3=1 last=0 mode=DENSE
# KERNEL: UVM_INFO /home/runner/accel_axis_act_agent.sv(69) @ 1542500: uvm_test_top.env.act_a.drv [ACT_DRV] Beat 2/2 sent mode=DENSE last=0
# KERNEL: UVM_INFO /home/runner/accel_sequences.sv(115) @ 1542500: uvm_test_top.env.act_a.seqr@@a_stream_seq [ACT_STREAM_SEQ] Activation vector streamed
# KERNEL: UVM_INFO /home/runner/accel_axis_act_agent.sv(69) @ 1547500: uvm_test_top.env.act_a.drv [ACT_DRV] Beat 1/2 sent mode=DENSE last=0
# KERNEL: UVM_INFO /home/runner/accel_scoreboard.sv(154) @ 1552500: uvm_test_top.env.sco [SCO] Act vector stored â€” queue=82
# KERNEL: UVM_INFO /home/runner/accel_axis_act_agent.sv(143) @ 1552500: uvm_test_top.env.act_a.mon [ACT_MON] Vector captured a0=1 a1=1 a2=1 a3=1 last=0 mode=DENSE
# KERNEL: UVM_INFO /home/runner/accel_axis_act_agent.sv(69) @ 1552500: uvm_test_top.env.act_a.drv [ACT_DRV] Beat 2/2 sent mode=DENSE last=0
# KERNEL: UVM_INFO /home/runner/accel_sequences.sv(115) @ 1552500: uvm_test_top.env.act_a.seqr@@a_stream_seq [ACT_STREAM_SEQ] Activation vector streamed
# KERNEL: UVM_INFO /home/runner/accel_axis_act_agent.sv(69) @ 1557500: uvm_test_top.env.act_a.drv [ACT_DRV] Beat 1/2 sent mode=DENSE last=0
# KERNEL: UVM_INFO /home/runner/accel_scoreboard.sv(154) @ 1562500: uvm_test_top.env.sco [SCO] Act vector stored â€” queue=83
# KERNEL: UVM_INFO /home/runner/accel_axis_act_agent.sv(143) @ 1562500: uvm_test_top.env.act_a.mon [ACT_MON] Vector captured a0=1 a1=1 a2=1 a3=1 last=0 mode=DENSE
# KERNEL: UVM_INFO /home/runner/accel_axis_act_agent.sv(69) @ 1562500: uvm_test_top.env.act_a.drv [ACT_DRV] Beat 2/2 sent mode=DENSE last=0
# KERNEL: UVM_INFO /home/runner/accel_sequences.sv(115) @ 1562500: uvm_test_top.env.act_a.seqr@@a_stream_seq [ACT_STREAM_SEQ] Activation vector streamed
# KERNEL: UVM_INFO /home/runner/accel_axis_act_agent.sv(69) @ 1567500: uvm_test_top.env.act_a.drv [ACT_DRV] Beat 1/2 sent mode=DENSE last=0
# KERNEL: UVM_INFO /home/runner/accel_scoreboard.sv(154) @ 1572500: uvm_test_top.env.sco [SCO] Act vector stored â€” queue=84
# KERNEL: UVM_INFO /home/runner/accel_axis_act_agent.sv(143) @ 1572500: uvm_test_top.env.act_a.mon [ACT_MON] Vector captured a0=1 a1=1 a2=1 a3=1 last=0 mode=DENSE
# KERNEL: UVM_INFO /home/runner/accel_axis_act_agent.sv(69) @ 1572500: uvm_test_top.env.act_a.drv [ACT_DRV] Beat 2/2 sent mode=DENSE last=0
# KERNEL: UVM_INFO /home/runner/accel_sequences.sv(115) @ 1572500: uvm_test_top.env.act_a.seqr@@a_stream_seq [ACT_STREAM_SEQ] Activation vector streamed
# KERNEL: UVM_INFO /home/runner/accel_axis_act_agent.sv(69) @ 1577500: uvm_test_top.env.act_a.drv [ACT_DRV] Beat 1/2 sent mode=DENSE last=0
# KERNEL: UVM_INFO /home/runner/accel_scoreboard.sv(154) @ 1582500: uvm_test_top.env.sco [SCO] Act vector stored â€” queue=85
# KERNEL: UVM_INFO /home/runner/accel_axis_act_agent.sv(143) @ 1582500: uvm_test_top.env.act_a.mon [ACT_MON] Vector captured a0=1 a1=1 a2=1 a3=1 last=0 mode=DENSE
# KERNEL: UVM_INFO /home/runner/accel_axis_act_agent.sv(69) @ 1582500: uvm_test_top.env.act_a.drv [ACT_DRV] Beat 2/2 sent mode=DENSE last=0
# KERNEL: UVM_INFO /home/runner/accel_sequences.sv(115) @ 1582500: uvm_test_top.env.act_a.seqr@@a_stream_seq [ACT_STREAM_SEQ] Activation vector streamed
# KERNEL: UVM_INFO /home/runner/accel_axis_act_agent.sv(69) @ 1587500: uvm_test_top.env.act_a.drv [ACT_DRV] Beat 1/2 sent mode=DENSE last=0
# KERNEL: UVM_INFO /home/runner/accel_scoreboard.sv(154) @ 1592500: uvm_test_top.env.sco [SCO] Act vector stored â€” queue=86
# KERNEL: UVM_INFO /home/runner/accel_axis_act_agent.sv(143) @ 1592500: uvm_test_top.env.act_a.mon [ACT_MON] Vector captured a0=1 a1=1 a2=1 a3=1 last=0 mode=DENSE
# KERNEL: UVM_INFO /home/runner/accel_axis_act_agent.sv(69) @ 1592500: uvm_test_top.env.act_a.drv [ACT_DRV] Beat 2/2 sent mode=DENSE last=0
# KERNEL: UVM_INFO /home/runner/accel_sequences.sv(115) @ 1592500: uvm_test_top.env.act_a.seqr@@a_stream_seq [ACT_STREAM_SEQ] Activation vector streamed
# KERNEL: UVM_INFO /home/runner/accel_axis_act_agent.sv(69) @ 1597500: uvm_test_top.env.act_a.drv [ACT_DRV] Beat 1/2 sent mode=DENSE last=0
# KERNEL: UVM_INFO /home/runner/accel_scoreboard.sv(154) @ 1602500: uvm_test_top.env.sco [SCO] Act vector stored â€” queue=87
# KERNEL: UVM_INFO /home/runner/accel_axis_act_agent.sv(143) @ 1602500: uvm_test_top.env.act_a.mon [ACT_MON] Vector captured a0=1 a1=1 a2=1 a3=1 last=0 mode=DENSE
# KERNEL: UVM_INFO /home/runner/accel_axis_act_agent.sv(69) @ 1602500: uvm_test_top.env.act_a.drv [ACT_DRV] Beat 2/2 sent mode=DENSE last=0
# KERNEL: UVM_INFO /home/runner/accel_sequences.sv(115) @ 1602500: uvm_test_top.env.act_a.seqr@@a_stream_seq [ACT_STREAM_SEQ] Activation vector streamed
# KERNEL: UVM_INFO /home/runner/accel_axis_act_agent.sv(69) @ 1607500: uvm_test_top.env.act_a.drv [ACT_DRV] Beat 1/2 sent mode=DENSE last=0
# KERNEL: UVM_INFO /home/runner/accel_scoreboard.sv(154) @ 1612500: uvm_test_top.env.sco [SCO] Act vector stored â€” queue=88
# KERNEL: UVM_INFO /home/runner/accel_axis_act_agent.sv(143) @ 1612500: uvm_test_top.env.act_a.mon [ACT_MON] Vector captured a0=1 a1=1 a2=1 a3=1 last=0 mode=DENSE
# KERNEL: UVM_INFO /home/runner/accel_axis_act_agent.sv(69) @ 1612500: uvm_test_top.env.act_a.drv [ACT_DRV] Beat 2/2 sent mode=DENSE last=0
# KERNEL: UVM_INFO /home/runner/accel_sequences.sv(115) @ 1612500: uvm_test_top.env.act_a.seqr@@a_stream_seq [ACT_STREAM_SEQ] Activation vector streamed
# KERNEL: UVM_INFO /home/runner/accel_axis_act_agent.sv(69) @ 1617500: uvm_test_top.env.act_a.drv [ACT_DRV] Beat 1/2 sent mode=DENSE last=0
# KERNEL: UVM_INFO /home/runner/accel_scoreboard.sv(154) @ 1622500: uvm_test_top.env.sco [SCO] Act vector stored â€” queue=89
# KERNEL: UVM_INFO /home/runner/accel_axis_act_agent.sv(143) @ 1622500: uvm_test_top.env.act_a.mon [ACT_MON] Vector captured a0=1 a1=1 a2=1 a3=1 last=0 mode=DENSE
# KERNEL: UVM_INFO /home/runner/accel_axis_act_agent.sv(69) @ 1622500: uvm_test_top.env.act_a.drv [ACT_DRV] Beat 2/2 sent mode=DENSE last=0
# KERNEL: UVM_INFO /home/runner/accel_sequences.sv(115) @ 1622500: uvm_test_top.env.act_a.seqr@@a_stream_seq [ACT_STREAM_SEQ] Activation vector streamed
# KERNEL: UVM_INFO /home/runner/accel_axis_act_agent.sv(69) @ 1627500: uvm_test_top.env.act_a.drv [ACT_DRV] Beat 1/2 sent mode=DENSE last=0
# KERNEL: UVM_INFO /home/runner/accel_scoreboard.sv(154) @ 1632500: uvm_test_top.env.sco [SCO] Act vector stored â€” queue=90
# KERNEL: UVM_INFO /home/runner/accel_axis_act_agent.sv(143) @ 1632500: uvm_test_top.env.act_a.mon [ACT_MON] Vector captured a0=1 a1=1 a2=1 a3=1 last=0 mode=DENSE
# KERNEL: UVM_INFO /home/runner/accel_axis_act_agent.sv(69) @ 1632500: uvm_test_top.env.act_a.drv [ACT_DRV] Beat 2/2 sent mode=DENSE last=0
# KERNEL: UVM_INFO /home/runner/accel_sequences.sv(115) @ 1632500: uvm_test_top.env.act_a.seqr@@a_stream_seq [ACT_STREAM_SEQ] Activation vector streamed
# KERNEL: UVM_INFO /home/runner/accel_axis_act_agent.sv(69) @ 1637500: uvm_test_top.env.act_a.drv [ACT_DRV] Beat 1/2 sent mode=DENSE last=0
# KERNEL: UVM_INFO /home/runner/accel_scoreboard.sv(154) @ 1642500: uvm_test_top.env.sco [SCO] Act vector stored â€” queue=91
# KERNEL: UVM_INFO /home/runner/accel_axis_act_agent.sv(143) @ 1642500: uvm_test_top.env.act_a.mon [ACT_MON] Vector captured a0=1 a1=1 a2=1 a3=1 last=0 mode=DENSE
# KERNEL: UVM_INFO /home/runner/accel_axis_act_agent.sv(69) @ 1642500: uvm_test_top.env.act_a.drv [ACT_DRV] Beat 2/2 sent mode=DENSE last=0
# KERNEL: UVM_INFO /home/runner/accel_sequences.sv(115) @ 1642500: uvm_test_top.env.act_a.seqr@@a_stream_seq [ACT_STREAM_SEQ] Activation vector streamed
# KERNEL: UVM_INFO /home/runner/accel_axis_act_agent.sv(69) @ 1647500: uvm_test_top.env.act_a.drv [ACT_DRV] Beat 1/2 sent mode=DENSE last=0
# KERNEL: UVM_INFO /home/runner/accel_scoreboard.sv(154) @ 1652500: uvm_test_top.env.sco [SCO] Act vector stored â€” queue=92
# KERNEL: UVM_INFO /home/runner/accel_axis_act_agent.sv(143) @ 1652500: uvm_test_top.env.act_a.mon [ACT_MON] Vector captured a0=1 a1=1 a2=1 a3=1 last=0 mode=DENSE
# KERNEL: UVM_INFO /home/runner/accel_axis_act_agent.sv(69) @ 1652500: uvm_test_top.env.act_a.drv [ACT_DRV] Beat 2/2 sent mode=DENSE last=0
# KERNEL: UVM_INFO /home/runner/accel_sequences.sv(115) @ 1652500: uvm_test_top.env.act_a.seqr@@a_stream_seq [ACT_STREAM_SEQ] Activation vector streamed
# KERNEL: UVM_INFO /home/runner/accel_axis_act_agent.sv(69) @ 1657500: uvm_test_top.env.act_a.drv [ACT_DRV] Beat 1/2 sent mode=DENSE last=0
# KERNEL: UVM_INFO /home/runner/accel_scoreboard.sv(154) @ 1662500: uvm_test_top.env.sco [SCO] Act vector stored â€” queue=93
# KERNEL: UVM_INFO /home/runner/accel_axis_act_agent.sv(143) @ 1662500: uvm_test_top.env.act_a.mon [ACT_MON] Vector captured a0=1 a1=1 a2=1 a3=1 last=0 mode=DENSE
# KERNEL: UVM_INFO /home/runner/accel_axis_act_agent.sv(69) @ 1662500: uvm_test_top.env.act_a.drv [ACT_DRV] Beat 2/2 sent mode=DENSE last=0
# KERNEL: UVM_INFO /home/runner/accel_sequences.sv(115) @ 1662500: uvm_test_top.env.act_a.seqr@@a_stream_seq [ACT_STREAM_SEQ] Activation vector streamed
# KERNEL: UVM_INFO /home/runner/accel_axis_act_agent.sv(69) @ 1667500: uvm_test_top.env.act_a.drv [ACT_DRV] Beat 1/2 sent mode=DENSE last=0
# KERNEL: UVM_INFO /home/runner/accel_scoreboard.sv(154) @ 1672500: uvm_test_top.env.sco [SCO] Act vector stored â€” queue=94
# KERNEL: UVM_INFO /home/runner/accel_axis_act_agent.sv(143) @ 1672500: uvm_test_top.env.act_a.mon [ACT_MON] Vector captured a0=1 a1=1 a2=1 a3=1 last=0 mode=DENSE
# KERNEL: UVM_INFO /home/runner/accel_axis_act_agent.sv(69) @ 1672500: uvm_test_top.env.act_a.drv [ACT_DRV] Beat 2/2 sent mode=DENSE last=0
# KERNEL: UVM_INFO /home/runner/accel_sequences.sv(115) @ 1672500: uvm_test_top.env.act_a.seqr@@a_stream_seq [ACT_STREAM_SEQ] Activation vector streamed
# KERNEL: UVM_INFO /home/runner/accel_axis_act_agent.sv(69) @ 1677500: uvm_test_top.env.act_a.drv [ACT_DRV] Beat 1/2 sent mode=DENSE last=0
# KERNEL: UVM_INFO /home/runner/accel_scoreboard.sv(154) @ 1682500: uvm_test_top.env.sco [SCO] Act vector stored â€” queue=95
# KERNEL: UVM_INFO /home/runner/accel_axis_act_agent.sv(143) @ 1682500: uvm_test_top.env.act_a.mon [ACT_MON] Vector captured a0=1 a1=1 a2=1 a3=1 last=0 mode=DENSE
# KERNEL: UVM_INFO /home/runner/accel_axis_act_agent.sv(69) @ 1682500: uvm_test_top.env.act_a.drv [ACT_DRV] Beat 2/2 sent mode=DENSE last=0
# KERNEL: UVM_INFO /home/runner/accel_sequences.sv(115) @ 1682500: uvm_test_top.env.act_a.seqr@@a_stream_seq [ACT_STREAM_SEQ] Activation vector streamed
# KERNEL: UVM_INFO /home/runner/accel_axis_act_agent.sv(69) @ 1687500: uvm_test_top.env.act_a.drv [ACT_DRV] Beat 1/2 sent mode=DENSE last=0
# KERNEL: UVM_INFO /home/runner/accel_scoreboard.sv(154) @ 1692500: uvm_test_top.env.sco [SCO] Act vector stored â€” queue=96
# KERNEL: UVM_INFO /home/runner/accel_axis_act_agent.sv(143) @ 1692500: uvm_test_top.env.act_a.mon [ACT_MON] Vector captured a0=1 a1=1 a2=1 a3=1 last=0 mode=DENSE
# KERNEL: UVM_INFO /home/runner/accel_axis_act_agent.sv(69) @ 1692500: uvm_test_top.env.act_a.drv [ACT_DRV] Beat 2/2 sent mode=DENSE last=0
# KERNEL: UVM_INFO /home/runner/accel_sequences.sv(115) @ 1692500: uvm_test_top.env.act_a.seqr@@a_stream_seq [ACT_STREAM_SEQ] Activation vector streamed
# KERNEL: UVM_INFO /home/runner/accel_axis_act_agent.sv(69) @ 1697500: uvm_test_top.env.act_a.drv [ACT_DRV] Beat 1/2 sent mode=DENSE last=0
# KERNEL: UVM_INFO /home/runner/accel_scoreboard.sv(154) @ 1702500: uvm_test_top.env.sco [SCO] Act vector stored â€” queue=97
# KERNEL: UVM_INFO /home/runner/accel_axis_act_agent.sv(143) @ 1702500: uvm_test_top.env.act_a.mon [ACT_MON] Vector captured a0=1 a1=1 a2=1 a3=1 last=0 mode=DENSE
# KERNEL: UVM_INFO /home/runner/accel_axis_act_agent.sv(69) @ 1702500: uvm_test_top.env.act_a.drv [ACT_DRV] Beat 2/2 sent mode=DENSE last=0
# KERNEL: UVM_INFO /home/runner/accel_sequences.sv(115) @ 1702500: uvm_test_top.env.act_a.seqr@@a_stream_seq [ACT_STREAM_SEQ] Activation vector streamed
# KERNEL: UVM_INFO /home/runner/accel_axis_act_agent.sv(69) @ 1707500: uvm_test_top.env.act_a.drv [ACT_DRV] Beat 1/2 sent mode=DENSE last=0
# KERNEL: UVM_INFO /home/runner/accel_scoreboard.sv(154) @ 1712500: uvm_test_top.env.sco [SCO] Act vector stored â€” queue=98
# KERNEL: UVM_INFO /home/runner/accel_axis_act_agent.sv(143) @ 1712500: uvm_test_top.env.act_a.mon [ACT_MON] Vector captured a0=1 a1=1 a2=1 a3=1 last=0 mode=DENSE
# KERNEL: UVM_INFO /home/runner/accel_axis_act_agent.sv(69) @ 1712500: uvm_test_top.env.act_a.drv [ACT_DRV] Beat 2/2 sent mode=DENSE last=0
# KERNEL: UVM_INFO /home/runner/accel_sequences.sv(115) @ 1712500: uvm_test_top.env.act_a.seqr@@a_stream_seq [ACT_STREAM_SEQ] Activation vector streamed
# KERNEL: UVM_INFO /home/runner/accel_axis_act_agent.sv(69) @ 1717500: uvm_test_top.env.act_a.drv [ACT_DRV] Beat 1/2 sent mode=DENSE last=0
# KERNEL: UVM_INFO /home/runner/accel_scoreboard.sv(154) @ 1722500: uvm_test_top.env.sco [SCO] Act vector stored â€” queue=99
# KERNEL: UVM_INFO /home/runner/accel_axis_act_agent.sv(143) @ 1722500: uvm_test_top.env.act_a.mon [ACT_MON] Vector captured a0=1 a1=1 a2=1 a3=1 last=0 mode=DENSE
# KERNEL: UVM_INFO /home/runner/accel_axis_act_agent.sv(69) @ 1722500: uvm_test_top.env.act_a.drv [ACT_DRV] Beat 2/2 sent mode=DENSE last=0
# KERNEL: UVM_INFO /home/runner/accel_sequences.sv(115) @ 1722500: uvm_test_top.env.act_a.seqr@@a_stream_seq [ACT_STREAM_SEQ] Activation vector streamed
# KERNEL: UVM_INFO /home/runner/accel_axis_act_agent.sv(69) @ 1727500: uvm_test_top.env.act_a.drv [ACT_DRV] Beat 1/2 sent mode=DENSE last=1
# KERNEL: UVM_INFO /home/runner/accel_scoreboard.sv(154) @ 1732500: uvm_test_top.env.sco [SCO] Act vector stored â€” queue=100
# KERNEL: UVM_INFO /home/runner/accel_axis_act_agent.sv(143) @ 1732500: uvm_test_top.env.act_a.mon [ACT_MON] Vector captured a0=1 a1=1 a2=1 a3=1 last=1 mode=DENSE
# KERNEL: UVM_INFO /home/runner/accel_axis_act_agent.sv(69) @ 1732500: uvm_test_top.env.act_a.drv [ACT_DRV] Beat 2/2 sent mode=DENSE last=1
# KERNEL: UVM_INFO /home/runner/accel_sequences.sv(115) @ 1732500: uvm_test_top.env.act_a.seqr@@a_stream_seq [ACT_STREAM_SEQ] Activation vector streamed
# KERNEL:                 Step 8 : Wait for computation done                 
# KERNEL: UVM_INFO /home/runner/accel_axis_result_agent.sv(69) @ 25752500: uvm_test_top.env.result_a.mon [RESULT_MON] Result vector captured â€” last=0
# KERNEL: UVM_INFO /home/runner/accel_scoreboard.sv(174) @ 25752500: uvm_test_top.env.sco [SCO] Computing: w0[0]=1 w1[0]=1 a0=1 a1=1
# KERNEL: UVM_INFO /home/runner/accel_axis_result_agent.sv(69) @ 25772500: uvm_test_top.env.result_a.mon [RESULT_MON] Result vector captured â€” last=0
# KERNEL: UVM_INFO /home/runner/accel_scoreboard.sv(174) @ 25772500: uvm_test_top.env.sco [SCO] Computing: w0[0]=1 w1[0]=1 a0=1 a1=1
# KERNEL: UVM_INFO /home/runner/accel_axis_result_agent.sv(69) @ 25792500: uvm_test_top.env.result_a.mon [RESULT_MON] Result vector captured â€” last=0
# KERNEL: UVM_INFO /home/runner/accel_scoreboard.sv(174) @ 25792500: uvm_test_top.env.sco [SCO] Computing: w0[0]=1 w1[0]=1 a0=1 a1=1
# KERNEL: UVM_INFO /home/runner/accel_axis_result_agent.sv(69) @ 25812500: uvm_test_top.env.result_a.mon [RESULT_MON] Result vector captured â€” last=0
# KERNEL: UVM_INFO /home/runner/accel_scoreboard.sv(174) @ 25812500: uvm_test_top.env.sco [SCO] Computing: w0[0]=1 w1[0]=1 a0=1 a1=1
# KERNEL: UVM_INFO /home/runner/accel_axis_result_agent.sv(69) @ 25832500: uvm_test_top.env.result_a.mon [RESULT_MON] Result vector captured â€” last=0
# KERNEL: UVM_INFO /home/runner/accel_scoreboard.sv(174) @ 25832500: uvm_test_top.env.sco [SCO] Computing: w0[0]=1 w1[0]=1 a0=1 a1=1
# KERNEL: UVM_INFO /home/runner/accel_axis_result_agent.sv(69) @ 25852500: uvm_test_top.env.result_a.mon [RESULT_MON] Result vector captured â€” last=0
# KERNEL: UVM_INFO /home/runner/accel_scoreboard.sv(174) @ 25852500: uvm_test_top.env.sco [SCO] Computing: w0[0]=1 w1[0]=1 a0=1 a1=1
# KERNEL: UVM_INFO /home/runner/accel_axis_result_agent.sv(69) @ 25872500: uvm_test_top.env.result_a.mon [RESULT_MON] Result vector captured â€” last=0
# KERNEL: UVM_INFO /home/runner/accel_scoreboard.sv(174) @ 25872500: uvm_test_top.env.sco [SCO] Computing: w0[0]=1 w1[0]=1 a0=1 a1=1
# KERNEL: UVM_INFO /home/runner/accel_axis_result_agent.sv(69) @ 25892500: uvm_test_top.env.result_a.mon [RESULT_MON] Result vector captured â€” last=0
# KERNEL: UVM_INFO /home/runner/accel_scoreboard.sv(174) @ 25892500: uvm_test_top.env.sco [SCO] Computing: w0[0]=1 w1[0]=1 a0=1 a1=1
# KERNEL: UVM_INFO /home/runner/accel_axis_result_agent.sv(69) @ 25912500: uvm_test_top.env.result_a.mon [RESULT_MON] Result vector captured â€” last=0
# KERNEL: UVM_INFO /home/runner/accel_scoreboard.sv(174) @ 25912500: uvm_test_top.env.sco [SCO] Computing: w0[0]=1 w1[0]=1 a0=1 a1=1
# KERNEL: UVM_INFO /home/runner/accel_axis_result_agent.sv(69) @ 25932500: uvm_test_top.env.result_a.mon [RESULT_MON] Result vector captured â€” last=0
# KERNEL: UVM_INFO /home/runner/accel_scoreboard.sv(174) @ 25932500: uvm_test_top.env.sco [SCO] Computing: w0[0]=1 w1[0]=1 a0=1 a1=1
# KERNEL: UVM_INFO /home/runner/accel_axis_result_agent.sv(69) @ 25952500: uvm_test_top.env.result_a.mon [RESULT_MON] Result vector captured â€” last=0
# KERNEL: UVM_INFO /home/runner/accel_scoreboard.sv(174) @ 25952500: uvm_test_top.env.sco [SCO] Computing: w0[0]=1 w1[0]=1 a0=1 a1=1
# KERNEL: UVM_INFO /home/runner/accel_axis_result_agent.sv(69) @ 25972500: uvm_test_top.env.result_a.mon [RESULT_MON] Result vector captured â€” last=0
# KERNEL: UVM_INFO /home/runner/accel_scoreboard.sv(174) @ 25972500: uvm_test_top.env.sco [SCO] Computing: w0[0]=1 w1[0]=1 a0=1 a1=1
# KERNEL: UVM_INFO /home/runner/accel_axis_result_agent.sv(69) @ 25992500: uvm_test_top.env.result_a.mon [RESULT_MON] Result vector captured â€” last=0
# KERNEL: UVM_INFO /home/runner/accel_scoreboard.sv(174) @ 25992500: uvm_test_top.env.sco [SCO] Computing: w0[0]=1 w1[0]=1 a0=1 a1=1
# KERNEL: UVM_INFO /home/runner/accel_axis_result_agent.sv(69) @ 26012500: uvm_test_top.env.result_a.mon [RESULT_MON] Result vector captured â€” last=0
# KERNEL: UVM_INFO /home/runner/accel_scoreboard.sv(174) @ 26012500: uvm_test_top.env.sco [SCO] Computing: w0[0]=1 w1[0]=1 a0=1 a1=1
# KERNEL: UVM_INFO /home/runner/accel_axis_result_agent.sv(69) @ 26032500: uvm_test_top.env.result_a.mon [RESULT_MON] Result vector captured â€” last=0
# KERNEL: UVM_INFO /home/runner/accel_scoreboard.sv(174) @ 26032500: uvm_test_top.env.sco [SCO] Computing: w0[0]=1 w1[0]=1 a0=1 a1=1
# KERNEL: UVM_INFO /home/runner/accel_axis_result_agent.sv(69) @ 26052500: uvm_test_top.env.result_a.mon [RESULT_MON] Result vector captured â€” last=0
# KERNEL: UVM_INFO /home/runner/accel_scoreboard.sv(174) @ 26052500: uvm_test_top.env.sco [SCO] Computing: w0[0]=1 w1[0]=1 a0=1 a1=1
# KERNEL: UVM_INFO /home/runner/accel_axis_result_agent.sv(69) @ 26072500: uvm_test_top.env.result_a.mon [RESULT_MON] Result vector captured â€” last=0
# KERNEL: UVM_INFO /home/runner/accel_scoreboard.sv(174) @ 26072500: uvm_test_top.env.sco [SCO] Computing: w0[0]=1 w1[0]=1 a0=1 a1=1
# KERNEL: UVM_INFO /home/runner/accel_axis_result_agent.sv(69) @ 26092500: uvm_test_top.env.result_a.mon [RESULT_MON] Result vector captured â€” last=0
# KERNEL: UVM_INFO /home/runner/accel_scoreboard.sv(174) @ 26092500: uvm_test_top.env.sco [SCO] Computing: w0[0]=1 w1[0]=1 a0=1 a1=1
# KERNEL: UVM_INFO /home/runner/accel_axis_result_agent.sv(69) @ 26112500: uvm_test_top.env.result_a.mon [RESULT_MON] Result vector captured â€” last=0
# KERNEL: UVM_INFO /home/runner/accel_scoreboard.sv(174) @ 26112500: uvm_test_top.env.sco [SCO] Computing: w0[0]=1 w1[0]=1 a0=1 a1=1
# KERNEL: UVM_INFO /home/runner/accel_axis_result_agent.sv(69) @ 26132500: uvm_test_top.env.result_a.mon [RESULT_MON] Result vector captured â€” last=0
# KERNEL: UVM_INFO /home/runner/accel_scoreboard.sv(174) @ 26132500: uvm_test_top.env.sco [SCO] Computing: w0[0]=1 w1[0]=1 a0=1 a1=1
# KERNEL: UVM_INFO /home/runner/accel_axis_result_agent.sv(69) @ 26152500: uvm_test_top.env.result_a.mon [RESULT_MON] Result vector captured â€” last=0
# KERNEL: UVM_INFO /home/runner/accel_scoreboard.sv(174) @ 26152500: uvm_test_top.env.sco [SCO] Computing: w0[0]=1 w1[0]=1 a0=1 a1=1
# KERNEL: UVM_INFO /home/runner/accel_axis_result_agent.sv(69) @ 26172500: uvm_test_top.env.result_a.mon [RESULT_MON] Result vector captured â€” last=0
# KERNEL: UVM_INFO /home/runner/accel_scoreboard.sv(174) @ 26172500: uvm_test_top.env.sco [SCO] Computing: w0[0]=1 w1[0]=1 a0=1 a1=1
# KERNEL: UVM_INFO /home/runner/accel_axis_result_agent.sv(69) @ 26192500: uvm_test_top.env.result_a.mon [RESULT_MON] Result vector captured â€” last=0
# KERNEL: UVM_INFO /home/runner/accel_scoreboard.sv(174) @ 26192500: uvm_test_top.env.sco [SCO] Computing: w0[0]=1 w1[0]=1 a0=1 a1=1
# KERNEL: UVM_INFO /home/runner/accel_axis_result_agent.sv(69) @ 26212500: uvm_test_top.env.result_a.mon [RESULT_MON] Result vector captured â€” last=0
# KERNEL: UVM_INFO /home/runner/accel_scoreboard.sv(174) @ 26212500: uvm_test_top.env.sco [SCO] Computing: w0[0]=1 w1[0]=1 a0=1 a1=1
# KERNEL: UVM_INFO /home/runner/accel_axis_result_agent.sv(69) @ 26232500: uvm_test_top.env.result_a.mon [RESULT_MON] Result vector captured â€” last=0
# KERNEL: UVM_INFO /home/runner/accel_scoreboard.sv(174) @ 26232500: uvm_test_top.env.sco [SCO] Computing: w0[0]=1 w1[0]=1 a0=1 a1=1
# KERNEL: UVM_INFO /home/runner/accel_axis_result_agent.sv(69) @ 26252500: uvm_test_top.env.result_a.mon [RESULT_MON] Result vector captured â€” last=0
# KERNEL: UVM_INFO /home/runner/accel_scoreboard.sv(174) @ 26252500: uvm_test_top.env.sco [SCO] Computing: w0[0]=1 w1[0]=1 a0=1 a1=1
# KERNEL: UVM_INFO /home/runner/accel_axis_result_agent.sv(69) @ 26272500: uvm_test_top.env.result_a.mon [RESULT_MON] Result vector captured â€” last=0
# KERNEL: UVM_INFO /home/runner/accel_scoreboard.sv(174) @ 26272500: uvm_test_top.env.sco [SCO] Computing: w0[0]=1 w1[0]=1 a0=1 a1=1
# KERNEL: UVM_INFO /home/runner/accel_axis_result_agent.sv(69) @ 26292500: uvm_test_top.env.result_a.mon [RESULT_MON] Result vector captured â€” last=0
# KERNEL: UVM_INFO /home/runner/accel_scoreboard.sv(174) @ 26292500: uvm_test_top.env.sco [SCO] Computing: w0[0]=1 w1[0]=1 a0=1 a1=1
# KERNEL: UVM_INFO /home/runner/accel_axis_result_agent.sv(69) @ 26312500: uvm_test_top.env.result_a.mon [RESULT_MON] Result vector captured â€” last=0
# KERNEL: UVM_INFO /home/runner/accel_scoreboard.sv(174) @ 26312500: uvm_test_top.env.sco [SCO] Computing: w0[0]=1 w1[0]=1 a0=1 a1=1
# KERNEL: UVM_INFO /home/runner/accel_axis_result_agent.sv(69) @ 26332500: uvm_test_top.env.result_a.mon [RESULT_MON] Result vector captured â€” last=0
# KERNEL: UVM_INFO /home/runner/accel_scoreboard.sv(174) @ 26332500: uvm_test_top.env.sco [SCO] Computing: w0[0]=1 w1[0]=1 a0=1 a1=1
# KERNEL: UVM_INFO /home/runner/accel_axis_result_agent.sv(69) @ 26352500: uvm_test_top.env.result_a.mon [RESULT_MON] Result vector captured â€” last=0
# KERNEL: UVM_INFO /home/runner/accel_scoreboard.sv(174) @ 26352500: uvm_test_top.env.sco [SCO] Computing: w0[0]=1 w1[0]=1 a0=1 a1=1
# KERNEL: UVM_INFO /home/runner/accel_axis_result_agent.sv(69) @ 26372500: uvm_test_top.env.result_a.mon [RESULT_MON] Result vector captured â€” last=0
# KERNEL: UVM_INFO /home/runner/accel_scoreboard.sv(174) @ 26372500: uvm_test_top.env.sco [SCO] Computing: w0[0]=1 w1[0]=1 a0=1 a1=1
# KERNEL: UVM_INFO /home/runner/accel_axis_result_agent.sv(69) @ 26392500: uvm_test_top.env.result_a.mon [RESULT_MON] Result vector captured â€” last=0
# KERNEL: UVM_INFO /home/runner/accel_scoreboard.sv(174) @ 26392500: uvm_test_top.env.sco [SCO] Computing: w0[0]=1 w1[0]=1 a0=1 a1=1
# KERNEL: UVM_INFO /home/runner/accel_axis_result_agent.sv(69) @ 26412500: uvm_test_top.env.result_a.mon [RESULT_MON] Result vector captured â€” last=0
# KERNEL: UVM_INFO /home/runner/accel_scoreboard.sv(174) @ 26412500: uvm_test_top.env.sco [SCO] Computing: w0[0]=1 w1[0]=1 a0=1 a1=1
# KERNEL: UVM_INFO /home/runner/accel_axis_result_agent.sv(69) @ 26432500: uvm_test_top.env.result_a.mon [RESULT_MON] Result vector captured â€” last=0
# KERNEL: UVM_INFO /home/runner/accel_scoreboard.sv(174) @ 26432500: uvm_test_top.env.sco [SCO] Computing: w0[0]=1 w1[0]=1 a0=1 a1=1
# KERNEL: UVM_INFO /home/runner/accel_axis_result_agent.sv(69) @ 26452500: uvm_test_top.env.result_a.mon [RESULT_MON] Result vector captured â€” last=0
# KERNEL: UVM_INFO /home/runner/accel_scoreboard.sv(174) @ 26452500: uvm_test_top.env.sco [SCO] Computing: w0[0]=1 w1[0]=1 a0=1 a1=1
# KERNEL: UVM_INFO /home/runner/accel_axis_result_agent.sv(69) @ 26472500: uvm_test_top.env.result_a.mon [RESULT_MON] Result vector captured â€” last=0
# KERNEL: UVM_INFO /home/runner/accel_scoreboard.sv(174) @ 26472500: uvm_test_top.env.sco [SCO] Computing: w0[0]=1 w1[0]=1 a0=1 a1=1
# KERNEL: UVM_INFO /home/runner/accel_axis_result_agent.sv(69) @ 26492500: uvm_test_top.env.result_a.mon [RESULT_MON] Result vector captured â€” last=0
# KERNEL: UVM_INFO /home/runner/accel_scoreboard.sv(174) @ 26492500: uvm_test_top.env.sco [SCO] Computing: w0[0]=1 w1[0]=1 a0=1 a1=1
# KERNEL: UVM_INFO /home/runner/accel_axis_result_agent.sv(69) @ 26512500: uvm_test_top.env.result_a.mon [RESULT_MON] Result vector captured â€” last=0
# KERNEL: UVM_INFO /home/runner/accel_scoreboard.sv(174) @ 26512500: uvm_test_top.env.sco [SCO] Computing: w0[0]=1 w1[0]=1 a0=1 a1=1
# KERNEL: UVM_INFO /home/runner/accel_axis_result_agent.sv(69) @ 26532500: uvm_test_top.env.result_a.mon [RESULT_MON] Result vector captured â€” last=0
# KERNEL: UVM_INFO /home/runner/accel_scoreboard.sv(174) @ 26532500: uvm_test_top.env.sco [SCO] Computing: w0[0]=1 w1[0]=1 a0=1 a1=1
# KERNEL: UVM_INFO /home/runner/accel_axis_result_agent.sv(69) @ 26552500: uvm_test_top.env.result_a.mon [RESULT_MON] Result vector captured â€” last=0
# KERNEL: UVM_INFO /home/runner/accel_scoreboard.sv(174) @ 26552500: uvm_test_top.env.sco [SCO] Computing: w0[0]=1 w1[0]=1 a0=1 a1=1
# KERNEL: UVM_INFO /home/runner/accel_axis_result_agent.sv(69) @ 26572500: uvm_test_top.env.result_a.mon [RESULT_MON] Result vector captured â€” last=0
# KERNEL: UVM_INFO /home/runner/accel_scoreboard.sv(174) @ 26572500: uvm_test_top.env.sco [SCO] Computing: w0[0]=1 w1[0]=1 a0=1 a1=1
# KERNEL: UVM_INFO /home/runner/accel_axis_result_agent.sv(69) @ 26592500: uvm_test_top.env.result_a.mon [RESULT_MON] Result vector captured â€” last=0
# KERNEL: UVM_INFO /home/runner/accel_scoreboard.sv(174) @ 26592500: uvm_test_top.env.sco [SCO] Computing: w0[0]=1 w1[0]=1 a0=1 a1=1
# KERNEL: UVM_INFO /home/runner/accel_axis_result_agent.sv(69) @ 26612500: uvm_test_top.env.result_a.mon [RESULT_MON] Result vector captured â€” last=0
# KERNEL: UVM_INFO /home/runner/accel_scoreboard.sv(174) @ 26612500: uvm_test_top.env.sco [SCO] Computing: w0[0]=1 w1[0]=1 a0=1 a1=1
# KERNEL: UVM_INFO /home/runner/accel_axis_result_agent.sv(69) @ 26632500: uvm_test_top.env.result_a.mon [RESULT_MON] Result vector captured â€” last=0
# KERNEL: UVM_INFO /home/runner/accel_scoreboard.sv(174) @ 26632500: uvm_test_top.env.sco [SCO] Computing: w0[0]=1 w1[0]=1 a0=1 a1=1
# KERNEL: UVM_INFO /home/runner/accel_axis_result_agent.sv(69) @ 26652500: uvm_test_top.env.result_a.mon [RESULT_MON] Result vector captured â€” last=0
# KERNEL: UVM_INFO /home/runner/accel_scoreboard.sv(174) @ 26652500: uvm_test_top.env.sco [SCO] Computing: w0[0]=1 w1[0]=1 a0=1 a1=1
# KERNEL: UVM_INFO /home/runner/accel_axis_result_agent.sv(69) @ 26672500: uvm_test_top.env.result_a.mon [RESULT_MON] Result vector captured â€” last=0
# KERNEL: UVM_INFO /home/runner/accel_scoreboard.sv(174) @ 26672500: uvm_test_top.env.sco [SCO] Computing: w0[0]=1 w1[0]=1 a0=1 a1=1
# KERNEL: UVM_INFO /home/runner/accel_axis_result_agent.sv(69) @ 26692500: uvm_test_top.env.result_a.mon [RESULT_MON] Result vector captured â€” last=0
# KERNEL: UVM_INFO /home/runner/accel_scoreboard.sv(174) @ 26692500: uvm_test_top.env.sco [SCO] Computing: w0[0]=1 w1[0]=1 a0=1 a1=1
# KERNEL: UVM_INFO /home/runner/accel_axis_result_agent.sv(69) @ 26712500: uvm_test_top.env.result_a.mon [RESULT_MON] Result vector captured â€” last=0
# KERNEL: UVM_INFO /home/runner/accel_scoreboard.sv(174) @ 26712500: uvm_test_top.env.sco [SCO] Computing: w0[0]=1 w1[0]=1 a0=1 a1=1
# KERNEL: UVM_INFO /home/runner/accel_axis_result_agent.sv(69) @ 26732500: uvm_test_top.env.result_a.mon [RESULT_MON] Result vector captured â€” last=0
# KERNEL: UVM_INFO /home/runner/accel_scoreboard.sv(174) @ 26732500: uvm_test_top.env.sco [SCO] Computing: w0[0]=1 w1[0]=1 a0=1 a1=1
# KERNEL: UVM_INFO /home/runner/accel_axis_result_agent.sv(69) @ 26752500: uvm_test_top.env.result_a.mon [RESULT_MON] Result vector captured â€” last=0
# KERNEL: UVM_INFO /home/runner/accel_scoreboard.sv(174) @ 26752500: uvm_test_top.env.sco [SCO] Computing: w0[0]=1 w1[0]=1 a0=1 a1=1
# KERNEL: UVM_INFO /home/runner/accel_axis_result_agent.sv(69) @ 26772500: uvm_test_top.env.result_a.mon [RESULT_MON] Result vector captured â€” last=0
# KERNEL: UVM_INFO /home/runner/accel_scoreboard.sv(174) @ 26772500: uvm_test_top.env.sco [SCO] Computing: w0[0]=1 w1[0]=1 a0=1 a1=1
# KERNEL: UVM_INFO /home/runner/accel_axis_result_agent.sv(69) @ 26792500: uvm_test_top.env.result_a.mon [RESULT_MON] Result vector captured â€” last=0
# KERNEL: UVM_INFO /home/runner/accel_scoreboard.sv(174) @ 26792500: uvm_test_top.env.sco [SCO] Computing: w0[0]=1 w1[0]=1 a0=1 a1=1
# KERNEL: UVM_INFO /home/runner/accel_axis_result_agent.sv(69) @ 26812500: uvm_test_top.env.result_a.mon [RESULT_MON] Result vector captured â€” last=0
# KERNEL: UVM_INFO /home/runner/accel_scoreboard.sv(174) @ 26812500: uvm_test_top.env.sco [SCO] Computing: w0[0]=1 w1[0]=1 a0=1 a1=1
# KERNEL: UVM_INFO /home/runner/accel_axis_result_agent.sv(69) @ 26832500: uvm_test_top.env.result_a.mon [RESULT_MON] Result vector captured â€” last=0
# KERNEL: UVM_INFO /home/runner/accel_scoreboard.sv(174) @ 26832500: uvm_test_top.env.sco [SCO] Computing: w0[0]=1 w1[0]=1 a0=1 a1=1
# KERNEL: UVM_INFO /home/runner/accel_axis_result_agent.sv(69) @ 26852500: uvm_test_top.env.result_a.mon [RESULT_MON] Result vector captured â€” last=0
# KERNEL: UVM_INFO /home/runner/accel_scoreboard.sv(174) @ 26852500: uvm_test_top.env.sco [SCO] Computing: w0[0]=1 w1[0]=1 a0=1 a1=1
# KERNEL: UVM_INFO /home/runner/accel_axis_result_agent.sv(69) @ 26872500: uvm_test_top.env.result_a.mon [RESULT_MON] Result vector captured â€” last=0
# KERNEL: UVM_INFO /home/runner/accel_scoreboard.sv(174) @ 26872500: uvm_test_top.env.sco [SCO] Computing: w0[0]=1 w1[0]=1 a0=1 a1=1
# KERNEL: UVM_INFO /home/runner/accel_axis_result_agent.sv(69) @ 26892500: uvm_test_top.env.result_a.mon [RESULT_MON] Result vector captured â€” last=0
# KERNEL: UVM_INFO /home/runner/accel_scoreboard.sv(174) @ 26892500: uvm_test_top.env.sco [SCO] Computing: w0[0]=1 w1[0]=1 a0=1 a1=1
# KERNEL: UVM_INFO /home/runner/accel_axis_result_agent.sv(69) @ 26912500: uvm_test_top.env.result_a.mon [RESULT_MON] Result vector captured â€” last=0
# KERNEL: UVM_INFO /home/runner/accel_scoreboard.sv(174) @ 26912500: uvm_test_top.env.sco [SCO] Computing: w0[0]=1 w1[0]=1 a0=1 a1=1
# KERNEL: UVM_INFO /home/runner/accel_axis_result_agent.sv(69) @ 26932500: uvm_test_top.env.result_a.mon [RESULT_MON] Result vector captured â€” last=0
# KERNEL: UVM_INFO /home/runner/accel_scoreboard.sv(174) @ 26932500: uvm_test_top.env.sco [SCO] Computing: w0[0]=1 w1[0]=1 a0=1 a1=1
# KERNEL: UVM_INFO /home/runner/accel_axis_result_agent.sv(69) @ 26952500: uvm_test_top.env.result_a.mon [RESULT_MON] Result vector captured â€” last=0
# KERNEL: UVM_INFO /home/runner/accel_scoreboard.sv(174) @ 26952500: uvm_test_top.env.sco [SCO] Computing: w0[0]=1 w1[0]=1 a0=1 a1=1
# KERNEL: UVM_INFO /home/runner/accel_axis_result_agent.sv(69) @ 26972500: uvm_test_top.env.result_a.mon [RESULT_MON] Result vector captured â€” last=0
# KERNEL: UVM_INFO /home/runner/accel_scoreboard.sv(174) @ 26972500: uvm_test_top.env.sco [SCO] Computing: w0[0]=1 w1[0]=1 a0=1 a1=1
# KERNEL: UVM_INFO /home/runner/accel_axis_result_agent.sv(69) @ 26992500: uvm_test_top.env.result_a.mon [RESULT_MON] Result vector captured â€” last=0
# KERNEL: UVM_INFO /home/runner/accel_scoreboard.sv(174) @ 26992500: uvm_test_top.env.sco [SCO] Computing: w0[0]=1 w1[0]=1 a0=1 a1=1
# KERNEL: UVM_INFO /home/runner/accel_axis_result_agent.sv(69) @ 27012500: uvm_test_top.env.result_a.mon [RESULT_MON] Result vector captured â€” last=0
# KERNEL: UVM_INFO /home/runner/accel_scoreboard.sv(174) @ 27012500: uvm_test_top.env.sco [SCO] Computing: w0[0]=1 w1[0]=1 a0=1 a1=1
# KERNEL: UVM_INFO /home/runner/accel_axis_result_agent.sv(69) @ 27032500: uvm_test_top.env.result_a.mon [RESULT_MON] Result vector captured â€” last=0
# KERNEL: UVM_INFO /home/runner/accel_scoreboard.sv(174) @ 27032500: uvm_test_top.env.sco [SCO] Computing: w0[0]=1 w1[0]=1 a0=1 a1=1
# KERNEL: UVM_INFO /home/runner/accel_axis_result_agent.sv(69) @ 27052500: uvm_test_top.env.result_a.mon [RESULT_MON] Result vector captured â€” last=0
# KERNEL: UVM_INFO /home/runner/accel_scoreboard.sv(174) @ 27052500: uvm_test_top.env.sco [SCO] Computing: w0[0]=1 w1[0]=1 a0=1 a1=1
# KERNEL: UVM_INFO /home/runner/accel_axis_result_agent.sv(69) @ 27072500: uvm_test_top.env.result_a.mon [RESULT_MON] Result vector captured â€” last=0
# KERNEL: UVM_INFO /home/runner/accel_scoreboard.sv(174) @ 27072500: uvm_test_top.env.sco [SCO] Computing: w0[0]=1 w1[0]=1 a0=1 a1=1
# KERNEL: UVM_INFO /home/runner/accel_axis_result_agent.sv(69) @ 27092500: uvm_test_top.env.result_a.mon [RESULT_MON] Result vector captured â€” last=0
# KERNEL: UVM_INFO /home/runner/accel_scoreboard.sv(174) @ 27092500: uvm_test_top.env.sco [SCO] Computing: w0[0]=1 w1[0]=1 a0=1 a1=1
# KERNEL: UVM_INFO /home/runner/accel_axis_result_agent.sv(69) @ 27112500: uvm_test_top.env.result_a.mon [RESULT_MON] Result vector captured â€” last=0
# KERNEL: UVM_INFO /home/runner/accel_scoreboard.sv(174) @ 27112500: uvm_test_top.env.sco [SCO] Computing: w0[0]=1 w1[0]=1 a0=1 a1=1
# KERNEL: UVM_INFO /home/runner/accel_axis_result_agent.sv(69) @ 27132500: uvm_test_top.env.result_a.mon [RESULT_MON] Result vector captured â€” last=0
# KERNEL: UVM_INFO /home/runner/accel_scoreboard.sv(174) @ 27132500: uvm_test_top.env.sco [SCO] Computing: w0[0]=1 w1[0]=1 a0=1 a1=1
# KERNEL: UVM_INFO /home/runner/accel_axis_result_agent.sv(69) @ 27152500: uvm_test_top.env.result_a.mon [RESULT_MON] Result vector captured â€” last=0
# KERNEL: UVM_INFO /home/runner/accel_scoreboard.sv(174) @ 27152500: uvm_test_top.env.sco [SCO] Computing: w0[0]=1 w1[0]=1 a0=1 a1=1
# KERNEL: UVM_INFO /home/runner/accel_axis_result_agent.sv(69) @ 27172500: uvm_test_top.env.result_a.mon [RESULT_MON] Result vector captured â€” last=0
# KERNEL: UVM_INFO /home/runner/accel_scoreboard.sv(174) @ 27172500: uvm_test_top.env.sco [SCO] Computing: w0[0]=1 w1[0]=1 a0=1 a1=1
# KERNEL: UVM_INFO /home/runner/accel_axis_result_agent.sv(69) @ 27192500: uvm_test_top.env.result_a.mon [RESULT_MON] Result vector captured â€” last=0
# KERNEL: UVM_INFO /home/runner/accel_scoreboard.sv(174) @ 27192500: uvm_test_top.env.sco [SCO] Computing: w0[0]=1 w1[0]=1 a0=1 a1=1
# KERNEL: UVM_INFO /home/runner/accel_axis_result_agent.sv(69) @ 27212500: uvm_test_top.env.result_a.mon [RESULT_MON] Result vector captured â€” last=0
# KERNEL: UVM_INFO /home/runner/accel_scoreboard.sv(174) @ 27212500: uvm_test_top.env.sco [SCO] Computing: w0[0]=1 w1[0]=1 a0=1 a1=1
# KERNEL: UVM_INFO /home/runner/accel_axis_result_agent.sv(69) @ 27232500: uvm_test_top.env.result_a.mon [RESULT_MON] Result vector captured â€” last=0
