# KERNEL: ASDB file was created in location /home/runner/dataset.asdb
# KERNEL: UVM_INFO @ 0: reporter [RNTST] Running test test_075_high_coverage_closure...
# KERNEL: UVM_INFO @ 0: reporter [MAXQUITSET] '+UVM_MAX_QUIT_COUNT=1,YES' provided on the command line is being applied.
# KERNEL: ============================Test_075 : High Coverage Sweep (Completing) Start============================================================
# KERNEL: UVM_INFO /home/runner/accel_scoreboard.sv(297) @ 0: uvm_test_top.env.sco [SCO] Queues flushed
# KERNEL:                 Step 1 : Global Soft Reset + Clear                 
# KERNEL: UVM_INFO /home/runner/accel_axil_agent.sv(42) @ 102500: uvm_test_top.env.axil_a.drv [axil_csr_drv] DUT RESET COMPLETED
# KERNEL: =========================================================================================================================================
# KERNEL: UVM_INFO /home/runner/accel_axis_weight_agent.sv(35) @ 102500: uvm_test_top.env.weight_a.drv [WEIGHT_DRV] Reset done
# KERNEL: =========================================================================================================================================
# KERNEL: UVM_INFO /home/runner/accel_axis_act_agent.sv(35) @ 102500: uvm_test_top.env.act_a.drv [ACT_DRV] Reset done
# KERNEL: =========================================================================================================================================
# KERNEL: UVM_INFO /home/runner/accel_axil_agent.sv(56) @ 102500: uvm_test_top.env.axil_a.drv [axil_csr_drv] WRITE addr=0x0 data=0x48
# KERNEL: UVM_INFO /home/runner/accel_scoreboard.sv(109) @ 127500: uvm_test_top.env.sco [SCO] WRITE addr=0x0 data=0x48
# KERNEL: UVM_INFO /home/runner/accel_axil_agent.sv(121) @ 127500: uvm_test_top.env.axil_a.drv [axil_csr_drv] [CSR] Write Data transaction completed
# KERNEL: UVM_INFO /home/runner/accel_sequences.sv(31) @ 127500: uvm_test_top.env.axil_a.seqr@@wr_seq [CSR_WRITE_SEQ] Written addr=0x0 data=0x48
# KERNEL: UVM_INFO /home/runner/accel_axil_agent.sv(56) @ 177500: uvm_test_top.env.axil_a.drv [axil_csr_drv] WRITE addr=0x0 data=0x8
# KERNEL: UVM_INFO /home/runner/accel_scoreboard.sv(109) @ 202500: uvm_test_top.env.sco [SCO] WRITE addr=0x0 data=0x8
# KERNEL: UVM_INFO /home/runner/accel_axil_agent.sv(121) @ 202500: uvm_test_top.env.axil_a.drv [axil_csr_drv] [CSR] Write Data transaction completed
# KERNEL: UVM_INFO /home/runner/accel_sequences.sv(31) @ 202500: uvm_test_top.env.axil_a.seqr@@wr_seq [CSR_WRITE_SEQ] Written addr=0x0 data=0x8
# KERNEL: UVM_INFO /home/runner/accel_axil_agent.sv(56) @ 227500: uvm_test_top.env.axil_a.drv [axil_csr_drv] WRITE addr=0x10 data=0x1
# KERNEL: UVM_INFO /home/runner/accel_scoreboard.sv(109) @ 252500: uvm_test_top.env.sco [SCO] WRITE addr=0x10 data=0x1
# KERNEL: UVM_INFO /home/runner/accel_axil_agent.sv(121) @ 252500: uvm_test_top.env.axil_a.drv [axil_csr_drv] [CSR] Write Data transaction completed
# KERNEL: UVM_INFO /home/runner/accel_sequences.sv(31) @ 252500: uvm_test_top.env.axil_a.seqr@@wr_seq [CSR_WRITE_SEQ] Written addr=0x10 data=0x1
# KERNEL: UVM_INFO /home/runner/accel_axil_agent.sv(90) @ 257500: uvm_test_top.env.axil_a.drv [AXIL_DRV] READ addr=0x10
# KERNEL: UVM_INFO /home/runner/accel_scoreboard.sv(125) @ 272500: uvm_test_top.env.sco [SCO] PASS addr=0x10 exp=0x1 got=0x1
# KERNEL: UVM_INFO /home/runner/accel_axil_agent.sv(126) @ 272500: uvm_test_top.env.axil_a.drv [axil_csr_drv] [CSR] Read Data transaction completed
# KERNEL: UVM_INFO /home/runner/accel_axil_agent.sv(56) @ 277500: uvm_test_top.env.axil_a.drv [axil_csr_drv] WRITE addr=0x0 data=0x1
# KERNEL: UVM_INFO /home/runner/accel_scoreboard.sv(109) @ 302500: uvm_test_top.env.sco [SCO] WRITE addr=0x0 data=0x1
# KERNEL: UVM_INFO /home/runner/accel_axil_agent.sv(121) @ 302500: uvm_test_top.env.axil_a.drv [axil_csr_drv] [CSR] Write Data transaction completed
# KERNEL: UVM_INFO /home/runner/accel_sequences.sv(31) @ 302500: uvm_test_top.env.axil_a.seqr@@wr_seq [CSR_WRITE_SEQ] Written addr=0x0 data=0x1
# KERNEL: UVM_INFO /home/runner/accel_axil_agent.sv(90) @ 307500: uvm_test_top.env.axil_a.drv [AXIL_DRV] READ addr=0x0
# KERNEL: UVM_INFO /home/runner/accel_scoreboard.sv(125) @ 322500: uvm_test_top.env.sco [SCO] PASS addr=0x0 exp=0x1 got=0x1
# KERNEL: UVM_INFO /home/runner/accel_axil_agent.sv(126) @ 322500: uvm_test_top.env.axil_a.drv [axil_csr_drv] [CSR] Read Data transaction completed
# KERNEL: UVM_INFO /home/runner/accel_axil_agent.sv(90) @ 327500: uvm_test_top.env.axil_a.drv [AXIL_DRV] READ addr=0x4
# KERNEL: UVM_WARNING /home/runner/accel_scoreboard.sv(119) @ 342500: uvm_test_top.env.sco [SCO] READ addr=0x4 no expected registered
# KERNEL: UVM_INFO /home/runner/accel_axil_agent.sv(126) @ 342500: uvm_test_top.env.axil_a.drv [axil_csr_drv] [CSR] Read Data transaction completed
# KERNEL: UVM_INFO /home/runner/accel_axil_agent.sv(56) @ 347500: uvm_test_top.env.axil_a.drv [axil_csr_drv] WRITE addr=0xc data=0x1
# KERNEL: UVM_INFO /home/runner/accel_scoreboard.sv(109) @ 372500: uvm_test_top.env.sco [SCO] WRITE addr=0xc data=0x1
# KERNEL: UVM_INFO /home/runner/accel_axil_agent.sv(121) @ 372500: uvm_test_top.env.axil_a.drv [axil_csr_drv] [CSR] Write Data transaction completed
# KERNEL: UVM_INFO /home/runner/accel_sequences.sv(31) @ 372500: uvm_test_top.env.axil_a.seqr@@wr_seq [CSR_WRITE_SEQ] Written addr=0xc data=0x1
# KERNEL: UVM_INFO /home/runner/accel_axil_agent.sv(56) @ 377500: uvm_test_top.env.axil_a.drv [axil_csr_drv] WRITE addr=0x8 data=0x10002
# KERNEL: UVM_INFO /home/runner/accel_scoreboard.sv(109) @ 402500: uvm_test_top.env.sco [SCO] WRITE addr=0x8 data=0x10002
# KERNEL: UVM_INFO /home/runner/accel_axil_agent.sv(121) @ 402500: uvm_test_top.env.axil_a.drv [axil_csr_drv] [CSR] Write Data transaction completed
# KERNEL: UVM_INFO /home/runner/accel_sequences.sv(31) @ 402500: uvm_test_top.env.axil_a.seqr@@wr_seq [CSR_WRITE_SEQ] Written addr=0x8 data=0x10002
# KERNEL: UVM_INFO /home/runner/accel_axil_agent.sv(56) @ 407500: uvm_test_top.env.axil_a.drv [axil_csr_drv] WRITE addr=0xe4 data=0x10000
# KERNEL: UVM_INFO /home/runner/accel_scoreboard.sv(109) @ 432500: uvm_test_top.env.sco [SCO] WRITE addr=0xe4 data=0x10000
# KERNEL: UVM_INFO /home/runner/accel_axil_agent.sv(121) @ 432500: uvm_test_top.env.axil_a.drv [axil_csr_drv] [CSR] Write Data transaction completed
# KERNEL: UVM_INFO /home/runner/accel_sequences.sv(31) @ 432500: uvm_test_top.env.axil_a.seqr@@wr_seq [CSR_WRITE_SEQ] Written addr=0xe4 data=0x10000
# KERNEL: UVM_INFO /home/runner/accel_axis_weight_agent.sv(179) @ 677500: uvm_test_top.env.weight_a.mon [WEIGHT_MON] w0[0]=0 w1[0]=0 idx0[0]=3 idx1[0]=2
# KERNEL: UVM_INFO /home/runner/accel_axis_weight_agent.sv(180) @ 677500: uvm_test_top.env.weight_a.mon [WEIGHT_MON] Weight tile captured
# KERNEL: UVM_INFO /home/runner/accel_scoreboard.sv(149) @ 677500: uvm_test_top.env.sco [SCO] Weight tile stored â€” queue=1
# KERNEL: UVM_INFO /home/runner/accel_axis_weight_agent.sv(101) @ 677500: uvm_test_top.env.weight_a.drv [WEIGHT_DRV] Tile complete
# KERNEL: UVM_INFO /home/runner/accel_sequences.sv(89) @ 677500: uvm_test_top.env.weight_a.seqr@@w_tile_seq [WEIGHT_TILE_SEQ] Weight tile streamed
# KERNEL: UVM_INFO /home/runner/accel_axil_agent.sv(56) @ 692500: uvm_test_top.env.axil_a.drv [axil_csr_drv] WRITE addr=0x0 data=0x3
# KERNEL: UVM_INFO /home/runner/accel_scoreboard.sv(109) @ 717500: uvm_test_top.env.sco [SCO] WRITE addr=0x0 data=0x3
# KERNEL: UVM_INFO /home/runner/accel_axil_agent.sv(121) @ 717500: uvm_test_top.env.axil_a.drv [axil_csr_drv] [CSR] Write Data transaction completed
# KERNEL: UVM_INFO /home/runner/accel_sequences.sv(31) @ 717500: uvm_test_top.env.axil_a.seqr@@wr_seq [CSR_WRITE_SEQ] Written addr=0x0 data=0x3
# KERNEL: UVM_INFO /home/runner/accel_axis_act_agent.sv(69) @ 807500: uvm_test_top.env.act_a.drv [ACT_DRV] Beat 1/2 sent mode=DENSE last=0
# KERNEL: UVM_INFO /home/runner/accel_scoreboard.sv(154) @ 812500: uvm_test_top.env.sco [SCO] Act vector stored â€” queue=1
# KERNEL: UVM_INFO /home/runner/accel_axis_act_agent.sv(143) @ 812500: uvm_test_top.env.act_a.mon [ACT_MON] Vector captured a0=0 a1=0 a2=0 a3=0 last=0 mode=DENSE
# KERNEL: UVM_INFO /home/runner/accel_axis_act_agent.sv(69) @ 812500: uvm_test_top.env.act_a.drv [ACT_DRV] Beat 2/2 sent mode=DENSE last=0
# KERNEL: UVM_INFO /home/runner/accel_sequences.sv(115) @ 812500: uvm_test_top.env.act_a.seqr@@a_stream_seq [ACT_STREAM_SEQ] Activation vector streamed
# KERNEL: UVM_INFO /home/runner/accel_axis_act_agent.sv(69) @ 817500: uvm_test_top.env.act_a.drv [ACT_DRV] Beat 1/2 sent mode=DENSE last=1
# KERNEL: UVM_INFO /home/runner/accel_scoreboard.sv(154) @ 822500: uvm_test_top.env.sco [SCO] Act vector stored â€” queue=2
# KERNEL: UVM_INFO /home/runner/accel_axis_act_agent.sv(143) @ 822500: uvm_test_top.env.act_a.mon [ACT_MON] Vector captured a0=-10 a1=10 a2=-5 a3=5 last=1 mode=DENSE
# KERNEL: UVM_INFO /home/runner/accel_axis_act_agent.sv(69) @ 822500: uvm_test_top.env.act_a.drv [ACT_DRV] Beat 2/2 sent mode=DENSE last=1
# KERNEL: UVM_INFO /home/runner/accel_sequences.sv(115) @ 822500: uvm_test_top.env.act_a.seqr@@a_stream_seq [ACT_STREAM_SEQ] Activation vector streamed
# KERNEL: UVM_INFO /home/runner/accel_axis_result_agent.sv(69) @ 1167500: uvm_test_top.env.result_a.mon [RESULT_MON] Result vector captured â€” last=0
# KERNEL: UVM_INFO /home/runner/accel_scoreboard.sv(174) @ 1167500: uvm_test_top.env.sco [SCO] Computing: w0[0]=0 w1[0]=0 a0=0 a1=0
# KERNEL: UVM_INFO /home/runner/accel_axis_result_agent.sv(69) @ 1187500: uvm_test_top.env.result_a.mon [RESULT_MON] Result vector captured â€” last=1
# KERNEL: UVM_INFO /home/runner/accel_scoreboard.sv(174) @ 1187500: uvm_test_top.env.sco [SCO] Computing: w0[0]=0 w1[0]=0 a0=-10 a1=10
# KERNEL: UVM_INFO /home/runner/accel_axil_agent.sv(90) @ 1287500: uvm_test_top.env.axil_a.drv [AXIL_DRV] READ addr=0x30
# KERNEL: UVM_INFO /home/runner/accel_axil_agent.sv(126) @ 1302500: uvm_test_top.env.axil_a.drv [axil_csr_drv] [CSR] Read Data transaction completed
# KERNEL: UVM_INFO /home/runner/accel_axil_agent.sv(90) @ 1307500: uvm_test_top.env.axil_a.drv [AXIL_DRV] READ addr=0x38
# KERNEL: UVM_INFO /home/runner/accel_axil_agent.sv(126) @ 1322500: uvm_test_top.env.axil_a.drv [axil_csr_drv] [CSR] Read Data transaction completed
# KERNEL: Seed 0/16 â€“ Coverage: AXL=85.7% WGT=28.9% ACT=76.9% RES=58.3% FSM=52.4% => AVG=60.5%
# KERNEL: UVM_INFO /home/runner/accel_scoreboard.sv(297) @ 1322500: uvm_test_top.env.sco [SCO] Queues flushed
# KERNEL: UVM_INFO /home/runner/accel_axil_agent.sv(56) @ 1327500: uvm_test_top.env.axil_a.drv [axil_csr_drv] WRITE addr=0x10 data=0x0
# KERNEL: UVM_INFO /home/runner/accel_scoreboard.sv(109) @ 1352500: uvm_test_top.env.sco [SCO] WRITE addr=0x10 data=0x0
# KERNEL: UVM_INFO /home/runner/accel_axil_agent.sv(121) @ 1352500: uvm_test_top.env.axil_a.drv [axil_csr_drv] [CSR] Write Data transaction completed
# KERNEL: UVM_INFO /home/runner/accel_sequences.sv(31) @ 1352500: uvm_test_top.env.axil_a.seqr@@wr_seq [CSR_WRITE_SEQ] Written addr=0x10 data=0x0
# KERNEL: UVM_INFO /home/runner/accel_axil_agent.sv(90) @ 1357500: uvm_test_top.env.axil_a.drv [AXIL_DRV] READ addr=0x10
# KERNEL: UVM_INFO /home/runner/accel_scoreboard.sv(125) @ 1372500: uvm_test_top.env.sco [SCO] PASS addr=0x10 exp=0x0 got=0x0
# KERNEL: UVM_INFO /home/runner/accel_axil_agent.sv(126) @ 1372500: uvm_test_top.env.axil_a.drv [axil_csr_drv] [CSR] Read Data transaction completed
# KERNEL: UVM_INFO /home/runner/accel_axil_agent.sv(56) @ 1377500: uvm_test_top.env.axil_a.drv [axil_csr_drv] WRITE addr=0x0 data=0x1
# KERNEL: UVM_INFO /home/runner/accel_scoreboard.sv(109) @ 1402500: uvm_test_top.env.sco [SCO] WRITE addr=0x0 data=0x1
# KERNEL: UVM_INFO /home/runner/accel_axil_agent.sv(121) @ 1402500: uvm_test_top.env.axil_a.drv [axil_csr_drv] [CSR] Write Data transaction completed
# KERNEL: UVM_INFO /home/runner/accel_sequences.sv(31) @ 1402500: uvm_test_top.env.axil_a.seqr@@wr_seq [CSR_WRITE_SEQ] Written addr=0x0 data=0x1
# KERNEL: UVM_INFO /home/runner/accel_axil_agent.sv(90) @ 1407500: uvm_test_top.env.axil_a.drv [AXIL_DRV] READ addr=0x0
# KERNEL: UVM_INFO /home/runner/accel_scoreboard.sv(125) @ 1422500: uvm_test_top.env.sco [SCO] PASS addr=0x0 exp=0x1 got=0x1
# KERNEL: UVM_INFO /home/runner/accel_axil_agent.sv(126) @ 1422500: uvm_test_top.env.axil_a.drv [axil_csr_drv] [CSR] Read Data transaction completed
# KERNEL: UVM_INFO /home/runner/accel_axil_agent.sv(90) @ 1427500: uvm_test_top.env.axil_a.drv [AXIL_DRV] READ addr=0x4
# KERNEL: UVM_WARNING /home/runner/accel_scoreboard.sv(119) @ 1442500: uvm_test_top.env.sco [SCO] READ addr=0x4 no expected registered
# KERNEL: UVM_INFO /home/runner/accel_axil_agent.sv(126) @ 1442500: uvm_test_top.env.axil_a.drv [axil_csr_drv] [CSR] Read Data transaction completed
# KERNEL: UVM_INFO /home/runner/accel_axil_agent.sv(56) @ 1447500: uvm_test_top.env.axil_a.drv [axil_csr_drv] WRITE addr=0xc data=0x1
# KERNEL: UVM_INFO /home/runner/accel_scoreboard.sv(109) @ 1472500: uvm_test_top.env.sco [SCO] WRITE addr=0xc data=0x1
# KERNEL: UVM_INFO /home/runner/accel_axil_agent.sv(121) @ 1472500: uvm_test_top.env.axil_a.drv [axil_csr_drv] [CSR] Write Data transaction completed
# KERNEL: UVM_INFO /home/runner/accel_sequences.sv(31) @ 1472500: uvm_test_top.env.axil_a.seqr@@wr_seq [CSR_WRITE_SEQ] Written addr=0xc data=0x1
# KERNEL: UVM_INFO /home/runner/accel_axil_agent.sv(56) @ 1477500: uvm_test_top.env.axil_a.drv [axil_csr_drv] WRITE addr=0x8 data=0x10002
# KERNEL: UVM_INFO /home/runner/accel_scoreboard.sv(109) @ 1502500: uvm_test_top.env.sco [SCO] WRITE addr=0x8 data=0x10002
# KERNEL: UVM_INFO /home/runner/accel_axil_agent.sv(121) @ 1502500: uvm_test_top.env.axil_a.drv [axil_csr_drv] [CSR] Write Data transaction completed
# KERNEL: UVM_INFO /home/runner/accel_sequences.sv(31) @ 1502500: uvm_test_top.env.axil_a.seqr@@wr_seq [CSR_WRITE_SEQ] Written addr=0x8 data=0x10002
# KERNEL: UVM_INFO /home/runner/accel_axil_agent.sv(56) @ 1507500: uvm_test_top.env.axil_a.drv [axil_csr_drv] WRITE addr=0xe4 data=0x10000
# KERNEL: UVM_INFO /home/runner/accel_scoreboard.sv(109) @ 1532500: uvm_test_top.env.sco [SCO] WRITE addr=0xe4 data=0x10000
# KERNEL: UVM_INFO /home/runner/accel_axil_agent.sv(121) @ 1532500: uvm_test_top.env.axil_a.drv [axil_csr_drv] [CSR] Write Data transaction completed
# KERNEL: UVM_INFO /home/runner/accel_sequences.sv(31) @ 1532500: uvm_test_top.env.axil_a.seqr@@wr_seq [CSR_WRITE_SEQ] Written addr=0xe4 data=0x10000
# KERNEL: UVM_INFO /home/runner/accel_axis_weight_agent.sv(179) @ 1777500: uvm_test_top.env.weight_a.mon [WEIGHT_MON] w0[0]=5 w1[0]=5 idx0[0]=1 idx1[0]=2
# KERNEL: UVM_INFO /home/runner/accel_axis_weight_agent.sv(180) @ 1777500: uvm_test_top.env.weight_a.mon [WEIGHT_MON] Weight tile captured
# KERNEL: UVM_INFO /home/runner/accel_scoreboard.sv(149) @ 1777500: uvm_test_top.env.sco [SCO] Weight tile stored â€” queue=1
# KERNEL: UVM_INFO /home/runner/accel_axis_weight_agent.sv(101) @ 1777500: uvm_test_top.env.weight_a.drv [WEIGHT_DRV] Tile complete
# KERNEL: UVM_INFO /home/runner/accel_sequences.sv(89) @ 1777500: uvm_test_top.env.weight_a.seqr@@w_tile_seq [WEIGHT_TILE_SEQ] Weight tile streamed
# KERNEL: UVM_INFO /home/runner/accel_axil_agent.sv(56) @ 1792500: uvm_test_top.env.axil_a.drv [axil_csr_drv] WRITE addr=0x0 data=0x3
# KERNEL: UVM_INFO /home/runner/accel_scoreboard.sv(109) @ 1817500: uvm_test_top.env.sco [SCO] WRITE addr=0x0 data=0x3
# KERNEL: UVM_INFO /home/runner/accel_axil_agent.sv(121) @ 1817500: uvm_test_top.env.axil_a.drv [axil_csr_drv] [CSR] Write Data transaction completed
# KERNEL: UVM_INFO /home/runner/accel_sequences.sv(31) @ 1817500: uvm_test_top.env.axil_a.seqr@@wr_seq [CSR_WRITE_SEQ] Written addr=0x0 data=0x3
# KERNEL: UVM_INFO /home/runner/accel_axis_act_agent.sv(69) @ 1907500: uvm_test_top.env.act_a.drv [ACT_DRV] Beat 1/2 sent mode=DENSE last=0
# KERNEL: UVM_INFO /home/runner/accel_scoreboard.sv(154) @ 1912500: uvm_test_top.env.sco [SCO] Act vector stored â€” queue=1
# KERNEL: UVM_INFO /home/runner/accel_axis_act_agent.sv(143) @ 1912500: uvm_test_top.env.act_a.mon [ACT_MON] Vector captured a0=7 a1=0 a2=0 a3=0 last=0 mode=DENSE
# KERNEL: UVM_INFO /home/runner/accel_axis_act_agent.sv(69) @ 1912500: uvm_test_top.env.act_a.drv [ACT_DRV] Beat 2/2 sent mode=DENSE last=0
# KERNEL: UVM_INFO /home/runner/accel_sequences.sv(115) @ 1912500: uvm_test_top.env.act_a.seqr@@a_stream_seq [ACT_STREAM_SEQ] Activation vector streamed
# KERNEL: UVM_INFO /home/runner/accel_axis_act_agent.sv(69) @ 1917500: uvm_test_top.env.act_a.drv [ACT_DRV] Beat 1/2 sent mode=DENSE last=1
# KERNEL: UVM_INFO /home/runner/accel_scoreboard.sv(154) @ 1922500: uvm_test_top.env.sco [SCO] Act vector stored â€” queue=2
# KERNEL: UVM_INFO /home/runner/accel_axis_act_agent.sv(143) @ 1922500: uvm_test_top.env.act_a.mon [ACT_MON] Vector captured a0=62 a1=85 a2=100 a3=97 last=1 mode=DENSE
# KERNEL: UVM_INFO /home/runner/accel_axis_act_agent.sv(69) @ 1922500: uvm_test_top.env.act_a.drv [ACT_DRV] Beat 2/2 sent mode=DENSE last=1
# KERNEL: UVM_INFO /home/runner/accel_sequences.sv(115) @ 1922500: uvm_test_top.env.act_a.seqr@@a_stream_seq [ACT_STREAM_SEQ] Activation vector streamed
# KERNEL: UVM_INFO /home/runner/accel_axis_result_agent.sv(69) @ 2267500: uvm_test_top.env.result_a.mon [RESULT_MON] Result vector captured â€” last=0
# KERNEL: UVM_INFO /home/runner/accel_scoreboard.sv(174) @ 2267500: uvm_test_top.env.sco [SCO] Computing: w0[0]=5 w1[0]=5 a0=7 a1=0
# KERNEL: UVM_INFO /home/runner/accel_axis_result_agent.sv(69) @ 2287500: uvm_test_top.env.result_a.mon [RESULT_MON] Result vector captured â€” last=1
# KERNEL: UVM_INFO /home/runner/accel_scoreboard.sv(174) @ 2287500: uvm_test_top.env.sco [SCO] Computing: w0[0]=5 w1[0]=5 a0=62 a1=85
# KERNEL: UVM_INFO /home/runner/accel_axil_agent.sv(90) @ 2387500: uvm_test_top.env.axil_a.drv [AXIL_DRV] READ addr=0x30
# KERNEL: UVM_INFO /home/runner/accel_axil_agent.sv(126) @ 2402500: uvm_test_top.env.axil_a.drv [axil_csr_drv] [CSR] Read Data transaction completed
# KERNEL: UVM_INFO /home/runner/accel_axil_agent.sv(90) @ 2407500: uvm_test_top.env.axil_a.drv [AXIL_DRV] READ addr=0x38
# KERNEL: UVM_INFO /home/runner/accel_axil_agent.sv(126) @ 2422500: uvm_test_top.env.axil_a.drv [axil_csr_drv] [CSR] Read Data transaction completed
# KERNEL: Seed 1/16 â€“ Coverage: AXL=85.7% WGT=54.7% ACT=78.8% RES=83.3% FSM=52.4% => AVG=71.0%
# KERNEL: UVM_INFO /home/runner/accel_scoreboard.sv(297) @ 2422500: uvm_test_top.env.sco [SCO] Queues flushed
# KERNEL: UVM_INFO /home/runner/accel_axil_agent.sv(56) @ 2427500: uvm_test_top.env.axil_a.drv [axil_csr_drv] WRITE addr=0x10 data=0x1
# KERNEL: UVM_INFO /home/runner/accel_scoreboard.sv(109) @ 2452500: uvm_test_top.env.sco [SCO] WRITE addr=0x10 data=0x1
# KERNEL: UVM_INFO /home/runner/accel_axil_agent.sv(121) @ 2452500: uvm_test_top.env.axil_a.drv [axil_csr_drv] [CSR] Write Data transaction completed
# KERNEL: UVM_INFO /home/runner/accel_sequences.sv(31) @ 2452500: uvm_test_top.env.axil_a.seqr@@wr_seq [CSR_WRITE_SEQ] Written addr=0x10 data=0x1
# KERNEL: UVM_INFO /home/runner/accel_axil_agent.sv(90) @ 2457500: uvm_test_top.env.axil_a.drv [AXIL_DRV] READ addr=0x10
# KERNEL: UVM_INFO /home/runner/accel_scoreboard.sv(125) @ 2472500: uvm_test_top.env.sco [SCO] PASS addr=0x10 exp=0x1 got=0x1
# KERNEL: UVM_INFO /home/runner/accel_axil_agent.sv(126) @ 2472500: uvm_test_top.env.axil_a.drv [axil_csr_drv] [CSR] Read Data transaction completed
# KERNEL: UVM_INFO /home/runner/accel_axil_agent.sv(56) @ 2477500: uvm_test_top.env.axil_a.drv [axil_csr_drv] WRITE addr=0x0 data=0x1
# KERNEL: UVM_INFO /home/runner/accel_scoreboard.sv(109) @ 2502500: uvm_test_top.env.sco [SCO] WRITE addr=0x0 data=0x1
# KERNEL: UVM_INFO /home/runner/accel_axil_agent.sv(121) @ 2502500: uvm_test_top.env.axil_a.drv [axil_csr_drv] [CSR] Write Data transaction completed
# KERNEL: UVM_INFO /home/runner/accel_sequences.sv(31) @ 2502500: uvm_test_top.env.axil_a.seqr@@wr_seq [CSR_WRITE_SEQ] Written addr=0x0 data=0x1
# KERNEL: UVM_INFO /home/runner/accel_axil_agent.sv(90) @ 2507500: uvm_test_top.env.axil_a.drv [AXIL_DRV] READ addr=0x0
# KERNEL: UVM_INFO /home/runner/accel_scoreboard.sv(125) @ 2522500: uvm_test_top.env.sco [SCO] PASS addr=0x0 exp=0x1 got=0x1
# KERNEL: UVM_INFO /home/runner/accel_axil_agent.sv(126) @ 2522500: uvm_test_top.env.axil_a.drv [axil_csr_drv] [CSR] Read Data transaction completed
# KERNEL: UVM_INFO /home/runner/accel_axil_agent.sv(90) @ 2527500: uvm_test_top.env.axil_a.drv [AXIL_DRV] READ addr=0x4
# KERNEL: UVM_WARNING /home/runner/accel_scoreboard.sv(119) @ 2542500: uvm_test_top.env.sco [SCO] READ addr=0x4 no expected registered
# KERNEL: UVM_INFO /home/runner/accel_axil_agent.sv(126) @ 2542500: uvm_test_top.env.axil_a.drv [axil_csr_drv] [CSR] Read Data transaction completed
# KERNEL: UVM_INFO /home/runner/accel_axil_agent.sv(56) @ 2547500: uvm_test_top.env.axil_a.drv [axil_csr_drv] WRITE addr=0xc data=0x1
# KERNEL: UVM_INFO /home/runner/accel_scoreboard.sv(109) @ 2572500: uvm_test_top.env.sco [SCO] WRITE addr=0xc data=0x1
# KERNEL: UVM_INFO /home/runner/accel_axil_agent.sv(121) @ 2572500: uvm_test_top.env.axil_a.drv [axil_csr_drv] [CSR] Write Data transaction completed
# KERNEL: UVM_INFO /home/runner/accel_sequences.sv(31) @ 2572500: uvm_test_top.env.axil_a.seqr@@wr_seq [CSR_WRITE_SEQ] Written addr=0xc data=0x1
# KERNEL: UVM_INFO /home/runner/accel_axil_agent.sv(56) @ 2577500: uvm_test_top.env.axil_a.drv [axil_csr_drv] WRITE addr=0x8 data=0x10002
# KERNEL: UVM_INFO /home/runner/accel_scoreboard.sv(109) @ 2602500: uvm_test_top.env.sco [SCO] WRITE addr=0x8 data=0x10002
# KERNEL: UVM_INFO /home/runner/accel_axil_agent.sv(121) @ 2602500: uvm_test_top.env.axil_a.drv [axil_csr_drv] [CSR] Write Data transaction completed
# KERNEL: UVM_INFO /home/runner/accel_sequences.sv(31) @ 2602500: uvm_test_top.env.axil_a.seqr@@wr_seq [CSR_WRITE_SEQ] Written addr=0x8 data=0x10002
# KERNEL: UVM_INFO /home/runner/accel_axil_agent.sv(56) @ 2607500: uvm_test_top.env.axil_a.drv [axil_csr_drv] WRITE addr=0xe4 data=0x10000
# KERNEL: UVM_INFO /home/runner/accel_scoreboard.sv(109) @ 2632500: uvm_test_top.env.sco [SCO] WRITE addr=0xe4 data=0x10000
# KERNEL: UVM_INFO /home/runner/accel_axil_agent.sv(121) @ 2632500: uvm_test_top.env.axil_a.drv [axil_csr_drv] [CSR] Write Data transaction completed
# KERNEL: UVM_INFO /home/runner/accel_sequences.sv(31) @ 2632500: uvm_test_top.env.axil_a.seqr@@wr_seq [CSR_WRITE_SEQ] Written addr=0xe4 data=0x10000
# KERNEL: UVM_INFO /home/runner/accel_axis_weight_agent.sv(179) @ 2877500: uvm_test_top.env.weight_a.mon [WEIGHT_MON] w0[0]=0 w1[0]=0 idx0[0]=3 idx1[0]=2
# KERNEL: UVM_INFO /home/runner/accel_axis_weight_agent.sv(180) @ 2877500: uvm_test_top.env.weight_a.mon [WEIGHT_MON] Weight tile captured
# KERNEL: UVM_INFO /home/runner/accel_scoreboard.sv(149) @ 2877500: uvm_test_top.env.sco [SCO] Weight tile stored â€” queue=1
# KERNEL: UVM_INFO /home/runner/accel_axis_weight_agent.sv(101) @ 2877500: uvm_test_top.env.weight_a.drv [WEIGHT_DRV] Tile complete
# KERNEL: UVM_INFO /home/runner/accel_sequences.sv(89) @ 2877500: uvm_test_top.env.weight_a.seqr@@w_tile_seq [WEIGHT_TILE_SEQ] Weight tile streamed
# KERNEL: UVM_INFO /home/runner/accel_axil_agent.sv(56) @ 2892500: uvm_test_top.env.axil_a.drv [axil_csr_drv] WRITE addr=0x0 data=0x3
# KERNEL: UVM_INFO /home/runner/accel_scoreboard.sv(109) @ 2917500: uvm_test_top.env.sco [SCO] WRITE addr=0x0 data=0x3
# KERNEL: UVM_INFO /home/runner/accel_axil_agent.sv(121) @ 2917500: uvm_test_top.env.axil_a.drv [axil_csr_drv] [CSR] Write Data transaction completed
# KERNEL: UVM_INFO /home/runner/accel_sequences.sv(31) @ 2917500: uvm_test_top.env.axil_a.seqr@@wr_seq [CSR_WRITE_SEQ] Written addr=0x0 data=0x3
# KERNEL: UVM_INFO /home/runner/accel_axis_act_agent.sv(69) @ 3007500: uvm_test_top.env.act_a.drv [ACT_DRV] Beat 1/2 sent mode=DENSE last=0
# KERNEL: UVM_INFO /home/runner/accel_scoreboard.sv(154) @ 3012500: uvm_test_top.env.sco [SCO] Act vector stored â€” queue=1
# KERNEL: UVM_INFO /home/runner/accel_axis_act_agent.sv(143) @ 3012500: uvm_test_top.env.act_a.mon [ACT_MON] Vector captured a0=-10 a1=10 a2=-5 a3=5 last=0 mode=DENSE
# KERNEL: UVM_INFO /home/runner/accel_axis_act_agent.sv(69) @ 3012500: uvm_test_top.env.act_a.drv [ACT_DRV] Beat 2/2 sent mode=DENSE last=0
# KERNEL: UVM_INFO /home/runner/accel_sequences.sv(115) @ 3012500: uvm_test_top.env.act_a.seqr@@a_stream_seq [ACT_STREAM_SEQ] Activation vector streamed
# KERNEL: UVM_INFO /home/runner/accel_axis_act_agent.sv(69) @ 3017500: uvm_test_top.env.act_a.drv [ACT_DRV] Beat 1/2 sent mode=DENSE last=1
# KERNEL: UVM_INFO /home/runner/accel_scoreboard.sv(154) @ 3022500: uvm_test_top.env.sco [SCO] Act vector stored â€” queue=2
# KERNEL: UVM_INFO /home/runner/accel_axis_act_agent.sv(143) @ 3022500: uvm_test_top.env.act_a.mon [ACT_MON] Vector captured a0=7 a1=0 a2=0 a3=0 last=1 mode=DENSE
# KERNEL: UVM_INFO /home/runner/accel_axis_act_agent.sv(69) @ 3022500: uvm_test_top.env.act_a.drv [ACT_DRV] Beat 2/2 sent mode=DENSE last=1
# KERNEL: UVM_INFO /home/runner/accel_sequences.sv(115) @ 3022500: uvm_test_top.env.act_a.seqr@@a_stream_seq [ACT_STREAM_SEQ] Activation vector streamed
# KERNEL: UVM_INFO /home/runner/accel_axis_result_agent.sv(69) @ 3367500: uvm_test_top.env.result_a.mon [RESULT_MON] Result vector captured â€” last=0
# KERNEL: UVM_INFO /home/runner/accel_scoreboard.sv(174) @ 3367500: uvm_test_top.env.sco [SCO] Computing: w0[0]=0 w1[0]=0 a0=-10 a1=10
# KERNEL: UVM_INFO /home/runner/accel_axis_result_agent.sv(69) @ 3387500: uvm_test_top.env.result_a.mon [RESULT_MON] Result vector captured â€” last=1
# KERNEL: UVM_INFO /home/runner/accel_scoreboard.sv(174) @ 3387500: uvm_test_top.env.sco [SCO] Computing: w0[0]=0 w1[0]=0 a0=7 a1=0
# KERNEL: UVM_INFO /home/runner/accel_axil_agent.sv(90) @ 3487500: uvm_test_top.env.axil_a.drv [AXIL_DRV] READ addr=0x30
# KERNEL: UVM_INFO /home/runner/accel_axil_agent.sv(126) @ 3502500: uvm_test_top.env.axil_a.drv [axil_csr_drv] [CSR] Read Data transaction completed
# KERNEL: UVM_INFO /home/runner/accel_axil_agent.sv(90) @ 3507500: uvm_test_top.env.axil_a.drv [AXIL_DRV] READ addr=0x38
# KERNEL: UVM_INFO /home/runner/accel_axil_agent.sv(126) @ 3522500: uvm_test_top.env.axil_a.drv [axil_csr_drv] [CSR] Read Data transaction completed
# KERNEL: Seed 2/16 â€“ Coverage: AXL=85.7% WGT=58.6% ACT=78.8% RES=83.3% FSM=52.4% => AVG=71.8%
# KERNEL: UVM_INFO /home/runner/accel_scoreboard.sv(297) @ 3522500: uvm_test_top.env.sco [SCO] Queues flushed
# KERNEL: UVM_INFO /home/runner/accel_axil_agent.sv(56) @ 3527500: uvm_test_top.env.axil_a.drv [axil_csr_drv] WRITE addr=0x10 data=0x0
# KERNEL: UVM_INFO /home/runner/accel_scoreboard.sv(109) @ 3552500: uvm_test_top.env.sco [SCO] WRITE addr=0x10 data=0x0
# KERNEL: UVM_INFO /home/runner/accel_axil_agent.sv(121) @ 3552500: uvm_test_top.env.axil_a.drv [axil_csr_drv] [CSR] Write Data transaction completed
# KERNEL: UVM_INFO /home/runner/accel_sequences.sv(31) @ 3552500: uvm_test_top.env.axil_a.seqr@@wr_seq [CSR_WRITE_SEQ] Written addr=0x10 data=0x0
# KERNEL: UVM_INFO /home/runner/accel_axil_agent.sv(90) @ 3557500: uvm_test_top.env.axil_a.drv [AXIL_DRV] READ addr=0x10
# KERNEL: UVM_INFO /home/runner/accel_scoreboard.sv(125) @ 3572500: uvm_test_top.env.sco [SCO] PASS addr=0x10 exp=0x0 got=0x0
# KERNEL: UVM_INFO /home/runner/accel_axil_agent.sv(126) @ 3572500: uvm_test_top.env.axil_a.drv [axil_csr_drv] [CSR] Read Data transaction completed
# KERNEL: UVM_INFO /home/runner/accel_axil_agent.sv(56) @ 3577500: uvm_test_top.env.axil_a.drv [axil_csr_drv] WRITE addr=0x0 data=0x1
# KERNEL: UVM_INFO /home/runner/accel_scoreboard.sv(109) @ 3602500: uvm_test_top.env.sco [SCO] WRITE addr=0x0 data=0x1
# KERNEL: UVM_INFO /home/runner/accel_axil_agent.sv(121) @ 3602500: uvm_test_top.env.axil_a.drv [axil_csr_drv] [CSR] Write Data transaction completed
# KERNEL: UVM_INFO /home/runner/accel_sequences.sv(31) @ 3602500: uvm_test_top.env.axil_a.seqr@@wr_seq [CSR_WRITE_SEQ] Written addr=0x0 data=0x1
# KERNEL: UVM_INFO /home/runner/accel_axil_agent.sv(90) @ 3607500: uvm_test_top.env.axil_a.drv [AXIL_DRV] READ addr=0x0
# KERNEL: UVM_INFO /home/runner/accel_scoreboard.sv(125) @ 3622500: uvm_test_top.env.sco [SCO] PASS addr=0x0 exp=0x1 got=0x1
# KERNEL: UVM_INFO /home/runner/accel_axil_agent.sv(126) @ 3622500: uvm_test_top.env.axil_a.drv [axil_csr_drv] [CSR] Read Data transaction completed
# KERNEL: UVM_INFO /home/runner/accel_axil_agent.sv(90) @ 3627500: uvm_test_top.env.axil_a.drv [AXIL_DRV] READ addr=0x4
# KERNEL: UVM_WARNING /home/runner/accel_scoreboard.sv(119) @ 3642500: uvm_test_top.env.sco [SCO] READ addr=0x4 no expected registered
# KERNEL: UVM_INFO /home/runner/accel_axil_agent.sv(126) @ 3642500: uvm_test_top.env.axil_a.drv [axil_csr_drv] [CSR] Read Data transaction completed
# KERNEL: UVM_INFO /home/runner/accel_axil_agent.sv(56) @ 3647500: uvm_test_top.env.axil_a.drv [axil_csr_drv] WRITE addr=0xc data=0x1
# KERNEL: UVM_INFO /home/runner/accel_scoreboard.sv(109) @ 3672500: uvm_test_top.env.sco [SCO] WRITE addr=0xc data=0x1
# KERNEL: UVM_INFO /home/runner/accel_axil_agent.sv(121) @ 3672500: uvm_test_top.env.axil_a.drv [axil_csr_drv] [CSR] Write Data transaction completed
# KERNEL: UVM_INFO /home/runner/accel_sequences.sv(31) @ 3672500: uvm_test_top.env.axil_a.seqr@@wr_seq [CSR_WRITE_SEQ] Written addr=0xc data=0x1
# KERNEL: UVM_INFO /home/runner/accel_axil_agent.sv(56) @ 3677500: uvm_test_top.env.axil_a.drv [axil_csr_drv] WRITE addr=0x8 data=0x10002
# KERNEL: UVM_INFO /home/runner/accel_scoreboard.sv(109) @ 3702500: uvm_test_top.env.sco [SCO] WRITE addr=0x8 data=0x10002
# KERNEL: UVM_INFO /home/runner/accel_axil_agent.sv(121) @ 3702500: uvm_test_top.env.axil_a.drv [axil_csr_drv] [CSR] Write Data transaction completed
# KERNEL: UVM_INFO /home/runner/accel_sequences.sv(31) @ 3702500: uvm_test_top.env.axil_a.seqr@@wr_seq [CSR_WRITE_SEQ] Written addr=0x8 data=0x10002
# KERNEL: UVM_INFO /home/runner/accel_axil_agent.sv(56) @ 3707500: uvm_test_top.env.axil_a.drv [axil_csr_drv] WRITE addr=0xe4 data=0x10000
# KERNEL: UVM_INFO /home/runner/accel_scoreboard.sv(109) @ 3732500: uvm_test_top.env.sco [SCO] WRITE addr=0xe4 data=0x10000
# KERNEL: UVM_INFO /home/runner/accel_axil_agent.sv(121) @ 3732500: uvm_test_top.env.axil_a.drv [axil_csr_drv] [CSR] Write Data transaction completed
# KERNEL: UVM_INFO /home/runner/accel_sequences.sv(31) @ 3732500: uvm_test_top.env.axil_a.seqr@@wr_seq [CSR_WRITE_SEQ] Written addr=0xe4 data=0x10000
# KERNEL: UVM_INFO /home/runner/accel_axis_weight_agent.sv(179) @ 3977500: uvm_test_top.env.weight_a.mon [WEIGHT_MON] w0[0]=5 w1[0]=5 idx0[0]=1 idx1[0]=2
# KERNEL: UVM_INFO /home/runner/accel_axis_weight_agent.sv(180) @ 3977500: uvm_test_top.env.weight_a.mon [WEIGHT_MON] Weight tile captured
# KERNEL: UVM_INFO /home/runner/accel_scoreboard.sv(149) @ 3977500: uvm_test_top.env.sco [SCO] Weight tile stored â€” queue=1
# KERNEL: UVM_INFO /home/runner/accel_axis_weight_agent.sv(101) @ 3977500: uvm_test_top.env.weight_a.drv [WEIGHT_DRV] Tile complete
# KERNEL: UVM_INFO /home/runner/accel_sequences.sv(89) @ 3977500: uvm_test_top.env.weight_a.seqr@@w_tile_seq [WEIGHT_TILE_SEQ] Weight tile streamed
# KERNEL: UVM_INFO /home/runner/accel_axil_agent.sv(56) @ 3992500: uvm_test_top.env.axil_a.drv [axil_csr_drv] WRITE addr=0x0 data=0x3
# KERNEL: UVM_INFO /home/runner/accel_scoreboard.sv(109) @ 4017500: uvm_test_top.env.sco [SCO] WRITE addr=0x0 data=0x3
# KERNEL: UVM_INFO /home/runner/accel_axil_agent.sv(121) @ 4017500: uvm_test_top.env.axil_a.drv [axil_csr_drv] [CSR] Write Data transaction completed
# KERNEL: UVM_INFO /home/runner/accel_sequences.sv(31) @ 4017500: uvm_test_top.env.axil_a.seqr@@wr_seq [CSR_WRITE_SEQ] Written addr=0x0 data=0x3
# KERNEL: UVM_INFO /home/runner/accel_axis_act_agent.sv(69) @ 4107500: uvm_test_top.env.act_a.drv [ACT_DRV] Beat 1/2 sent mode=DENSE last=0
# KERNEL: UVM_INFO /home/runner/accel_scoreboard.sv(154) @ 4112500: uvm_test_top.env.sco [SCO] Act vector stored â€” queue=1
# KERNEL: UVM_INFO /home/runner/accel_axis_act_agent.sv(143) @ 4112500: uvm_test_top.env.act_a.mon [ACT_MON] Vector captured a0=-3 a1=-3 a2=-3 a3=-3 last=0 mode=DENSE
# KERNEL: UVM_INFO /home/runner/accel_axis_act_agent.sv(69) @ 4112500: uvm_test_top.env.act_a.drv [ACT_DRV] Beat 2/2 sent mode=DENSE last=0
# KERNEL: UVM_INFO /home/runner/accel_sequences.sv(115) @ 4112500: uvm_test_top.env.act_a.seqr@@a_stream_seq [ACT_STREAM_SEQ] Activation vector streamed
# KERNEL: UVM_INFO /home/runner/accel_axis_act_agent.sv(69) @ 4117500: uvm_test_top.env.act_a.drv [ACT_DRV] Beat 1/2 sent mode=DENSE last=1
# KERNEL: UVM_INFO /home/runner/accel_scoreboard.sv(154) @ 4122500: uvm_test_top.env.sco [SCO] Act vector stored â€” queue=2
# KERNEL: UVM_INFO /home/runner/accel_axis_act_agent.sv(143) @ 4122500: uvm_test_top.env.act_a.mon [ACT_MON] Vector captured a0=26 a1=78 a2=25 a3=76 last=1 mode=DENSE
# KERNEL: UVM_INFO /home/runner/accel_axis_act_agent.sv(69) @ 4122500: uvm_test_top.env.act_a.drv [ACT_DRV] Beat 2/2 sent mode=DENSE last=1
# KERNEL: UVM_INFO /home/runner/accel_sequences.sv(115) @ 4122500: uvm_test_top.env.act_a.seqr@@a_stream_seq [ACT_STREAM_SEQ] Activation vector streamed
# KERNEL: UVM_INFO /home/runner/accel_axis_result_agent.sv(69) @ 4467500: uvm_test_top.env.result_a.mon [RESULT_MON] Result vector captured â€” last=0
# KERNEL: UVM_INFO /home/runner/accel_scoreboard.sv(174) @ 4467500: uvm_test_top.env.sco [SCO] Computing: w0[0]=5 w1[0]=5 a0=-3 a1=-3
# KERNEL: UVM_INFO /home/runner/accel_axis_result_agent.sv(69) @ 4487500: uvm_test_top.env.result_a.mon [RESULT_MON] Result vector captured â€” last=1
# KERNEL: UVM_INFO /home/runner/accel_scoreboard.sv(174) @ 4487500: uvm_test_top.env.sco [SCO] Computing: w0[0]=5 w1[0]=5 a0=26 a1=78
# KERNEL: UVM_INFO /home/runner/accel_axil_agent.sv(90) @ 4587500: uvm_test_top.env.axil_a.drv [AXIL_DRV] READ addr=0x30
# KERNEL: UVM_INFO /home/runner/accel_axil_agent.sv(126) @ 4602500: uvm_test_top.env.axil_a.drv [axil_csr_drv] [CSR] Read Data transaction completed
# KERNEL: UVM_INFO /home/runner/accel_axil_agent.sv(90) @ 4607500: uvm_test_top.env.axil_a.drv [AXIL_DRV] READ addr=0x38
# KERNEL: UVM_INFO /home/runner/accel_axil_agent.sv(126) @ 4622500: uvm_test_top.env.axil_a.drv [axil_csr_drv] [CSR] Read Data transaction completed
# KERNEL: Seed 3/16 â€“ Coverage: AXL=85.7% WGT=62.5% ACT=82.7% RES=95.8% FSM=52.4% => AVG=75.8%
# KERNEL: UVM_INFO /home/runner/accel_scoreboard.sv(297) @ 4622500: uvm_test_top.env.sco [SCO] Queues flushed
# KERNEL: UVM_INFO /home/runner/accel_axil_agent.sv(56) @ 4627500: uvm_test_top.env.axil_a.drv [axil_csr_drv] WRITE addr=0x10 data=0x1
# KERNEL: UVM_INFO /home/runner/accel_scoreboard.sv(109) @ 4652500: uvm_test_top.env.sco [SCO] WRITE addr=0x10 data=0x1
# KERNEL: UVM_INFO /home/runner/accel_axil_agent.sv(121) @ 4652500: uvm_test_top.env.axil_a.drv [axil_csr_drv] [CSR] Write Data transaction completed
# KERNEL: UVM_INFO /home/runner/accel_sequences.sv(31) @ 4652500: uvm_test_top.env.axil_a.seqr@@wr_seq [CSR_WRITE_SEQ] Written addr=0x10 data=0x1
# KERNEL: UVM_INFO /home/runner/accel_axil_agent.sv(90) @ 4657500: uvm_test_top.env.axil_a.drv [AXIL_DRV] READ addr=0x10
# KERNEL: UVM_INFO /home/runner/accel_scoreboard.sv(125) @ 4672500: uvm_test_top.env.sco [SCO] PASS addr=0x10 exp=0x1 got=0x1
# KERNEL: UVM_INFO /home/runner/accel_axil_agent.sv(126) @ 4672500: uvm_test_top.env.axil_a.drv [axil_csr_drv] [CSR] Read Data transaction completed
# KERNEL: UVM_INFO /home/runner/accel_axil_agent.sv(56) @ 4677500: uvm_test_top.env.axil_a.drv [axil_csr_drv] WRITE addr=0x0 data=0x1
# KERNEL: UVM_INFO /home/runner/accel_scoreboard.sv(109) @ 4702500: uvm_test_top.env.sco [SCO] WRITE addr=0x0 data=0x1
# KERNEL: UVM_INFO /home/runner/accel_axil_agent.sv(121) @ 4702500: uvm_test_top.env.axil_a.drv [axil_csr_drv] [CSR] Write Data transaction completed
# KERNEL: UVM_INFO /home/runner/accel_sequences.sv(31) @ 4702500: uvm_test_top.env.axil_a.seqr@@wr_seq [CSR_WRITE_SEQ] Written addr=0x0 data=0x1
# KERNEL: UVM_INFO /home/runner/accel_axil_agent.sv(90) @ 4707500: uvm_test_top.env.axil_a.drv [AXIL_DRV] READ addr=0x0
# KERNEL: UVM_INFO /home/runner/accel_scoreboard.sv(125) @ 4722500: uvm_test_top.env.sco [SCO] PASS addr=0x0 exp=0x1 got=0x1
# KERNEL: UVM_INFO /home/runner/accel_axil_agent.sv(126) @ 4722500: uvm_test_top.env.axil_a.drv [axil_csr_drv] [CSR] Read Data transaction completed
# KERNEL: UVM_INFO /home/runner/accel_axil_agent.sv(90) @ 4727500: uvm_test_top.env.axil_a.drv [AXIL_DRV] READ addr=0x4
# KERNEL: UVM_WARNING /home/runner/accel_scoreboard.sv(119) @ 4742500: uvm_test_top.env.sco [SCO] READ addr=0x4 no expected registered
# KERNEL: UVM_INFO /home/runner/accel_axil_agent.sv(126) @ 4742500: uvm_test_top.env.axil_a.drv [axil_csr_drv] [CSR] Read Data transaction completed
# KERNEL: UVM_INFO /home/runner/accel_axil_agent.sv(56) @ 4747500: uvm_test_top.env.axil_a.drv [axil_csr_drv] WRITE addr=0xc data=0x2
# KERNEL: UVM_INFO /home/runner/accel_scoreboard.sv(109) @ 4772500: uvm_test_top.env.sco [SCO] WRITE addr=0xc data=0x2
# KERNEL: UVM_INFO /home/runner/accel_axil_agent.sv(121) @ 4772500: uvm_test_top.env.axil_a.drv [axil_csr_drv] [CSR] Write Data transaction completed
# KERNEL: UVM_INFO /home/runner/accel_sequences.sv(31) @ 4772500: uvm_test_top.env.axil_a.seqr@@wr_seq [CSR_WRITE_SEQ] Written addr=0xc data=0x2
# KERNEL: UVM_INFO /home/runner/accel_axil_agent.sv(56) @ 4777500: uvm_test_top.env.axil_a.drv [axil_csr_drv] WRITE addr=0x8 data=0x10002
# KERNEL: UVM_INFO /home/runner/accel_scoreboard.sv(109) @ 4802500: uvm_test_top.env.sco [SCO] WRITE addr=0x8 data=0x10002
# KERNEL: UVM_INFO /home/runner/accel_axil_agent.sv(121) @ 4802500: uvm_test_top.env.axil_a.drv [axil_csr_drv] [CSR] Write Data transaction completed
# KERNEL: UVM_INFO /home/runner/accel_sequences.sv(31) @ 4802500: uvm_test_top.env.axil_a.seqr@@wr_seq [CSR_WRITE_SEQ] Written addr=0x8 data=0x10002
# KERNEL: UVM_INFO /home/runner/accel_axil_agent.sv(56) @ 4807500: uvm_test_top.env.axil_a.drv [axil_csr_drv] WRITE addr=0xe4 data=0x10000
# KERNEL: UVM_INFO /home/runner/accel_scoreboard.sv(109) @ 4832500: uvm_test_top.env.sco [SCO] WRITE addr=0xe4 data=0x10000
# KERNEL: UVM_INFO /home/runner/accel_axil_agent.sv(121) @ 4832500: uvm_test_top.env.axil_a.drv [axil_csr_drv] [CSR] Write Data transaction completed
# KERNEL: UVM_INFO /home/runner/accel_sequences.sv(31) @ 4832500: uvm_test_top.env.axil_a.seqr@@wr_seq [CSR_WRITE_SEQ] Written addr=0xe4 data=0x10000
# KERNEL: UVM_INFO /home/runner/accel_axis_weight_agent.sv(179) @ 5077500: uvm_test_top.env.weight_a.mon [WEIGHT_MON] w0[0]=0 w1[0]=0 idx0[0]=3 idx1[0]=2
# KERNEL: UVM_INFO /home/runner/accel_axis_weight_agent.sv(180) @ 5077500: uvm_test_top.env.weight_a.mon [WEIGHT_MON] Weight tile captured
# KERNEL: UVM_INFO /home/runner/accel_scoreboard.sv(149) @ 5077500: uvm_test_top.env.sco [SCO] Weight tile stored â€” queue=1
# KERNEL: UVM_INFO /home/runner/accel_axis_weight_agent.sv(101) @ 5077500: uvm_test_top.env.weight_a.drv [WEIGHT_DRV] Tile complete
# KERNEL: UVM_INFO /home/runner/accel_sequences.sv(89) @ 5077500: uvm_test_top.env.weight_a.seqr@@w_tile_seq [WEIGHT_TILE_SEQ] Weight tile streamed
# KERNEL: UVM_INFO /home/runner/accel_axil_agent.sv(56) @ 5092500: uvm_test_top.env.axil_a.drv [axil_csr_drv] WRITE addr=0x0 data=0x3
# KERNEL: UVM_INFO /home/runner/accel_scoreboard.sv(109) @ 5117500: uvm_test_top.env.sco [SCO] WRITE addr=0x0 data=0x3
# KERNEL: UVM_INFO /home/runner/accel_axil_agent.sv(121) @ 5117500: uvm_test_top.env.axil_a.drv [axil_csr_drv] [CSR] Write Data transaction completed
# KERNEL: UVM_INFO /home/runner/accel_sequences.sv(31) @ 5117500: uvm_test_top.env.axil_a.seqr@@wr_seq [CSR_WRITE_SEQ] Written addr=0x0 data=0x3
# KERNEL: UVM_INFO /home/runner/accel_scoreboard.sv(154) @ 5207500: uvm_test_top.env.sco [SCO] Act vector stored â€” queue=1
# KERNEL: UVM_INFO /home/runner/accel_axis_act_agent.sv(143) @ 5207500: uvm_test_top.env.act_a.mon [ACT_MON] Vector captured a0=-10 a1=10 a2=-5 a3=5 last=0 mode=SPARSE
# KERNEL: UVM_INFO /home/runner/accel_axis_act_agent.sv(69) @ 5207500: uvm_test_top.env.act_a.drv [ACT_DRV] Beat 1/1 sent mode=SPARSE last=0
# KERNEL: UVM_INFO /home/runner/accel_sequences.sv(115) @ 5207500: uvm_test_top.env.act_a.seqr@@a_stream_seq [ACT_STREAM_SEQ] Activation vector streamed
# KERNEL: UVM_INFO /home/runner/accel_scoreboard.sv(154) @ 5212500: uvm_test_top.env.sco [SCO] Act vector stored â€” queue=2
# KERNEL: UVM_INFO /home/runner/accel_axis_act_agent.sv(143) @ 5212500: uvm_test_top.env.act_a.mon [ACT_MON] Vector captured a0=7 a1=0 a2=0 a3=0 last=1 mode=SPARSE
# KERNEL: UVM_INFO /home/runner/accel_axis_act_agent.sv(69) @ 5212500: uvm_test_top.env.act_a.drv [ACT_DRV] Beat 1/1 sent mode=SPARSE last=1
# KERNEL: UVM_INFO /home/runner/accel_sequences.sv(115) @ 5212500: uvm_test_top.env.act_a.seqr@@a_stream_seq [ACT_STREAM_SEQ] Activation vector streamed
# KERNEL: UVM_INFO /home/runner/accel_axis_result_agent.sv(69) @ 5562500: uvm_test_top.env.result_a.mon [RESULT_MON] Result vector captured â€” last=0
# KERNEL: UVM_INFO /home/runner/accel_scoreboard.sv(174) @ 5562500: uvm_test_top.env.sco [SCO] Computing: w0[0]=0 w1[0]=0 a0=-10 a1=10
# KERNEL: UVM_INFO /home/runner/accel_axis_result_agent.sv(69) @ 5582500: uvm_test_top.env.result_a.mon [RESULT_MON] Result vector captured â€” last=1
# KERNEL: UVM_INFO /home/runner/accel_scoreboard.sv(174) @ 5582500: uvm_test_top.env.sco [SCO] Computing: w0[0]=0 w1[0]=0 a0=7 a1=0
# KERNEL: UVM_INFO /home/runner/accel_axil_agent.sv(90) @ 5677500: uvm_test_top.env.axil_a.drv [AXIL_DRV] READ addr=0x30
# KERNEL: UVM_INFO /home/runner/accel_axil_agent.sv(126) @ 5692500: uvm_test_top.env.axil_a.drv [axil_csr_drv] [CSR] Read Data transaction completed
# KERNEL: UVM_INFO /home/runner/accel_axil_agent.sv(90) @ 5697500: uvm_test_top.env.axil_a.drv [AXIL_DRV] READ addr=0x38
# KERNEL: UVM_INFO /home/runner/accel_axil_agent.sv(126) @ 5712500: uvm_test_top.env.axil_a.drv [axil_csr_drv] [CSR] Read Data transaction completed
# KERNEL: Seed 4/16 â€“ Coverage: AXL=85.7% WGT=69.5% ACT=96.2% RES=95.8% FSM=81.0% => AVG=85.6%
# KERNEL: UVM_INFO /home/runner/accel_scoreboard.sv(297) @ 5712500: uvm_test_top.env.sco [SCO] Queues flushed
# KERNEL: UVM_INFO /home/runner/accel_axil_agent.sv(56) @ 5717500: uvm_test_top.env.axil_a.drv [axil_csr_drv] WRITE addr=0x10 data=0x0
# KERNEL: UVM_INFO /home/runner/accel_scoreboard.sv(109) @ 5742500: uvm_test_top.env.sco [SCO] WRITE addr=0x10 data=0x0
# KERNEL: UVM_INFO /home/runner/accel_axil_agent.sv(121) @ 5742500: uvm_test_top.env.axil_a.drv [axil_csr_drv] [CSR] Write Data transaction completed
# KERNEL: UVM_INFO /home/runner/accel_sequences.sv(31) @ 5742500: uvm_test_top.env.axil_a.seqr@@wr_seq [CSR_WRITE_SEQ] Written addr=0x10 data=0x0
# KERNEL: UVM_INFO /home/runner/accel_axil_agent.sv(90) @ 5747500: uvm_test_top.env.axil_a.drv [AXIL_DRV] READ addr=0x10
# KERNEL: UVM_INFO /home/runner/accel_scoreboard.sv(125) @ 5762500: uvm_test_top.env.sco [SCO] PASS addr=0x10 exp=0x0 got=0x0
# KERNEL: UVM_INFO /home/runner/accel_axil_agent.sv(126) @ 5762500: uvm_test_top.env.axil_a.drv [axil_csr_drv] [CSR] Read Data transaction completed
# KERNEL: UVM_INFO /home/runner/accel_axil_agent.sv(56) @ 5767500: uvm_test_top.env.axil_a.drv [axil_csr_drv] WRITE addr=0x0 data=0x1
# KERNEL: UVM_INFO /home/runner/accel_scoreboard.sv(109) @ 5792500: uvm_test_top.env.sco [SCO] WRITE addr=0x0 data=0x1
# KERNEL: UVM_INFO /home/runner/accel_axil_agent.sv(121) @ 5792500: uvm_test_top.env.axil_a.drv [axil_csr_drv] [CSR] Write Data transaction completed
# KERNEL: UVM_INFO /home/runner/accel_sequences.sv(31) @ 5792500: uvm_test_top.env.axil_a.seqr@@wr_seq [CSR_WRITE_SEQ] Written addr=0x0 data=0x1
# KERNEL: UVM_INFO /home/runner/accel_axil_agent.sv(90) @ 5797500: uvm_test_top.env.axil_a.drv [AXIL_DRV] READ addr=0x0
# KERNEL: UVM_INFO /home/runner/accel_scoreboard.sv(125) @ 5812500: uvm_test_top.env.sco [SCO] PASS addr=0x0 exp=0x1 got=0x1
# KERNEL: UVM_INFO /home/runner/accel_axil_agent.sv(126) @ 5812500: uvm_test_top.env.axil_a.drv [axil_csr_drv] [CSR] Read Data transaction completed
# KERNEL: UVM_INFO /home/runner/accel_axil_agent.sv(90) @ 5817500: uvm_test_top.env.axil_a.drv [AXIL_DRV] READ addr=0x4
# KERNEL: UVM_WARNING /home/runner/accel_scoreboard.sv(119) @ 5832500: uvm_test_top.env.sco [SCO] READ addr=0x4 no expected registered
# KERNEL: UVM_INFO /home/runner/accel_axil_agent.sv(126) @ 5832500: uvm_test_top.env.axil_a.drv [axil_csr_drv] [CSR] Read Data transaction completed
# KERNEL: UVM_INFO /home/runner/accel_axil_agent.sv(56) @ 5837500: uvm_test_top.env.axil_a.drv [axil_csr_drv] WRITE addr=0xc data=0x2
# KERNEL: UVM_INFO /home/runner/accel_scoreboard.sv(109) @ 5862500: uvm_test_top.env.sco [SCO] WRITE addr=0xc data=0x2
# KERNEL: UVM_INFO /home/runner/accel_axil_agent.sv(121) @ 5862500: uvm_test_top.env.axil_a.drv [axil_csr_drv] [CSR] Write Data transaction completed
# KERNEL: UVM_INFO /home/runner/accel_sequences.sv(31) @ 5862500: uvm_test_top.env.axil_a.seqr@@wr_seq [CSR_WRITE_SEQ] Written addr=0xc data=0x2
# KERNEL: UVM_INFO /home/runner/accel_axil_agent.sv(56) @ 5867500: uvm_test_top.env.axil_a.drv [axil_csr_drv] WRITE addr=0x8 data=0x10002
# KERNEL: UVM_INFO /home/runner/accel_scoreboard.sv(109) @ 5892500: uvm_test_top.env.sco [SCO] WRITE addr=0x8 data=0x10002
# KERNEL: UVM_INFO /home/runner/accel_axil_agent.sv(121) @ 5892500: uvm_test_top.env.axil_a.drv [axil_csr_drv] [CSR] Write Data transaction completed
# KERNEL: UVM_INFO /home/runner/accel_sequences.sv(31) @ 5892500: uvm_test_top.env.axil_a.seqr@@wr_seq [CSR_WRITE_SEQ] Written addr=0x8 data=0x10002
# KERNEL: UVM_INFO /home/runner/accel_axil_agent.sv(56) @ 5897500: uvm_test_top.env.axil_a.drv [axil_csr_drv] WRITE addr=0xe4 data=0x10000
# KERNEL: UVM_INFO /home/runner/accel_scoreboard.sv(109) @ 5922500: uvm_test_top.env.sco [SCO] WRITE addr=0xe4 data=0x10000
# KERNEL: UVM_INFO /home/runner/accel_axil_agent.sv(121) @ 5922500: uvm_test_top.env.axil_a.drv [axil_csr_drv] [CSR] Write Data transaction completed
# KERNEL: UVM_INFO /home/runner/accel_sequences.sv(31) @ 5922500: uvm_test_top.env.axil_a.seqr@@wr_seq [CSR_WRITE_SEQ] Written addr=0xe4 data=0x10000
# KERNEL: UVM_INFO /home/runner/accel_axis_weight_agent.sv(179) @ 6167500: uvm_test_top.env.weight_a.mon [WEIGHT_MON] w0[0]=5 w1[0]=5 idx0[0]=1 idx1[0]=2
# KERNEL: UVM_INFO /home/runner/accel_axis_weight_agent.sv(180) @ 6167500: uvm_test_top.env.weight_a.mon [WEIGHT_MON] Weight tile captured
# KERNEL: UVM_INFO /home/runner/accel_scoreboard.sv(149) @ 6167500: uvm_test_top.env.sco [SCO] Weight tile stored â€” queue=1
# KERNEL: UVM_INFO /home/runner/accel_axis_weight_agent.sv(101) @ 6167500: uvm_test_top.env.weight_a.drv [WEIGHT_DRV] Tile complete
# KERNEL: UVM_INFO /home/runner/accel_sequences.sv(89) @ 6167500: uvm_test_top.env.weight_a.seqr@@w_tile_seq [WEIGHT_TILE_SEQ] Weight tile streamed
# KERNEL: UVM_INFO /home/runner/accel_axil_agent.sv(56) @ 6182500: uvm_test_top.env.axil_a.drv [axil_csr_drv] WRITE addr=0x0 data=0x3
# KERNEL: UVM_INFO /home/runner/accel_scoreboard.sv(109) @ 6207500: uvm_test_top.env.sco [SCO] WRITE addr=0x0 data=0x3
# KERNEL: UVM_INFO /home/runner/accel_axil_agent.sv(121) @ 6207500: uvm_test_top.env.axil_a.drv [axil_csr_drv] [CSR] Write Data transaction completed
# KERNEL: UVM_INFO /home/runner/accel_sequences.sv(31) @ 6207500: uvm_test_top.env.axil_a.seqr@@wr_seq [CSR_WRITE_SEQ] Written addr=0x0 data=0x3
# KERNEL: UVM_INFO /home/runner/accel_scoreboard.sv(154) @ 6297500: uvm_test_top.env.sco [SCO] Act vector stored â€” queue=1
# KERNEL: UVM_INFO /home/runner/accel_axis_act_agent.sv(143) @ 6297500: uvm_test_top.env.act_a.mon [ACT_MON] Vector captured a0=7 a1=0 a2=0 a3=0 last=0 mode=SPARSE
# KERNEL: UVM_INFO /home/runner/accel_axis_act_agent.sv(69) @ 6297500: uvm_test_top.env.act_a.drv [ACT_DRV] Beat 1/1 sent mode=SPARSE last=0
# KERNEL: UVM_INFO /home/runner/accel_sequences.sv(115) @ 6297500: uvm_test_top.env.act_a.seqr@@a_stream_seq [ACT_STREAM_SEQ] Activation vector streamed
# KERNEL: UVM_INFO /home/runner/accel_scoreboard.sv(154) @ 6302500: uvm_test_top.env.sco [SCO] Act vector stored â€” queue=2
# KERNEL: UVM_INFO /home/runner/accel_axis_act_agent.sv(143) @ 6302500: uvm_test_top.env.act_a.mon [ACT_MON] Vector captured a0=71 a1=87 a2=23 a3=71 last=1 mode=SPARSE
# KERNEL: UVM_INFO /home/runner/accel_axis_act_agent.sv(69) @ 6302500: uvm_test_top.env.act_a.drv [ACT_DRV] Beat 1/1 sent mode=SPARSE last=1
# KERNEL: UVM_INFO /home/runner/accel_sequences.sv(115) @ 6302500: uvm_test_top.env.act_a.seqr@@a_stream_seq [ACT_STREAM_SEQ] Activation vector streamed
# KERNEL: UVM_INFO /home/runner/accel_axis_result_agent.sv(69) @ 6652500: uvm_test_top.env.result_a.mon [RESULT_MON] Result vector captured â€” last=0
# KERNEL: UVM_INFO /home/runner/accel_scoreboard.sv(174) @ 6652500: uvm_test_top.env.sco [SCO] Computing: w0[0]=5 w1[0]=5 a0=7 a1=0
# KERNEL: UVM_INFO /home/runner/accel_axis_result_agent.sv(69) @ 6672500: uvm_test_top.env.result_a.mon [RESULT_MON] Result vector captured â€” last=1
# KERNEL: UVM_INFO /home/runner/accel_scoreboard.sv(174) @ 6672500: uvm_test_top.env.sco [SCO] Computing: w0[0]=5 w1[0]=5 a0=71 a1=87
# KERNEL: UVM_INFO /home/runner/accel_axil_agent.sv(90) @ 6767500: uvm_test_top.env.axil_a.drv [AXIL_DRV] READ addr=0x30
# KERNEL: UVM_INFO /home/runner/accel_axil_agent.sv(126) @ 6782500: uvm_test_top.env.axil_a.drv [axil_csr_drv] [CSR] Read Data transaction completed
# KERNEL: UVM_INFO /home/runner/accel_axil_agent.sv(90) @ 6787500: uvm_test_top.env.axil_a.drv [AXIL_DRV] READ addr=0x38
# KERNEL: UVM_INFO /home/runner/accel_axil_agent.sv(126) @ 6802500: uvm_test_top.env.axil_a.drv [axil_csr_drv] [CSR] Read Data transaction completed
# KERNEL: Seed 5/16 â€“ Coverage: AXL=85.7% WGT=73.4% ACT=96.2% RES=95.8% FSM=81.0% => AVG=86.4%
# KERNEL: UVM_INFO /home/runner/accel_scoreboard.sv(297) @ 6802500: uvm_test_top.env.sco [SCO] Queues flushed
# KERNEL: UVM_INFO /home/runner/accel_axil_agent.sv(56) @ 6807500: uvm_test_top.env.axil_a.drv [axil_csr_drv] WRITE addr=0x10 data=0x1
# KERNEL: UVM_INFO /home/runner/accel_scoreboard.sv(109) @ 6832500: uvm_test_top.env.sco [SCO] WRITE addr=0x10 data=0x1
# KERNEL: UVM_INFO /home/runner/accel_axil_agent.sv(121) @ 6832500: uvm_test_top.env.axil_a.drv [axil_csr_drv] [CSR] Write Data transaction completed
# KERNEL: UVM_INFO /home/runner/accel_sequences.sv(31) @ 6832500: uvm_test_top.env.axil_a.seqr@@wr_seq [CSR_WRITE_SEQ] Written addr=0x10 data=0x1
# KERNEL: UVM_INFO /home/runner/accel_axil_agent.sv(90) @ 6837500: uvm_test_top.env.axil_a.drv [AXIL_DRV] READ addr=0x10
# KERNEL: UVM_INFO /home/runner/accel_scoreboard.sv(125) @ 6852500: uvm_test_top.env.sco [SCO] PASS addr=0x10 exp=0x1 got=0x1
# KERNEL: UVM_INFO /home/runner/accel_axil_agent.sv(126) @ 6852500: uvm_test_top.env.axil_a.drv [axil_csr_drv] [CSR] Read Data transaction completed
# KERNEL: UVM_INFO /home/runner/accel_axil_agent.sv(56) @ 6857500: uvm_test_top.env.axil_a.drv [axil_csr_drv] WRITE addr=0x0 data=0x1
# KERNEL: UVM_INFO /home/runner/accel_scoreboard.sv(109) @ 6882500: uvm_test_top.env.sco [SCO] WRITE addr=0x0 data=0x1
# KERNEL: UVM_INFO /home/runner/accel_axil_agent.sv(121) @ 6882500: uvm_test_top.env.axil_a.drv [axil_csr_drv] [CSR] Write Data transaction completed
# KERNEL: UVM_INFO /home/runner/accel_sequences.sv(31) @ 6882500: uvm_test_top.env.axil_a.seqr@@wr_seq [CSR_WRITE_SEQ] Written addr=0x0 data=0x1
# KERNEL: UVM_INFO /home/runner/accel_axil_agent.sv(90) @ 6887500: uvm_test_top.env.axil_a.drv [AXIL_DRV] READ addr=0x0
# KERNEL: UVM_INFO /home/runner/accel_scoreboard.sv(125) @ 6902500: uvm_test_top.env.sco [SCO] PASS addr=0x0 exp=0x1 got=0x1
# KERNEL: UVM_INFO /home/runner/accel_axil_agent.sv(126) @ 6902500: uvm_test_top.env.axil_a.drv [axil_csr_drv] [CSR] Read Data transaction completed
# KERNEL: UVM_INFO /home/runner/accel_axil_agent.sv(90) @ 6907500: uvm_test_top.env.axil_a.drv [AXIL_DRV] READ addr=0x4
# KERNEL: UVM_WARNING /home/runner/accel_scoreboard.sv(119) @ 6922500: uvm_test_top.env.sco [SCO] READ addr=0x4 no expected registered
# KERNEL: UVM_INFO /home/runner/accel_axil_agent.sv(126) @ 6922500: uvm_test_top.env.axil_a.drv [axil_csr_drv] [CSR] Read Data transaction completed
# KERNEL: UVM_INFO /home/runner/accel_axil_agent.sv(56) @ 6927500: uvm_test_top.env.axil_a.drv [axil_csr_drv] WRITE addr=0xc data=0x2
# KERNEL: UVM_INFO /home/runner/accel_scoreboard.sv(109) @ 6952500: uvm_test_top.env.sco [SCO] WRITE addr=0xc data=0x2
# KERNEL: UVM_INFO /home/runner/accel_axil_agent.sv(121) @ 6952500: uvm_test_top.env.axil_a.drv [axil_csr_drv] [CSR] Write Data transaction completed
# KERNEL: UVM_INFO /home/runner/accel_sequences.sv(31) @ 6952500: uvm_test_top.env.axil_a.seqr@@wr_seq [CSR_WRITE_SEQ] Written addr=0xc data=0x2
# KERNEL: UVM_INFO /home/runner/accel_axil_agent.sv(56) @ 6957500: uvm_test_top.env.axil_a.drv [axil_csr_drv] WRITE addr=0x8 data=0x10002
# KERNEL: UVM_INFO /home/runner/accel_scoreboard.sv(109) @ 6982500: uvm_test_top.env.sco [SCO] WRITE addr=0x8 data=0x10002
# KERNEL: UVM_INFO /home/runner/accel_axil_agent.sv(121) @ 6982500: uvm_test_top.env.axil_a.drv [axil_csr_drv] [CSR] Write Data transaction completed
# KERNEL: UVM_INFO /home/runner/accel_sequences.sv(31) @ 6982500: uvm_test_top.env.axil_a.seqr@@wr_seq [CSR_WRITE_SEQ] Written addr=0x8 data=0x10002
# KERNEL: UVM_INFO /home/runner/accel_axil_agent.sv(56) @ 6987500: uvm_test_top.env.axil_a.drv [axil_csr_drv] WRITE addr=0xe4 data=0x10000
# KERNEL: UVM_INFO /home/runner/accel_scoreboard.sv(109) @ 7012500: uvm_test_top.env.sco [SCO] WRITE addr=0xe4 data=0x10000
# KERNEL: UVM_INFO /home/runner/accel_axil_agent.sv(121) @ 7012500: uvm_test_top.env.axil_a.drv [axil_csr_drv] [CSR] Write Data transaction completed
# KERNEL: UVM_INFO /home/runner/accel_sequences.sv(31) @ 7012500: uvm_test_top.env.axil_a.seqr@@wr_seq [CSR_WRITE_SEQ] Written addr=0xe4 data=0x10000
# KERNEL: UVM_INFO /home/runner/accel_axis_weight_agent.sv(179) @ 7257500: uvm_test_top.env.weight_a.mon [WEIGHT_MON] w0[0]=0 w1[0]=0 idx0[0]=3 idx1[0]=2
# KERNEL: UVM_INFO /home/runner/accel_axis_weight_agent.sv(180) @ 7257500: uvm_test_top.env.weight_a.mon [WEIGHT_MON] Weight tile captured
# KERNEL: UVM_INFO /home/runner/accel_scoreboard.sv(149) @ 7257500: uvm_test_top.env.sco [SCO] Weight tile stored â€” queue=1
# KERNEL: UVM_INFO /home/runner/accel_axis_weight_agent.sv(101) @ 7257500: uvm_test_top.env.weight_a.drv [WEIGHT_DRV] Tile complete
# KERNEL: UVM_INFO /home/runner/accel_sequences.sv(89) @ 7257500: uvm_test_top.env.weight_a.seqr@@w_tile_seq [WEIGHT_TILE_SEQ] Weight tile streamed
# KERNEL: UVM_INFO /home/runner/accel_axil_agent.sv(56) @ 7272500: uvm_test_top.env.axil_a.drv [axil_csr_drv] WRITE addr=0x0 data=0x3
# KERNEL: UVM_INFO /home/runner/accel_scoreboard.sv(109) @ 7297500: uvm_test_top.env.sco [SCO] WRITE addr=0x0 data=0x3
# KERNEL: UVM_INFO /home/runner/accel_axil_agent.sv(121) @ 7297500: uvm_test_top.env.axil_a.drv [axil_csr_drv] [CSR] Write Data transaction completed
# KERNEL: UVM_INFO /home/runner/accel_sequences.sv(31) @ 7297500: uvm_test_top.env.axil_a.seqr@@wr_seq [CSR_WRITE_SEQ] Written addr=0x0 data=0x3
# KERNEL: UVM_INFO /home/runner/accel_scoreboard.sv(154) @ 7387500: uvm_test_top.env.sco [SCO] Act vector stored â€” queue=1
# KERNEL: UVM_INFO /home/runner/accel_axis_act_agent.sv(143) @ 7387500: uvm_test_top.env.act_a.mon [ACT_MON] Vector captured a0=7 a1=0 a2=0 a3=0 last=0 mode=SPARSE
# KERNEL: UVM_INFO /home/runner/accel_axis_act_agent.sv(69) @ 7387500: uvm_test_top.env.act_a.drv [ACT_DRV] Beat 1/1 sent mode=SPARSE last=0
# KERNEL: UVM_INFO /home/runner/accel_sequences.sv(115) @ 7387500: uvm_test_top.env.act_a.seqr@@a_stream_seq [ACT_STREAM_SEQ] Activation vector streamed
# KERNEL: UVM_INFO /home/runner/accel_scoreboard.sv(154) @ 7392500: uvm_test_top.env.sco [SCO] Act vector stored â€” queue=2
# KERNEL: UVM_INFO /home/runner/accel_axis_act_agent.sv(143) @ 7392500: uvm_test_top.env.act_a.mon [ACT_MON] Vector captured a0=7 a1=0 a2=0 a3=0 last=1 mode=SPARSE
# KERNEL: UVM_INFO /home/runner/accel_axis_act_agent.sv(69) @ 7392500: uvm_test_top.env.act_a.drv [ACT_DRV] Beat 1/1 sent mode=SPARSE last=1
# KERNEL: UVM_INFO /home/runner/accel_sequences.sv(115) @ 7392500: uvm_test_top.env.act_a.seqr@@a_stream_seq [ACT_STREAM_SEQ] Activation vector streamed
# KERNEL: UVM_INFO /home/runner/accel_axis_result_agent.sv(69) @ 7742500: uvm_test_top.env.result_a.mon [RESULT_MON] Result vector captured â€” last=0
# KERNEL: UVM_INFO /home/runner/accel_scoreboard.sv(174) @ 7742500: uvm_test_top.env.sco [SCO] Computing: w0[0]=0 w1[0]=0 a0=7 a1=0
# KERNEL: UVM_INFO /home/runner/accel_axis_result_agent.sv(69) @ 7762500: uvm_test_top.env.result_a.mon [RESULT_MON] Result vector captured â€” last=1
# KERNEL: UVM_INFO /home/runner/accel_scoreboard.sv(174) @ 7762500: uvm_test_top.env.sco [SCO] Computing: w0[0]=0 w1[0]=0 a0=7 a1=0
# KERNEL: UVM_INFO /home/runner/accel_axil_agent.sv(90) @ 7857500: uvm_test_top.env.axil_a.drv [AXIL_DRV] READ addr=0x30
# KERNEL: UVM_INFO /home/runner/accel_axil_agent.sv(126) @ 7872500: uvm_test_top.env.axil_a.drv [axil_csr_drv] [CSR] Read Data transaction completed
# KERNEL: UVM_INFO /home/runner/accel_axil_agent.sv(90) @ 7877500: uvm_test_top.env.axil_a.drv [AXIL_DRV] READ addr=0x38
# KERNEL: UVM_INFO /home/runner/accel_axil_agent.sv(126) @ 7892500: uvm_test_top.env.axil_a.drv [axil_csr_drv] [CSR] Read Data transaction completed
# KERNEL: Seed 6/16 â€“ Coverage: AXL=85.7% WGT=74.2% ACT=96.2% RES=95.8% FSM=81.0% => AVG=86.6%
# KERNEL: UVM_INFO /home/runner/accel_scoreboard.sv(297) @ 7892500: uvm_test_top.env.sco [SCO] Queues flushed
# KERNEL: UVM_INFO /home/runner/accel_axil_agent.sv(56) @ 7897500: uvm_test_top.env.axil_a.drv [axil_csr_drv] WRITE addr=0x10 data=0x0
# KERNEL: UVM_INFO /home/runner/accel_scoreboard.sv(109) @ 7922500: uvm_test_top.env.sco [SCO] WRITE addr=0x10 data=0x0
# KERNEL: UVM_INFO /home/runner/accel_axil_agent.sv(121) @ 7922500: uvm_test_top.env.axil_a.drv [axil_csr_drv] [CSR] Write Data transaction completed
# KERNEL: UVM_INFO /home/runner/accel_sequences.sv(31) @ 7922500: uvm_test_top.env.axil_a.seqr@@wr_seq [CSR_WRITE_SEQ] Written addr=0x10 data=0x0
# KERNEL: UVM_INFO /home/runner/accel_axil_agent.sv(90) @ 7927500: uvm_test_top.env.axil_a.drv [AXIL_DRV] READ addr=0x10
# KERNEL: UVM_INFO /home/runner/accel_scoreboard.sv(125) @ 7942500: uvm_test_top.env.sco [SCO] PASS addr=0x10 exp=0x0 got=0x0
# KERNEL: UVM_INFO /home/runner/accel_axil_agent.sv(126) @ 7942500: uvm_test_top.env.axil_a.drv [axil_csr_drv] [CSR] Read Data transaction completed
# KERNEL: UVM_INFO /home/runner/accel_axil_agent.sv(56) @ 7947500: uvm_test_top.env.axil_a.drv [axil_csr_drv] WRITE addr=0x0 data=0x1
# KERNEL: UVM_INFO /home/runner/accel_scoreboard.sv(109) @ 7972500: uvm_test_top.env.sco [SCO] WRITE addr=0x0 data=0x1
# KERNEL: UVM_INFO /home/runner/accel_axil_agent.sv(121) @ 7972500: uvm_test_top.env.axil_a.drv [axil_csr_drv] [CSR] Write Data transaction completed
# KERNEL: UVM_INFO /home/runner/accel_sequences.sv(31) @ 7972500: uvm_test_top.env.axil_a.seqr@@wr_seq [CSR_WRITE_SEQ] Written addr=0x0 data=0x1
# KERNEL: UVM_INFO /home/runner/accel_axil_agent.sv(90) @ 7977500: uvm_test_top.env.axil_a.drv [AXIL_DRV] READ addr=0x0
# KERNEL: UVM_INFO /home/runner/accel_scoreboard.sv(125) @ 7992500: uvm_test_top.env.sco [SCO] PASS addr=0x0 exp=0x1 got=0x1
# KERNEL: UVM_INFO /home/runner/accel_axil_agent.sv(126) @ 7992500: uvm_test_top.env.axil_a.drv [axil_csr_drv] [CSR] Read Data transaction completed
# KERNEL: UVM_INFO /home/runner/accel_axil_agent.sv(90) @ 7997500: uvm_test_top.env.axil_a.drv [AXIL_DRV] READ addr=0x4
# KERNEL: UVM_WARNING /home/runner/accel_scoreboard.sv(119) @ 8012500: uvm_test_top.env.sco [SCO] READ addr=0x4 no expected registered
# KERNEL: UVM_INFO /home/runner/accel_axil_agent.sv(126) @ 8012500: uvm_test_top.env.axil_a.drv [axil_csr_drv] [CSR] Read Data transaction completed
# KERNEL: UVM_INFO /home/runner/accel_axil_agent.sv(56) @ 8017500: uvm_test_top.env.axil_a.drv [axil_csr_drv] WRITE addr=0xc data=0x2
# KERNEL: UVM_INFO /home/runner/accel_scoreboard.sv(109) @ 8042500: uvm_test_top.env.sco [SCO] WRITE addr=0xc data=0x2
# KERNEL: UVM_INFO /home/runner/accel_axil_agent.sv(121) @ 8042500: uvm_test_top.env.axil_a.drv [axil_csr_drv] [CSR] Write Data transaction completed
# KERNEL: UVM_INFO /home/runner/accel_sequences.sv(31) @ 8042500: uvm_test_top.env.axil_a.seqr@@wr_seq [CSR_WRITE_SEQ] Written addr=0xc data=0x2
# KERNEL: UVM_INFO /home/runner/accel_axil_agent.sv(56) @ 8047500: uvm_test_top.env.axil_a.drv [axil_csr_drv] WRITE addr=0x8 data=0x10002
# KERNEL: UVM_INFO /home/runner/accel_scoreboard.sv(109) @ 8072500: uvm_test_top.env.sco [SCO] WRITE addr=0x8 data=0x10002
# KERNEL: UVM_INFO /home/runner/accel_axil_agent.sv(121) @ 8072500: uvm_test_top.env.axil_a.drv [axil_csr_drv] [CSR] Write Data transaction completed
# KERNEL: UVM_INFO /home/runner/accel_sequences.sv(31) @ 8072500: uvm_test_top.env.axil_a.seqr@@wr_seq [CSR_WRITE_SEQ] Written addr=0x8 data=0x10002
# KERNEL: UVM_INFO /home/runner/accel_axil_agent.sv(56) @ 8077500: uvm_test_top.env.axil_a.drv [axil_csr_drv] WRITE addr=0xe4 data=0x10000
# KERNEL: UVM_INFO /home/runner/accel_scoreboard.sv(109) @ 8102500: uvm_test_top.env.sco [SCO] WRITE addr=0xe4 data=0x10000
# KERNEL: UVM_INFO /home/runner/accel_axil_agent.sv(121) @ 8102500: uvm_test_top.env.axil_a.drv [axil_csr_drv] [CSR] Write Data transaction completed
# KERNEL: UVM_INFO /home/runner/accel_sequences.sv(31) @ 8102500: uvm_test_top.env.axil_a.seqr@@wr_seq [CSR_WRITE_SEQ] Written addr=0xe4 data=0x10000
# KERNEL: UVM_INFO /home/runner/accel_axis_weight_agent.sv(179) @ 8347500: uvm_test_top.env.weight_a.mon [WEIGHT_MON] w0[0]=5 w1[0]=5 idx0[0]=1 idx1[0]=2
# KERNEL: UVM_INFO /home/runner/accel_axis_weight_agent.sv(180) @ 8347500: uvm_test_top.env.weight_a.mon [WEIGHT_MON] Weight tile captured
# KERNEL: UVM_INFO /home/runner/accel_scoreboard.sv(149) @ 8347500: uvm_test_top.env.sco [SCO] Weight tile stored â€” queue=1
# KERNEL: UVM_INFO /home/runner/accel_axis_weight_agent.sv(101) @ 8347500: uvm_test_top.env.weight_a.drv [WEIGHT_DRV] Tile complete
# KERNEL: UVM_INFO /home/runner/accel_sequences.sv(89) @ 8347500: uvm_test_top.env.weight_a.seqr@@w_tile_seq [WEIGHT_TILE_SEQ] Weight tile streamed
# KERNEL: UVM_INFO /home/runner/accel_axil_agent.sv(56) @ 8362500: uvm_test_top.env.axil_a.drv [axil_csr_drv] WRITE addr=0x0 data=0x3
# KERNEL: UVM_INFO /home/runner/accel_scoreboard.sv(109) @ 8387500: uvm_test_top.env.sco [SCO] WRITE addr=0x0 data=0x3
# KERNEL: UVM_INFO /home/runner/accel_axil_agent.sv(121) @ 8387500: uvm_test_top.env.axil_a.drv [axil_csr_drv] [CSR] Write Data transaction completed
# KERNEL: UVM_INFO /home/runner/accel_sequences.sv(31) @ 8387500: uvm_test_top.env.axil_a.seqr@@wr_seq [CSR_WRITE_SEQ] Written addr=0x0 data=0x3
# KERNEL: UVM_INFO /home/runner/accel_scoreboard.sv(154) @ 8477500: uvm_test_top.env.sco [SCO] Act vector stored â€” queue=1
# KERNEL: UVM_INFO /home/runner/accel_axis_act_agent.sv(143) @ 8477500: uvm_test_top.env.act_a.mon [ACT_MON] Vector captured a0=40 a1=49 a2=16 a3=9 last=0 mode=SPARSE
# KERNEL: UVM_INFO /home/runner/accel_axis_act_agent.sv(69) @ 8477500: uvm_test_top.env.act_a.drv [ACT_DRV] Beat 1/1 sent mode=SPARSE last=0
# KERNEL: UVM_INFO /home/runner/accel_sequences.sv(115) @ 8477500: uvm_test_top.env.act_a.seqr@@a_stream_seq [ACT_STREAM_SEQ] Activation vector streamed
# KERNEL: UVM_INFO /home/runner/accel_scoreboard.sv(154) @ 8482500: uvm_test_top.env.sco [SCO] Act vector stored â€” queue=2
# KERNEL: UVM_INFO /home/runner/accel_axis_act_agent.sv(143) @ 8482500: uvm_test_top.env.act_a.mon [ACT_MON] Vector captured a0=7 a1=0 a2=0 a3=0 last=1 mode=SPARSE
# KERNEL: UVM_INFO /home/runner/accel_axis_act_agent.sv(69) @ 8482500: uvm_test_top.env.act_a.drv [ACT_DRV] Beat 1/1 sent mode=SPARSE last=1
# KERNEL: UVM_INFO /home/runner/accel_sequences.sv(115) @ 8482500: uvm_test_top.env.act_a.seqr@@a_stream_seq [ACT_STREAM_SEQ] Activation vector streamed
# KERNEL: UVM_INFO /home/runner/accel_axis_result_agent.sv(69) @ 8832500: uvm_test_top.env.result_a.mon [RESULT_MON] Result vector captured â€” last=0
# KERNEL: UVM_INFO /home/runner/accel_scoreboard.sv(174) @ 8832500: uvm_test_top.env.sco [SCO] Computing: w0[0]=5 w1[0]=5 a0=40 a1=49
# KERNEL: UVM_INFO /home/runner/accel_axis_result_agent.sv(69) @ 8852500: uvm_test_top.env.result_a.mon [RESULT_MON] Result vector captured â€” last=1
# KERNEL: UVM_INFO /home/runner/accel_scoreboard.sv(174) @ 8852500: uvm_test_top.env.sco [SCO] Computing: w0[0]=5 w1[0]=5 a0=7 a1=0
# KERNEL: UVM_INFO /home/runner/accel_axil_agent.sv(90) @ 8947500: uvm_test_top.env.axil_a.drv [AXIL_DRV] READ addr=0x30
# KERNEL: UVM_INFO /home/runner/accel_axil_agent.sv(126) @ 8962500: uvm_test_top.env.axil_a.drv [axil_csr_drv] [CSR] Read Data transaction completed
# KERNEL: UVM_INFO /home/runner/accel_axil_agent.sv(90) @ 8967500: uvm_test_top.env.axil_a.drv [AXIL_DRV] READ addr=0x38
# KERNEL: UVM_INFO /home/runner/accel_axil_agent.sv(126) @ 8982500: uvm_test_top.env.axil_a.drv [axil_csr_drv] [CSR] Read Data transaction completed
# KERNEL: Seed 7/16 â€“ Coverage: AXL=85.7% WGT=75.0% ACT=96.2% RES=95.8% FSM=81.0% => AVG=86.7%
# KERNEL: UVM_INFO /home/runner/accel_scoreboard.sv(297) @ 8982500: uvm_test_top.env.sco [SCO] Queues flushed
# KERNEL: UVM_INFO /home/runner/accel_axil_agent.sv(56) @ 8987500: uvm_test_top.env.axil_a.drv [axil_csr_drv] WRITE addr=0x10 data=0x1
# KERNEL: UVM_INFO /home/runner/accel_scoreboard.sv(109) @ 9012500: uvm_test_top.env.sco [SCO] WRITE addr=0x10 data=0x1
# KERNEL: UVM_INFO /home/runner/accel_axil_agent.sv(121) @ 9012500: uvm_test_top.env.axil_a.drv [axil_csr_drv] [CSR] Write Data transaction completed
# KERNEL: UVM_INFO /home/runner/accel_sequences.sv(31) @ 9012500: uvm_test_top.env.axil_a.seqr@@wr_seq [CSR_WRITE_SEQ] Written addr=0x10 data=0x1
# KERNEL: UVM_INFO /home/runner/accel_axil_agent.sv(90) @ 9017500: uvm_test_top.env.axil_a.drv [AXIL_DRV] READ addr=0x10
# KERNEL: UVM_INFO /home/runner/accel_scoreboard.sv(125) @ 9032500: uvm_test_top.env.sco [SCO] PASS addr=0x10 exp=0x1 got=0x1
# KERNEL: UVM_INFO /home/runner/accel_axil_agent.sv(126) @ 9032500: uvm_test_top.env.axil_a.drv [axil_csr_drv] [CSR] Read Data transaction completed
# KERNEL: UVM_INFO /home/runner/accel_axil_agent.sv(56) @ 9037500: uvm_test_top.env.axil_a.drv [axil_csr_drv] WRITE addr=0x0 data=0x1
# KERNEL: UVM_INFO /home/runner/accel_scoreboard.sv(109) @ 9062500: uvm_test_top.env.sco [SCO] WRITE addr=0x0 data=0x1
# KERNEL: UVM_INFO /home/runner/accel_axil_agent.sv(121) @ 9062500: uvm_test_top.env.axil_a.drv [axil_csr_drv] [CSR] Write Data transaction completed
# KERNEL: UVM_INFO /home/runner/accel_sequences.sv(31) @ 9062500: uvm_test_top.env.axil_a.seqr@@wr_seq [CSR_WRITE_SEQ] Written addr=0x0 data=0x1
# KERNEL: UVM_INFO /home/runner/accel_axil_agent.sv(90) @ 9067500: uvm_test_top.env.axil_a.drv [AXIL_DRV] READ addr=0x0
# KERNEL: UVM_INFO /home/runner/accel_scoreboard.sv(125) @ 9082500: uvm_test_top.env.sco [SCO] PASS addr=0x0 exp=0x1 got=0x1
# KERNEL: UVM_INFO /home/runner/accel_axil_agent.sv(126) @ 9082500: uvm_test_top.env.axil_a.drv [axil_csr_drv] [CSR] Read Data transaction completed
# KERNEL: UVM_INFO /home/runner/accel_axil_agent.sv(90) @ 9087500: uvm_test_top.env.axil_a.drv [AXIL_DRV] READ addr=0x4
# KERNEL: UVM_WARNING /home/runner/accel_scoreboard.sv(119) @ 9102500: uvm_test_top.env.sco [SCO] READ addr=0x4 no expected registered
# KERNEL: UVM_INFO /home/runner/accel_axil_agent.sv(126) @ 9102500: uvm_test_top.env.axil_a.drv [axil_csr_drv] [CSR] Read Data transaction completed
# KERNEL: UVM_INFO /home/runner/accel_axil_agent.sv(56) @ 9107500: uvm_test_top.env.axil_a.drv [axil_csr_drv] WRITE addr=0xc data=0x4
# KERNEL: UVM_INFO /home/runner/accel_scoreboard.sv(109) @ 9132500: uvm_test_top.env.sco [SCO] WRITE addr=0xc data=0x4
# KERNEL: UVM_INFO /home/runner/accel_axil_agent.sv(121) @ 9132500: uvm_test_top.env.axil_a.drv [axil_csr_drv] [CSR] Write Data transaction completed
# KERNEL: UVM_INFO /home/runner/accel_sequences.sv(31) @ 9132500: uvm_test_top.env.axil_a.seqr@@wr_seq [CSR_WRITE_SEQ] Written addr=0xc data=0x4
# KERNEL: UVM_INFO /home/runner/accel_axil_agent.sv(56) @ 9137500: uvm_test_top.env.axil_a.drv [axil_csr_drv] WRITE addr=0x8 data=0x10002
# KERNEL: UVM_INFO /home/runner/accel_scoreboard.sv(109) @ 9162500: uvm_test_top.env.sco [SCO] WRITE addr=0x8 data=0x10002
# KERNEL: UVM_INFO /home/runner/accel_axil_agent.sv(121) @ 9162500: uvm_test_top.env.axil_a.drv [axil_csr_drv] [CSR] Write Data transaction completed
# KERNEL: UVM_INFO /home/runner/accel_sequences.sv(31) @ 9162500: uvm_test_top.env.axil_a.seqr@@wr_seq [CSR_WRITE_SEQ] Written addr=0x8 data=0x10002
# KERNEL: UVM_INFO /home/runner/accel_axil_agent.sv(56) @ 9167500: uvm_test_top.env.axil_a.drv [axil_csr_drv] WRITE addr=0xe4 data=0x10000
# KERNEL: UVM_INFO /home/runner/accel_scoreboard.sv(109) @ 9192500: uvm_test_top.env.sco [SCO] WRITE addr=0xe4 data=0x10000
# KERNEL: UVM_INFO /home/runner/accel_axil_agent.sv(121) @ 9192500: uvm_test_top.env.axil_a.drv [axil_csr_drv] [CSR] Write Data transaction completed
# KERNEL: UVM_INFO /home/runner/accel_sequences.sv(31) @ 9192500: uvm_test_top.env.axil_a.seqr@@wr_seq [CSR_WRITE_SEQ] Written addr=0xe4 data=0x10000
# KERNEL: UVM_INFO /home/runner/accel_axis_weight_agent.sv(179) @ 9437500: uvm_test_top.env.weight_a.mon [WEIGHT_MON] w0[0]=0 w1[0]=0 idx0[0]=3 idx1[0]=2
# KERNEL: UVM_INFO /home/runner/accel_axis_weight_agent.sv(180) @ 9437500: uvm_test_top.env.weight_a.mon [WEIGHT_MON] Weight tile captured
# KERNEL: UVM_INFO /home/runner/accel_scoreboard.sv(149) @ 9437500: uvm_test_top.env.sco [SCO] Weight tile stored â€” queue=1
# KERNEL: UVM_INFO /home/runner/accel_axis_weight_agent.sv(101) @ 9437500: uvm_test_top.env.weight_a.drv [WEIGHT_DRV] Tile complete
# KERNEL: UVM_INFO /home/runner/accel_sequences.sv(89) @ 9437500: uvm_test_top.env.weight_a.seqr@@w_tile_seq [WEIGHT_TILE_SEQ] Weight tile streamed
# KERNEL: UVM_INFO /home/runner/accel_axil_agent.sv(56) @ 9452500: uvm_test_top.env.axil_a.drv [axil_csr_drv] WRITE addr=0x0 data=0x3
# KERNEL: UVM_INFO /home/runner/accel_scoreboard.sv(109) @ 9477500: uvm_test_top.env.sco [SCO] WRITE addr=0x0 data=0x3
# KERNEL: UVM_INFO /home/runner/accel_axil_agent.sv(121) @ 9477500: uvm_test_top.env.axil_a.drv [axil_csr_drv] [CSR] Write Data transaction completed
# KERNEL: UVM_INFO /home/runner/accel_sequences.sv(31) @ 9477500: uvm_test_top.env.axil_a.seqr@@wr_seq [CSR_WRITE_SEQ] Written addr=0x0 data=0x3
# KERNEL: UVM_INFO /home/runner/accel_scoreboard.sv(154) @ 9567500: uvm_test_top.env.sco [SCO] Act vector stored â€” queue=1
# KERNEL: UVM_INFO /home/runner/accel_axis_act_agent.sv(143) @ 9567500: uvm_test_top.env.act_a.mon [ACT_MON] Vector captured a0=-10 a1=10 a2=-5 a3=5 last=0 mode=SPARSE
# KERNEL: UVM_INFO /home/runner/accel_axis_act_agent.sv(69) @ 9567500: uvm_test_top.env.act_a.drv [ACT_DRV] Beat 1/1 sent mode=SPARSE last=0
# KERNEL: UVM_INFO /home/runner/accel_sequences.sv(115) @ 9567500: uvm_test_top.env.act_a.seqr@@a_stream_seq [ACT_STREAM_SEQ] Activation vector streamed
# KERNEL: UVM_INFO /home/runner/accel_scoreboard.sv(154) @ 9572500: uvm_test_top.env.sco [SCO] Act vector stored â€” queue=2
# KERNEL: UVM_INFO /home/runner/accel_axis_act_agent.sv(143) @ 9572500: uvm_test_top.env.act_a.mon [ACT_MON] Vector captured a0=7 a1=0 a2=0 a3=0 last=1 mode=SPARSE
# KERNEL: UVM_INFO /home/runner/accel_axis_act_agent.sv(69) @ 9572500: uvm_test_top.env.act_a.drv [ACT_DRV] Beat 1/1 sent mode=SPARSE last=1
# KERNEL: UVM_INFO /home/runner/accel_sequences.sv(115) @ 9572500: uvm_test_top.env.act_a.seqr@@a_stream_seq [ACT_STREAM_SEQ] Activation vector streamed
# KERNEL: UVM_INFO /home/runner/accel_axis_result_agent.sv(69) @ 9922500: uvm_test_top.env.result_a.mon [RESULT_MON] Result vector captured â€” last=0
# KERNEL: UVM_INFO /home/runner/accel_scoreboard.sv(174) @ 9922500: uvm_test_top.env.sco [SCO] Computing: w0[0]=0 w1[0]=0 a0=-10 a1=10
# KERNEL: UVM_INFO /home/runner/accel_axis_result_agent.sv(69) @ 9942500: uvm_test_top.env.result_a.mon [RESULT_MON] Result vector captured â€” last=1
# KERNEL: UVM_INFO /home/runner/accel_scoreboard.sv(174) @ 9942500: uvm_test_top.env.sco [SCO] Computing: w0[0]=0 w1[0]=0 a0=7 a1=0
# KERNEL: UVM_INFO /home/runner/accel_axil_agent.sv(90) @ 10037500: uvm_test_top.env.axil_a.drv [AXIL_DRV] READ addr=0x30
# KERNEL: UVM_INFO /home/runner/accel_axil_agent.sv(126) @ 10052500: uvm_test_top.env.axil_a.drv [axil_csr_drv] [CSR] Read Data transaction completed
# KERNEL: UVM_INFO /home/runner/accel_axil_agent.sv(90) @ 10057500: uvm_test_top.env.axil_a.drv [AXIL_DRV] READ addr=0x38
# KERNEL: UVM_INFO /home/runner/accel_axil_agent.sv(126) @ 10072500: uvm_test_top.env.axil_a.drv [axil_csr_drv] [CSR] Read Data transaction completed
# KERNEL: Seed 8/16 â€“ Coverage: AXL=85.7% WGT=82.0% ACT=96.2% RES=95.8% FSM=81.0% => AVG=88.1%
# KERNEL: UVM_INFO /home/runner/accel_scoreboard.sv(297) @ 10072500: uvm_test_top.env.sco [SCO] Queues flushed
# KERNEL: UVM_INFO /home/runner/accel_axil_agent.sv(56) @ 10077500: uvm_test_top.env.axil_a.drv [axil_csr_drv] WRITE addr=0x10 data=0x0
# KERNEL: UVM_INFO /home/runner/accel_scoreboard.sv(109) @ 10102500: uvm_test_top.env.sco [SCO] WRITE addr=0x10 data=0x0
# KERNEL: UVM_INFO /home/runner/accel_axil_agent.sv(121) @ 10102500: uvm_test_top.env.axil_a.drv [axil_csr_drv] [CSR] Write Data transaction completed
# KERNEL: UVM_INFO /home/runner/accel_sequences.sv(31) @ 10102500: uvm_test_top.env.axil_a.seqr@@wr_seq [CSR_WRITE_SEQ] Written addr=0x10 data=0x0
# KERNEL: UVM_INFO /home/runner/accel_axil_agent.sv(90) @ 10107500: uvm_test_top.env.axil_a.drv [AXIL_DRV] READ addr=0x10
# KERNEL: UVM_INFO /home/runner/accel_scoreboard.sv(125) @ 10122500: uvm_test_top.env.sco [SCO] PASS addr=0x10 exp=0x0 got=0x0
# KERNEL: UVM_INFO /home/runner/accel_axil_agent.sv(126) @ 10122500: uvm_test_top.env.axil_a.drv [axil_csr_drv] [CSR] Read Data transaction completed
# KERNEL: UVM_INFO /home/runner/accel_axil_agent.sv(56) @ 10127500: uvm_test_top.env.axil_a.drv [axil_csr_drv] WRITE addr=0x0 data=0x1
# KERNEL: UVM_INFO /home/runner/accel_scoreboard.sv(109) @ 10152500: uvm_test_top.env.sco [SCO] WRITE addr=0x0 data=0x1
# KERNEL: UVM_INFO /home/runner/accel_axil_agent.sv(121) @ 10152500: uvm_test_top.env.axil_a.drv [axil_csr_drv] [CSR] Write Data transaction completed
# KERNEL: UVM_INFO /home/runner/accel_sequences.sv(31) @ 10152500: uvm_test_top.env.axil_a.seqr@@wr_seq [CSR_WRITE_SEQ] Written addr=0x0 data=0x1
# KERNEL: UVM_INFO /home/runner/accel_axil_agent.sv(90) @ 10157500: uvm_test_top.env.axil_a.drv [AXIL_DRV] READ addr=0x0
# KERNEL: UVM_INFO /home/runner/accel_scoreboard.sv(125) @ 10172500: uvm_test_top.env.sco [SCO] PASS addr=0x0 exp=0x1 got=0x1
# KERNEL: UVM_INFO /home/runner/accel_axil_agent.sv(126) @ 10172500: uvm_test_top.env.axil_a.drv [axil_csr_drv] [CSR] Read Data transaction completed
# KERNEL: UVM_INFO /home/runner/accel_axil_agent.sv(90) @ 10177500: uvm_test_top.env.axil_a.drv [AXIL_DRV] READ addr=0x4
# KERNEL: UVM_WARNING /home/runner/accel_scoreboard.sv(119) @ 10192500: uvm_test_top.env.sco [SCO] READ addr=0x4 no expected registered
# KERNEL: UVM_INFO /home/runner/accel_axil_agent.sv(126) @ 10192500: uvm_test_top.env.axil_a.drv [axil_csr_drv] [CSR] Read Data transaction completed
# KERNEL: UVM_INFO /home/runner/accel_axil_agent.sv(56) @ 10197500: uvm_test_top.env.axil_a.drv [axil_csr_drv] WRITE addr=0xc data=0x4
# KERNEL: UVM_INFO /home/runner/accel_scoreboard.sv(109) @ 10222500: uvm_test_top.env.sco [SCO] WRITE addr=0xc data=0x4
# KERNEL: UVM_INFO /home/runner/accel_axil_agent.sv(121) @ 10222500: uvm_test_top.env.axil_a.drv [axil_csr_drv] [CSR] Write Data transaction completed
# KERNEL: UVM_INFO /home/runner/accel_sequences.sv(31) @ 10222500: uvm_test_top.env.axil_a.seqr@@wr_seq [CSR_WRITE_SEQ] Written addr=0xc data=0x4
# KERNEL: UVM_INFO /home/runner/accel_axil_agent.sv(56) @ 10227500: uvm_test_top.env.axil_a.drv [axil_csr_drv] WRITE addr=0x8 data=0x10002
# KERNEL: UVM_INFO /home/runner/accel_scoreboard.sv(109) @ 10252500: uvm_test_top.env.sco [SCO] WRITE addr=0x8 data=0x10002
# KERNEL: UVM_INFO /home/runner/accel_axil_agent.sv(121) @ 10252500: uvm_test_top.env.axil_a.drv [axil_csr_drv] [CSR] Write Data transaction completed
# KERNEL: UVM_INFO /home/runner/accel_sequences.sv(31) @ 10252500: uvm_test_top.env.axil_a.seqr@@wr_seq [CSR_WRITE_SEQ] Written addr=0x8 data=0x10002
# KERNEL: UVM_INFO /home/runner/accel_axil_agent.sv(56) @ 10257500: uvm_test_top.env.axil_a.drv [axil_csr_drv] WRITE addr=0xe4 data=0x10000
# KERNEL: UVM_INFO /home/runner/accel_scoreboard.sv(109) @ 10282500: uvm_test_top.env.sco [SCO] WRITE addr=0xe4 data=0x10000
# KERNEL: UVM_INFO /home/runner/accel_axil_agent.sv(121) @ 10282500: uvm_test_top.env.axil_a.drv [axil_csr_drv] [CSR] Write Data transaction completed
# KERNEL: UVM_INFO /home/runner/accel_sequences.sv(31) @ 10282500: uvm_test_top.env.axil_a.seqr@@wr_seq [CSR_WRITE_SEQ] Written addr=0xe4 data=0x10000
# KERNEL: UVM_INFO /home/runner/accel_axis_weight_agent.sv(179) @ 10527500: uvm_test_top.env.weight_a.mon [WEIGHT_MON] w0[0]=5 w1[0]=0 idx0[0]=1 idx1[0]=2
# KERNEL: UVM_INFO /home/runner/accel_axis_weight_agent.sv(180) @ 10527500: uvm_test_top.env.weight_a.mon [WEIGHT_MON] Weight tile captured
# KERNEL: UVM_INFO /home/runner/accel_scoreboard.sv(149) @ 10527500: uvm_test_top.env.sco [SCO] Weight tile stored â€” queue=1
# KERNEL: UVM_INFO /home/runner/accel_axis_weight_agent.sv(101) @ 10527500: uvm_test_top.env.weight_a.drv [WEIGHT_DRV] Tile complete
# KERNEL: UVM_INFO /home/runner/accel_sequences.sv(89) @ 10527500: uvm_test_top.env.weight_a.seqr@@w_tile_seq [WEIGHT_TILE_SEQ] Weight tile streamed
# KERNEL: UVM_INFO /home/runner/accel_axil_agent.sv(56) @ 10542500: uvm_test_top.env.axil_a.drv [axil_csr_drv] WRITE addr=0x0 data=0x3
# KERNEL: UVM_INFO /home/runner/accel_scoreboard.sv(109) @ 10567500: uvm_test_top.env.sco [SCO] WRITE addr=0x0 data=0x3
# KERNEL: UVM_INFO /home/runner/accel_axil_agent.sv(121) @ 10567500: uvm_test_top.env.axil_a.drv [axil_csr_drv] [CSR] Write Data transaction completed
# KERNEL: UVM_INFO /home/runner/accel_sequences.sv(31) @ 10567500: uvm_test_top.env.axil_a.seqr@@wr_seq [CSR_WRITE_SEQ] Written addr=0x0 data=0x3
# KERNEL: UVM_INFO /home/runner/accel_scoreboard.sv(154) @ 10657500: uvm_test_top.env.sco [SCO] Act vector stored â€” queue=1
# KERNEL: UVM_INFO /home/runner/accel_axis_act_agent.sv(143) @ 10657500: uvm_test_top.env.act_a.mon [ACT_MON] Vector captured a0=0 a1=0 a2=0 a3=0 last=0 mode=SPARSE
# KERNEL: UVM_INFO /home/runner/accel_axis_act_agent.sv(69) @ 10657500: uvm_test_top.env.act_a.drv [ACT_DRV] Beat 1/1 sent mode=SPARSE last=0
# KERNEL: UVM_INFO /home/runner/accel_sequences.sv(115) @ 10657500: uvm_test_top.env.act_a.seqr@@a_stream_seq [ACT_STREAM_SEQ] Activation vector streamed
# KERNEL: UVM_INFO /home/runner/accel_scoreboard.sv(154) @ 10662500: uvm_test_top.env.sco [SCO] Act vector stored â€” queue=2
# KERNEL: UVM_INFO /home/runner/accel_axis_act_agent.sv(143) @ 10662500: uvm_test_top.env.act_a.mon [ACT_MON] Vector captured a0=0 a1=0 a2=0 a3=0 last=1 mode=SPARSE
# KERNEL: UVM_INFO /home/runner/accel_axis_act_agent.sv(69) @ 10662500: uvm_test_top.env.act_a.drv [ACT_DRV] Beat 1/1 sent mode=SPARSE last=1
# KERNEL: UVM_INFO /home/runner/accel_sequences.sv(115) @ 10662500: uvm_test_top.env.act_a.seqr@@a_stream_seq [ACT_STREAM_SEQ] Activation vector streamed
# KERNEL: UVM_INFO /home/runner/accel_axis_result_agent.sv(69) @ 11012500: uvm_test_top.env.result_a.mon [RESULT_MON] Result vector captured â€” last=0
# KERNEL: UVM_INFO /home/runner/accel_scoreboard.sv(174) @ 11012500: uvm_test_top.env.sco [SCO] Computing: w0[0]=5 w1[0]=0 a0=0 a1=0
# KERNEL: UVM_INFO /home/runner/accel_axis_result_agent.sv(69) @ 11032500: uvm_test_top.env.result_a.mon [RESULT_MON] Result vector captured â€” last=1
# KERNEL: UVM_INFO /home/runner/accel_scoreboard.sv(174) @ 11032500: uvm_test_top.env.sco [SCO] Computing: w0[0]=5 w1[0]=0 a0=0 a1=0
# KERNEL: UVM_INFO /home/runner/accel_axil_agent.sv(90) @ 11127500: uvm_test_top.env.axil_a.drv [AXIL_DRV] READ addr=0x30
# KERNEL: UVM_INFO /home/runner/accel_axil_agent.sv(126) @ 11142500: uvm_test_top.env.axil_a.drv [axil_csr_drv] [CSR] Read Data transaction completed
# KERNEL: UVM_INFO /home/runner/accel_axil_agent.sv(90) @ 11147500: uvm_test_top.env.axil_a.drv [AXIL_DRV] READ addr=0x38
# KERNEL: UVM_INFO /home/runner/accel_axil_agent.sv(126) @ 11162500: uvm_test_top.env.axil_a.drv [axil_csr_drv] [CSR] Read Data transaction completed
# KERNEL: Seed 9/16 â€“ Coverage: AXL=85.7% WGT=85.9% ACT=100.0% RES=95.8% FSM=81.0% => AVG=89.7%
# KERNEL: UVM_INFO /home/runner/accel_scoreboard.sv(297) @ 11162500: uvm_test_top.env.sco [SCO] Queues flushed
# KERNEL: UVM_INFO /home/runner/accel_axil_agent.sv(56) @ 11167500: uvm_test_top.env.axil_a.drv [axil_csr_drv] WRITE addr=0x10 data=0x1
# KERNEL: UVM_INFO /home/runner/accel_scoreboard.sv(109) @ 11192500: uvm_test_top.env.sco [SCO] WRITE addr=0x10 data=0x1
# KERNEL: UVM_INFO /home/runner/accel_axil_agent.sv(121) @ 11192500: uvm_test_top.env.axil_a.drv [axil_csr_drv] [CSR] Write Data transaction completed
# KERNEL: UVM_INFO /home/runner/accel_sequences.sv(31) @ 11192500: uvm_test_top.env.axil_a.seqr@@wr_seq [CSR_WRITE_SEQ] Written addr=0x10 data=0x1
# KERNEL: UVM_INFO /home/runner/accel_axil_agent.sv(90) @ 11197500: uvm_test_top.env.axil_a.drv [AXIL_DRV] READ addr=0x10
# KERNEL: UVM_INFO /home/runner/accel_scoreboard.sv(125) @ 11212500: uvm_test_top.env.sco [SCO] PASS addr=0x10 exp=0x1 got=0x1
# KERNEL: UVM_INFO /home/runner/accel_axil_agent.sv(126) @ 11212500: uvm_test_top.env.axil_a.drv [axil_csr_drv] [CSR] Read Data transaction completed
# KERNEL: UVM_INFO /home/runner/accel_axil_agent.sv(56) @ 11217500: uvm_test_top.env.axil_a.drv [axil_csr_drv] WRITE addr=0x0 data=0x1
# KERNEL: UVM_INFO /home/runner/accel_scoreboard.sv(109) @ 11242500: uvm_test_top.env.sco [SCO] WRITE addr=0x0 data=0x1
# KERNEL: UVM_INFO /home/runner/accel_axil_agent.sv(121) @ 11242500: uvm_test_top.env.axil_a.drv [axil_csr_drv] [CSR] Write Data transaction completed
# KERNEL: UVM_INFO /home/runner/accel_sequences.sv(31) @ 11242500: uvm_test_top.env.axil_a.seqr@@wr_seq [CSR_WRITE_SEQ] Written addr=0x0 data=0x1
# KERNEL: UVM_INFO /home/runner/accel_axil_agent.sv(90) @ 11247500: uvm_test_top.env.axil_a.drv [AXIL_DRV] READ addr=0x0
# KERNEL: UVM_INFO /home/runner/accel_scoreboard.sv(125) @ 11262500: uvm_test_top.env.sco [SCO] PASS addr=0x0 exp=0x1 got=0x1
# KERNEL: UVM_INFO /home/runner/accel_axil_agent.sv(126) @ 11262500: uvm_test_top.env.axil_a.drv [axil_csr_drv] [CSR] Read Data transaction completed
# KERNEL: UVM_INFO /home/runner/accel_axil_agent.sv(90) @ 11267500: uvm_test_top.env.axil_a.drv [AXIL_DRV] READ addr=0x4
# KERNEL: UVM_WARNING /home/runner/accel_scoreboard.sv(119) @ 11282500: uvm_test_top.env.sco [SCO] READ addr=0x4 no expected registered
# KERNEL: UVM_INFO /home/runner/accel_axil_agent.sv(126) @ 11282500: uvm_test_top.env.axil_a.drv [axil_csr_drv] [CSR] Read Data transaction completed
# KERNEL: UVM_INFO /home/runner/accel_axil_agent.sv(56) @ 11287500: uvm_test_top.env.axil_a.drv [axil_csr_drv] WRITE addr=0xc data=0x4
# KERNEL: UVM_INFO /home/runner/accel_scoreboard.sv(109) @ 11312500: uvm_test_top.env.sco [SCO] WRITE addr=0xc data=0x4
# KERNEL: UVM_INFO /home/runner/accel_axil_agent.sv(121) @ 11312500: uvm_test_top.env.axil_a.drv [axil_csr_drv] [CSR] Write Data transaction completed
# KERNEL: UVM_INFO /home/runner/accel_sequences.sv(31) @ 11312500: uvm_test_top.env.axil_a.seqr@@wr_seq [CSR_WRITE_SEQ] Written addr=0xc data=0x4
# KERNEL: UVM_INFO /home/runner/accel_axil_agent.sv(56) @ 11317500: uvm_test_top.env.axil_a.drv [axil_csr_drv] WRITE addr=0x8 data=0x10002
# KERNEL: UVM_INFO /home/runner/accel_scoreboard.sv(109) @ 11342500: uvm_test_top.env.sco [SCO] WRITE addr=0x8 data=0x10002
# KERNEL: UVM_INFO /home/runner/accel_axil_agent.sv(121) @ 11342500: uvm_test_top.env.axil_a.drv [axil_csr_drv] [CSR] Write Data transaction completed
# KERNEL: UVM_INFO /home/runner/accel_sequences.sv(31) @ 11342500: uvm_test_top.env.axil_a.seqr@@wr_seq [CSR_WRITE_SEQ] Written addr=0x8 data=0x10002
# KERNEL: UVM_INFO /home/runner/accel_axil_agent.sv(56) @ 11347500: uvm_test_top.env.axil_a.drv [axil_csr_drv] WRITE addr=0xe4 data=0x10000
# KERNEL: UVM_INFO /home/runner/accel_scoreboard.sv(109) @ 11372500: uvm_test_top.env.sco [SCO] WRITE addr=0xe4 data=0x10000
# KERNEL: UVM_INFO /home/runner/accel_axil_agent.sv(121) @ 11372500: uvm_test_top.env.axil_a.drv [axil_csr_drv] [CSR] Write Data transaction completed
# KERNEL: UVM_INFO /home/runner/accel_sequences.sv(31) @ 11372500: uvm_test_top.env.axil_a.seqr@@wr_seq [CSR_WRITE_SEQ] Written addr=0xe4 data=0x10000
# KERNEL: UVM_INFO /home/runner/accel_axis_weight_agent.sv(179) @ 11617500: uvm_test_top.env.weight_a.mon [WEIGHT_MON] w0[0]=0 w1[0]=0 idx0[0]=3 idx1[0]=2
# KERNEL: UVM_INFO /home/runner/accel_axis_weight_agent.sv(180) @ 11617500: uvm_test_top.env.weight_a.mon [WEIGHT_MON] Weight tile captured
# KERNEL: UVM_INFO /home/runner/accel_scoreboard.sv(149) @ 11617500: uvm_test_top.env.sco [SCO] Weight tile stored â€” queue=1
# KERNEL: UVM_INFO /home/runner/accel_axis_weight_agent.sv(101) @ 11617500: uvm_test_top.env.weight_a.drv [WEIGHT_DRV] Tile complete
# KERNEL: UVM_INFO /home/runner/accel_sequences.sv(89) @ 11617500: uvm_test_top.env.weight_a.seqr@@w_tile_seq [WEIGHT_TILE_SEQ] Weight tile streamed
# KERNEL: UVM_INFO /home/runner/accel_axil_agent.sv(56) @ 11632500: uvm_test_top.env.axil_a.drv [axil_csr_drv] WRITE addr=0x0 data=0x3
# KERNEL: UVM_INFO /home/runner/accel_scoreboard.sv(109) @ 11657500: uvm_test_top.env.sco [SCO] WRITE addr=0x0 data=0x3
# KERNEL: UVM_INFO /home/runner/accel_axil_agent.sv(121) @ 11657500: uvm_test_top.env.axil_a.drv [axil_csr_drv] [CSR] Write Data transaction completed
# KERNEL: UVM_INFO /home/runner/accel_sequences.sv(31) @ 11657500: uvm_test_top.env.axil_a.seqr@@wr_seq [CSR_WRITE_SEQ] Written addr=0x0 data=0x3
# KERNEL: UVM_INFO /home/runner/accel_scoreboard.sv(154) @ 11747500: uvm_test_top.env.sco [SCO] Act vector stored â€” queue=1
# KERNEL: UVM_INFO /home/runner/accel_axis_act_agent.sv(143) @ 11747500: uvm_test_top.env.act_a.mon [ACT_MON] Vector captured a0=-3 a1=-3 a2=-3 a3=-3 last=0 mode=SPARSE
# KERNEL: UVM_INFO /home/runner/accel_axis_act_agent.sv(69) @ 11747500: uvm_test_top.env.act_a.drv [ACT_DRV] Beat 1/1 sent mode=SPARSE last=0
# KERNEL: UVM_INFO /home/runner/accel_sequences.sv(115) @ 11747500: uvm_test_top.env.act_a.seqr@@a_stream_seq [ACT_STREAM_SEQ] Activation vector streamed
# KERNEL: UVM_INFO /home/runner/accel_scoreboard.sv(154) @ 11752500: uvm_test_top.env.sco [SCO] Act vector stored â€” queue=2
# KERNEL: UVM_INFO /home/runner/accel_axis_act_agent.sv(143) @ 11752500: uvm_test_top.env.act_a.mon [ACT_MON] Vector captured a0=0 a1=0 a2=0 a3=0 last=1 mode=SPARSE
# KERNEL: UVM_INFO /home/runner/accel_axis_act_agent.sv(69) @ 11752500: uvm_test_top.env.act_a.drv [ACT_DRV] Beat 1/1 sent mode=SPARSE last=1
# KERNEL: UVM_INFO /home/runner/accel_sequences.sv(115) @ 11752500: uvm_test_top.env.act_a.seqr@@a_stream_seq [ACT_STREAM_SEQ] Activation vector streamed
# KERNEL: UVM_INFO /home/runner/accel_axis_result_agent.sv(69) @ 12102500: uvm_test_top.env.result_a.mon [RESULT_MON] Result vector captured â€” last=0
# KERNEL: UVM_INFO /home/runner/accel_scoreboard.sv(174) @ 12102500: uvm_test_top.env.sco [SCO] Computing: w0[0]=0 w1[0]=0 a0=-3 a1=-3
# KERNEL: UVM_INFO /home/runner/accel_axis_result_agent.sv(69) @ 12122500: uvm_test_top.env.result_a.mon [RESULT_MON] Result vector captured â€” last=1
# KERNEL: UVM_INFO /home/runner/accel_scoreboard.sv(174) @ 12122500: uvm_test_top.env.sco [SCO] Computing: w0[0]=0 w1[0]=0 a0=0 a1=0
# KERNEL: UVM_INFO /home/runner/accel_axil_agent.sv(90) @ 12217500: uvm_test_top.env.axil_a.drv [AXIL_DRV] READ addr=0x30
# KERNEL: UVM_INFO /home/runner/accel_axil_agent.sv(126) @ 12232500: uvm_test_top.env.axil_a.drv [axil_csr_drv] [CSR] Read Data transaction completed
# KERNEL: UVM_INFO /home/runner/accel_axil_agent.sv(90) @ 12237500: uvm_test_top.env.axil_a.drv [AXIL_DRV] READ addr=0x38
# KERNEL: UVM_INFO /home/runner/accel_axil_agent.sv(126) @ 12252500: uvm_test_top.env.axil_a.drv [axil_csr_drv] [CSR] Read Data transaction completed
# KERNEL: Seed 10/16 â€“ Coverage: AXL=85.7% WGT=86.7% ACT=100.0% RES=95.8% FSM=81.0% => AVG=89.8%
# KERNEL: UVM_INFO /home/runner/accel_scoreboard.sv(297) @ 12252500: uvm_test_top.env.sco [SCO] Queues flushed
# KERNEL: UVM_INFO /home/runner/accel_axil_agent.sv(56) @ 12257500: uvm_test_top.env.axil_a.drv [axil_csr_drv] WRITE addr=0x10 data=0x0
# KERNEL: UVM_INFO /home/runner/accel_scoreboard.sv(109) @ 12282500: uvm_test_top.env.sco [SCO] WRITE addr=0x10 data=0x0
# KERNEL: UVM_INFO /home/runner/accel_axil_agent.sv(121) @ 12282500: uvm_test_top.env.axil_a.drv [axil_csr_drv] [CSR] Write Data transaction completed
# KERNEL: UVM_INFO /home/runner/accel_sequences.sv(31) @ 12282500: uvm_test_top.env.axil_a.seqr@@wr_seq [CSR_WRITE_SEQ] Written addr=0x10 data=0x0
# KERNEL: UVM_INFO /home/runner/accel_axil_agent.sv(90) @ 12287500: uvm_test_top.env.axil_a.drv [AXIL_DRV] READ addr=0x10
# KERNEL: UVM_INFO /home/runner/accel_scoreboard.sv(125) @ 12302500: uvm_test_top.env.sco [SCO] PASS addr=0x10 exp=0x0 got=0x0
# KERNEL: UVM_INFO /home/runner/accel_axil_agent.sv(126) @ 12302500: uvm_test_top.env.axil_a.drv [axil_csr_drv] [CSR] Read Data transaction completed
# KERNEL: UVM_INFO /home/runner/accel_axil_agent.sv(56) @ 12307500: uvm_test_top.env.axil_a.drv [axil_csr_drv] WRITE addr=0x0 data=0x1
# KERNEL: UVM_INFO /home/runner/accel_scoreboard.sv(109) @ 12332500: uvm_test_top.env.sco [SCO] WRITE addr=0x0 data=0x1
# KERNEL: UVM_INFO /home/runner/accel_axil_agent.sv(121) @ 12332500: uvm_test_top.env.axil_a.drv [axil_csr_drv] [CSR] Write Data transaction completed
# KERNEL: UVM_INFO /home/runner/accel_sequences.sv(31) @ 12332500: uvm_test_top.env.axil_a.seqr@@wr_seq [CSR_WRITE_SEQ] Written addr=0x0 data=0x1
# KERNEL: UVM_INFO /home/runner/accel_axil_agent.sv(90) @ 12337500: uvm_test_top.env.axil_a.drv [AXIL_DRV] READ addr=0x0
# KERNEL: UVM_INFO /home/runner/accel_scoreboard.sv(125) @ 12352500: uvm_test_top.env.sco [SCO] PASS addr=0x0 exp=0x1 got=0x1
# KERNEL: UVM_INFO /home/runner/accel_axil_agent.sv(126) @ 12352500: uvm_test_top.env.axil_a.drv [axil_csr_drv] [CSR] Read Data transaction completed
# KERNEL: UVM_INFO /home/runner/accel_axil_agent.sv(90) @ 12357500: uvm_test_top.env.axil_a.drv [AXIL_DRV] READ addr=0x4
# KERNEL: UVM_WARNING /home/runner/accel_scoreboard.sv(119) @ 12372500: uvm_test_top.env.sco [SCO] READ addr=0x4 no expected registered
# KERNEL: UVM_INFO /home/runner/accel_axil_agent.sv(126) @ 12372500: uvm_test_top.env.axil_a.drv [axil_csr_drv] [CSR] Read Data transaction completed
# KERNEL: UVM_INFO /home/runner/accel_axil_agent.sv(56) @ 12377500: uvm_test_top.env.axil_a.drv [axil_csr_drv] WRITE addr=0xc data=0x4
# KERNEL: UVM_INFO /home/runner/accel_scoreboard.sv(109) @ 12402500: uvm_test_top.env.sco [SCO] WRITE addr=0xc data=0x4
# KERNEL: UVM_INFO /home/runner/accel_axil_agent.sv(121) @ 12402500: uvm_test_top.env.axil_a.drv [axil_csr_drv] [CSR] Write Data transaction completed
# KERNEL: UVM_INFO /home/runner/accel_sequences.sv(31) @ 12402500: uvm_test_top.env.axil_a.seqr@@wr_seq [CSR_WRITE_SEQ] Written addr=0xc data=0x4
# KERNEL: UVM_INFO /home/runner/accel_axil_agent.sv(56) @ 12407500: uvm_test_top.env.axil_a.drv [axil_csr_drv] WRITE addr=0x8 data=0x10002
# KERNEL: UVM_INFO /home/runner/accel_scoreboard.sv(109) @ 12432500: uvm_test_top.env.sco [SCO] WRITE addr=0x8 data=0x10002
# KERNEL: UVM_INFO /home/runner/accel_axil_agent.sv(121) @ 12432500: uvm_test_top.env.axil_a.drv [axil_csr_drv] [CSR] Write Data transaction completed
# KERNEL: UVM_INFO /home/runner/accel_sequences.sv(31) @ 12432500: uvm_test_top.env.axil_a.seqr@@wr_seq [CSR_WRITE_SEQ] Written addr=0x8 data=0x10002
# KERNEL: UVM_INFO /home/runner/accel_axil_agent.sv(56) @ 12437500: uvm_test_top.env.axil_a.drv [axil_csr_drv] WRITE addr=0xe4 data=0x10000
# KERNEL: UVM_INFO /home/runner/accel_scoreboard.sv(109) @ 12462500: uvm_test_top.env.sco [SCO] WRITE addr=0xe4 data=0x10000
# KERNEL: UVM_INFO /home/runner/accel_axil_agent.sv(121) @ 12462500: uvm_test_top.env.axil_a.drv [axil_csr_drv] [CSR] Write Data transaction completed
# KERNEL: UVM_INFO /home/runner/accel_sequences.sv(31) @ 12462500: uvm_test_top.env.axil_a.seqr@@wr_seq [CSR_WRITE_SEQ] Written addr=0xe4 data=0x10000
# KERNEL: UVM_INFO /home/runner/accel_axis_weight_agent.sv(179) @ 12707500: uvm_test_top.env.weight_a.mon [WEIGHT_MON] w0[0]=5 w1[0]=0 idx0[0]=1 idx1[0]=2
# KERNEL: UVM_INFO /home/runner/accel_axis_weight_agent.sv(180) @ 12707500: uvm_test_top.env.weight_a.mon [WEIGHT_MON] Weight tile captured
# KERNEL: UVM_INFO /home/runner/accel_scoreboard.sv(149) @ 12707500: uvm_test_top.env.sco [SCO] Weight tile stored â€” queue=1
# KERNEL: UVM_INFO /home/runner/accel_axis_weight_agent.sv(101) @ 12707500: uvm_test_top.env.weight_a.drv [WEIGHT_DRV] Tile complete
# KERNEL: UVM_INFO /home/runner/accel_sequences.sv(89) @ 12707500: uvm_test_top.env.weight_a.seqr@@w_tile_seq [WEIGHT_TILE_SEQ] Weight tile streamed
# KERNEL: UVM_INFO /home/runner/accel_axil_agent.sv(56) @ 12722500: uvm_test_top.env.axil_a.drv [axil_csr_drv] WRITE addr=0x0 data=0x3
# KERNEL: UVM_INFO /home/runner/accel_scoreboard.sv(109) @ 12747500: uvm_test_top.env.sco [SCO] WRITE addr=0x0 data=0x3
# KERNEL: UVM_INFO /home/runner/accel_axil_agent.sv(121) @ 12747500: uvm_test_top.env.axil_a.drv [axil_csr_drv] [CSR] Write Data transaction completed
# KERNEL: UVM_INFO /home/runner/accel_sequences.sv(31) @ 12747500: uvm_test_top.env.axil_a.seqr@@wr_seq [CSR_WRITE_SEQ] Written addr=0x0 data=0x3
# KERNEL: UVM_INFO /home/runner/accel_scoreboard.sv(154) @ 12837500: uvm_test_top.env.sco [SCO] Act vector stored â€” queue=1
# KERNEL: UVM_INFO /home/runner/accel_axis_act_agent.sv(143) @ 12837500: uvm_test_top.env.act_a.mon [ACT_MON] Vector captured a0=0 a1=0 a2=0 a3=0 last=0 mode=SPARSE
# KERNEL: UVM_INFO /home/runner/accel_axis_act_agent.sv(69) @ 12837500: uvm_test_top.env.act_a.drv [ACT_DRV] Beat 1/1 sent mode=SPARSE last=0
# KERNEL: UVM_INFO /home/runner/accel_sequences.sv(115) @ 12837500: uvm_test_top.env.act_a.seqr@@a_stream_seq [ACT_STREAM_SEQ] Activation vector streamed
# KERNEL: UVM_INFO /home/runner/accel_scoreboard.sv(154) @ 12842500: uvm_test_top.env.sco [SCO] Act vector stored â€” queue=2
# KERNEL: UVM_INFO /home/runner/accel_axis_act_agent.sv(143) @ 12842500: uvm_test_top.env.act_a.mon [ACT_MON] Vector captured a0=-10 a1=10 a2=-5 a3=5 last=1 mode=SPARSE
# KERNEL: UVM_INFO /home/runner/accel_axis_act_agent.sv(69) @ 12842500: uvm_test_top.env.act_a.drv [ACT_DRV] Beat 1/1 sent mode=SPARSE last=1
# KERNEL: UVM_INFO /home/runner/accel_sequences.sv(115) @ 12842500: uvm_test_top.env.act_a.seqr@@a_stream_seq [ACT_STREAM_SEQ] Activation vector streamed
# KERNEL: UVM_INFO /home/runner/accel_axis_result_agent.sv(69) @ 13192500: uvm_test_top.env.result_a.mon [RESULT_MON] Result vector captured â€” last=0
# KERNEL: UVM_INFO /home/runner/accel_scoreboard.sv(174) @ 13192500: uvm_test_top.env.sco [SCO] Computing: w0[0]=5 w1[0]=0 a0=0 a1=0
# KERNEL: UVM_INFO /home/runner/accel_axis_result_agent.sv(69) @ 13212500: uvm_test_top.env.result_a.mon [RESULT_MON] Result vector captured â€” last=1
# KERNEL: UVM_INFO /home/runner/accel_scoreboard.sv(174) @ 13212500: uvm_test_top.env.sco [SCO] Computing: w0[0]=5 w1[0]=0 a0=-10 a1=10
# KERNEL: UVM_INFO /home/runner/accel_axil_agent.sv(90) @ 13307500: uvm_test_top.env.axil_a.drv [AXIL_DRV] READ addr=0x30
# KERNEL: UVM_INFO /home/runner/accel_axil_agent.sv(126) @ 13322500: uvm_test_top.env.axil_a.drv [axil_csr_drv] [CSR] Read Data transaction completed
# KERNEL: UVM_INFO /home/runner/accel_axil_agent.sv(90) @ 13327500: uvm_test_top.env.axil_a.drv [AXIL_DRV] READ addr=0x38
# KERNEL: UVM_INFO /home/runner/accel_axil_agent.sv(126) @ 13342500: uvm_test_top.env.axil_a.drv [axil_csr_drv] [CSR] Read Data transaction completed
# KERNEL: Seed 11/16 â€“ Coverage: AXL=85.7% WGT=87.5% ACT=100.0% RES=95.8% FSM=81.0% => AVG=90.0%
# KERNEL: UVM_INFO /home/runner/accel_scoreboard.sv(297) @ 13342500: uvm_test_top.env.sco [SCO] Queues flushed
# KERNEL: UVM_INFO /home/runner/accel_axil_agent.sv(56) @ 13347500: uvm_test_top.env.axil_a.drv [axil_csr_drv] WRITE addr=0x10 data=0x1
# KERNEL: UVM_INFO /home/runner/accel_scoreboard.sv(109) @ 13372500: uvm_test_top.env.sco [SCO] WRITE addr=0x10 data=0x1
# KERNEL: UVM_INFO /home/runner/accel_axil_agent.sv(121) @ 13372500: uvm_test_top.env.axil_a.drv [axil_csr_drv] [CSR] Write Data transaction completed
# KERNEL: UVM_INFO /home/runner/accel_sequences.sv(31) @ 13372500: uvm_test_top.env.axil_a.seqr@@wr_seq [CSR_WRITE_SEQ] Written addr=0x10 data=0x1
# KERNEL: UVM_INFO /home/runner/accel_axil_agent.sv(90) @ 13377500: uvm_test_top.env.axil_a.drv [AXIL_DRV] READ addr=0x10
# KERNEL: UVM_INFO /home/runner/accel_scoreboard.sv(125) @ 13392500: uvm_test_top.env.sco [SCO] PASS addr=0x10 exp=0x1 got=0x1
# KERNEL: UVM_INFO /home/runner/accel_axil_agent.sv(126) @ 13392500: uvm_test_top.env.axil_a.drv [axil_csr_drv] [CSR] Read Data transaction completed
# KERNEL: UVM_INFO /home/runner/accel_axil_agent.sv(56) @ 13397500: uvm_test_top.env.axil_a.drv [axil_csr_drv] WRITE addr=0x0 data=0x1
# KERNEL: UVM_INFO /home/runner/accel_scoreboard.sv(109) @ 13422500: uvm_test_top.env.sco [SCO] WRITE addr=0x0 data=0x1
# KERNEL: UVM_INFO /home/runner/accel_axil_agent.sv(121) @ 13422500: uvm_test_top.env.axil_a.drv [axil_csr_drv] [CSR] Write Data transaction completed
# KERNEL: UVM_INFO /home/runner/accel_sequences.sv(31) @ 13422500: uvm_test_top.env.axil_a.seqr@@wr_seq [CSR_WRITE_SEQ] Written addr=0x0 data=0x1
# KERNEL: UVM_INFO /home/runner/accel_axil_agent.sv(90) @ 13427500: uvm_test_top.env.axil_a.drv [AXIL_DRV] READ addr=0x0
# KERNEL: UVM_INFO /home/runner/accel_scoreboard.sv(125) @ 13442500: uvm_test_top.env.sco [SCO] PASS addr=0x0 exp=0x1 got=0x1
# KERNEL: UVM_INFO /home/runner/accel_axil_agent.sv(126) @ 13442500: uvm_test_top.env.axil_a.drv [axil_csr_drv] [CSR] Read Data transaction completed
# KERNEL: UVM_INFO /home/runner/accel_axil_agent.sv(90) @ 13447500: uvm_test_top.env.axil_a.drv [AXIL_DRV] READ addr=0x4
# KERNEL: UVM_WARNING /home/runner/accel_scoreboard.sv(119) @ 13462500: uvm_test_top.env.sco [SCO] READ addr=0x4 no expected registered
# KERNEL: UVM_INFO /home/runner/accel_axil_agent.sv(126) @ 13462500: uvm_test_top.env.axil_a.drv [axil_csr_drv] [CSR] Read Data transaction completed
# KERNEL: UVM_INFO /home/runner/accel_axil_agent.sv(56) @ 13467500: uvm_test_top.env.axil_a.drv [axil_csr_drv] WRITE addr=0xc data=0x8
# KERNEL: UVM_INFO /home/runner/accel_scoreboard.sv(109) @ 13492500: uvm_test_top.env.sco [SCO] WRITE addr=0xc data=0x8
# KERNEL: UVM_INFO /home/runner/accel_axil_agent.sv(121) @ 13492500: uvm_test_top.env.axil_a.drv [axil_csr_drv] [CSR] Write Data transaction completed
# KERNEL: UVM_INFO /home/runner/accel_sequences.sv(31) @ 13492500: uvm_test_top.env.axil_a.seqr@@wr_seq [CSR_WRITE_SEQ] Written addr=0xc data=0x8
# KERNEL: UVM_INFO /home/runner/accel_axil_agent.sv(56) @ 13497500: uvm_test_top.env.axil_a.drv [axil_csr_drv] WRITE addr=0x8 data=0x10002
# KERNEL: UVM_INFO /home/runner/accel_scoreboard.sv(109) @ 13522500: uvm_test_top.env.sco [SCO] WRITE addr=0x8 data=0x10002
# KERNEL: UVM_INFO /home/runner/accel_axil_agent.sv(121) @ 13522500: uvm_test_top.env.axil_a.drv [axil_csr_drv] [CSR] Write Data transaction completed
# KERNEL: UVM_INFO /home/runner/accel_sequences.sv(31) @ 13522500: uvm_test_top.env.axil_a.seqr@@wr_seq [CSR_WRITE_SEQ] Written addr=0x8 data=0x10002
# KERNEL: UVM_INFO /home/runner/accel_axil_agent.sv(56) @ 13527500: uvm_test_top.env.axil_a.drv [axil_csr_drv] WRITE addr=0xe4 data=0x10000
# KERNEL: UVM_INFO /home/runner/accel_scoreboard.sv(109) @ 13552500: uvm_test_top.env.sco [SCO] WRITE addr=0xe4 data=0x10000
# KERNEL: UVM_INFO /home/runner/accel_axil_agent.sv(121) @ 13552500: uvm_test_top.env.axil_a.drv [axil_csr_drv] [CSR] Write Data transaction completed
