# KERNEL: ASDB file was created in location /home/runner/dataset.asdb
# KERNEL: UVM_INFO @ 0: reporter [RNTST] Running test test_063_csr_write_during_compute...
# KERNEL: UVM_INFO @ 0: reporter [MAXQUITSET] '+UVM_MAX_QUIT_COUNT=1,YES' provided on the command line is being applied.
# KERNEL: ===================================================Test_063 : CSR Write During Active Compute - Start=================================================================
# KERNEL: UVM_INFO /home/runner/accel_scoreboard.sv(297) @ 0: uvm_test_top.env.sco [SCO] Queues flushed
# KERNEL:                 Step 1 : Reset + configure initial PP_SCALE=4                
# KERNEL: UVM_INFO /home/runner/accel_axil_agent.sv(42) @ 102500: uvm_test_top.env.axil_a.drv [axil_csr_drv] DUT RESET COMPLETED
# KERNEL: =========================================================================================================================================
# KERNEL: UVM_INFO /home/runner/accel_axis_weight_agent.sv(35) @ 102500: uvm_test_top.env.weight_a.drv [WEIGHT_DRV] Reset done
# KERNEL: =========================================================================================================================================
# KERNEL: UVM_INFO /home/runner/accel_axis_act_agent.sv(35) @ 102500: uvm_test_top.env.act_a.drv [ACT_DRV] Reset done
# KERNEL: =========================================================================================================================================
# KERNEL: UVM_INFO /home/runner/accel_axil_agent.sv(56) @ 102500: uvm_test_top.env.axil_a.drv [axil_csr_drv] WRITE addr=0x0 data=0x48
# KERNEL: UVM_INFO /home/runner/accel_scoreboard.sv(109) @ 127500: uvm_test_top.env.sco [SCO] WRITE addr=0x0 data=0x48
# KERNEL: UVM_INFO /home/runner/accel_axil_agent.sv(121) @ 127500: uvm_test_top.env.axil_a.drv [axil_csr_drv] [CSR] Write Data transaction completed
# KERNEL: UVM_INFO /home/runner/accel_sequences.sv(31) @ 127500: uvm_test_top.env.axil_a.seqr@@wr_seq [CSR_WRITE_SEQ] Written addr=0x0 data=0x48
# KERNEL: UVM_INFO /home/runner/accel_axil_agent.sv(56) @ 177500: uvm_test_top.env.axil_a.drv [axil_csr_drv] WRITE addr=0x0 data=0x8
# KERNEL: UVM_INFO /home/runner/accel_scoreboard.sv(109) @ 202500: uvm_test_top.env.sco [SCO] WRITE addr=0x0 data=0x8
# KERNEL: UVM_INFO /home/runner/accel_axil_agent.sv(121) @ 202500: uvm_test_top.env.axil_a.drv [axil_csr_drv] [CSR] Write Data transaction completed
# KERNEL: UVM_INFO /home/runner/accel_sequences.sv(31) @ 202500: uvm_test_top.env.axil_a.seqr@@wr_seq [CSR_WRITE_SEQ] Written addr=0x0 data=0x8
# KERNEL: UVM_INFO /home/runner/accel_axil_agent.sv(56) @ 227500: uvm_test_top.env.axil_a.drv [axil_csr_drv] WRITE addr=0xb4 data=0x4
# KERNEL: UVM_INFO /home/runner/accel_scoreboard.sv(109) @ 252500: uvm_test_top.env.sco [SCO] WRITE addr=0xb4 data=0x4
# KERNEL: UVM_INFO /home/runner/accel_axil_agent.sv(121) @ 252500: uvm_test_top.env.axil_a.drv [axil_csr_drv] [CSR] Write Data transaction completed
# KERNEL: UVM_INFO /home/runner/accel_sequences.sv(31) @ 252500: uvm_test_top.env.axil_a.seqr@@wr_seq [CSR_WRITE_SEQ] Written addr=0xb4 data=0x4
# KERNEL: UVM_INFO /home/runner/accel_axil_agent.sv(56) @ 257500: uvm_test_top.env.axil_a.drv [axil_csr_drv] WRITE addr=0xb0 data=0x2
# KERNEL: UVM_INFO /home/runner/accel_scoreboard.sv(109) @ 282500: uvm_test_top.env.sco [SCO] WRITE addr=0xb0 data=0x2
# KERNEL: UVM_INFO /home/runner/accel_axil_agent.sv(121) @ 282500: uvm_test_top.env.axil_a.drv [axil_csr_drv] [CSR] Write Data transaction completed
# KERNEL: UVM_INFO /home/runner/accel_sequences.sv(31) @ 282500: uvm_test_top.env.axil_a.seqr@@wr_seq [CSR_WRITE_SEQ] Written addr=0xb0 data=0x2
# KERNEL:                 Step 2 : Configure and start 100-vector compute                
# KERNEL: UVM_INFO /home/runner/accel_axil_agent.sv(56) @ 287500: uvm_test_top.env.axil_a.drv [axil_csr_drv] WRITE addr=0x8 data=0x10064
# KERNEL: UVM_INFO /home/runner/accel_scoreboard.sv(109) @ 312500: uvm_test_top.env.sco [SCO] WRITE addr=0x8 data=0x10064
# KERNEL: UVM_INFO /home/runner/accel_axil_agent.sv(121) @ 312500: uvm_test_top.env.axil_a.drv [axil_csr_drv] [CSR] Write Data transaction completed
# KERNEL: UVM_INFO /home/runner/accel_sequences.sv(31) @ 312500: uvm_test_top.env.axil_a.seqr@@wr_seq [CSR_WRITE_SEQ] Written addr=0x8 data=0x10064
# KERNEL: UVM_INFO /home/runner/accel_axil_agent.sv(56) @ 317500: uvm_test_top.env.axil_a.drv [axil_csr_drv] WRITE addr=0xe4 data=0x10000
# KERNEL: UVM_INFO /home/runner/accel_scoreboard.sv(109) @ 342500: uvm_test_top.env.sco [SCO] WRITE addr=0xe4 data=0x10000
# KERNEL: UVM_INFO /home/runner/accel_axil_agent.sv(121) @ 342500: uvm_test_top.env.axil_a.drv [axil_csr_drv] [CSR] Write Data transaction completed
# KERNEL: UVM_INFO /home/runner/accel_sequences.sv(31) @ 342500: uvm_test_top.env.axil_a.seqr@@wr_seq [CSR_WRITE_SEQ] Written addr=0xe4 data=0x10000
# KERNEL: UVM_INFO /home/runner/accel_axil_agent.sv(56) @ 347500: uvm_test_top.env.axil_a.drv [axil_csr_drv] WRITE addr=0xc data=0x1
# KERNEL: UVM_INFO /home/runner/accel_scoreboard.sv(109) @ 372500: uvm_test_top.env.sco [SCO] WRITE addr=0xc data=0x1
# KERNEL: UVM_INFO /home/runner/accel_axil_agent.sv(121) @ 372500: uvm_test_top.env.axil_a.drv [axil_csr_drv] [CSR] Write Data transaction completed
# KERNEL: UVM_INFO /home/runner/accel_sequences.sv(31) @ 372500: uvm_test_top.env.axil_a.seqr@@wr_seq [CSR_WRITE_SEQ] Written addr=0xc data=0x1
# KERNEL: UVM_INFO /home/runner/accel_axil_agent.sv(56) @ 377500: uvm_test_top.env.axil_a.drv [axil_csr_drv] WRITE addr=0x0 data=0x1
# KERNEL: UVM_INFO /home/runner/accel_scoreboard.sv(109) @ 402500: uvm_test_top.env.sco [SCO] WRITE addr=0x0 data=0x1
# KERNEL: UVM_INFO /home/runner/accel_axil_agent.sv(121) @ 402500: uvm_test_top.env.axil_a.drv [axil_csr_drv] [CSR] Write Data transaction completed
# KERNEL: UVM_INFO /home/runner/accel_sequences.sv(31) @ 402500: uvm_test_top.env.axil_a.seqr@@wr_seq [CSR_WRITE_SEQ] Written addr=0x0 data=0x1
# KERNEL: UVM_INFO /home/runner/accel_axis_weight_agent.sv(179) @ 647500: uvm_test_top.env.weight_a.mon [WEIGHT_MON] w0[0]=1 w1[0]=1 idx0[0]=0 idx1[0]=1
# KERNEL: UVM_INFO /home/runner/accel_axis_weight_agent.sv(180) @ 647500: uvm_test_top.env.weight_a.mon [WEIGHT_MON] Weight tile captured
# KERNEL: UVM_INFO /home/runner/accel_scoreboard.sv(149) @ 647500: uvm_test_top.env.sco [SCO] Weight tile stored â€” queue=1
# KERNEL: UVM_INFO /home/runner/accel_axis_weight_agent.sv(101) @ 647500: uvm_test_top.env.weight_a.drv [WEIGHT_DRV] Tile complete
# KERNEL: UVM_INFO /home/runner/accel_sequences.sv(89) @ 647500: uvm_test_top.env.weight_a.seqr@@w_tile_seq [WEIGHT_TILE_SEQ] Weight tile streamed
# KERNEL: UVM_INFO /home/runner/accel_axil_agent.sv(56) @ 662500: uvm_test_top.env.axil_a.drv [axil_csr_drv] WRITE addr=0x0 data=0x3
# KERNEL: UVM_INFO /home/runner/accel_scoreboard.sv(109) @ 687500: uvm_test_top.env.sco [SCO] WRITE addr=0x0 data=0x3
# KERNEL: UVM_INFO /home/runner/accel_axil_agent.sv(121) @ 687500: uvm_test_top.env.axil_a.drv [axil_csr_drv] [CSR] Write Data transaction completed
# KERNEL: UVM_INFO /home/runner/accel_sequences.sv(31) @ 687500: uvm_test_top.env.axil_a.seqr@@wr_seq [CSR_WRITE_SEQ] Written addr=0x0 data=0x3
# KERNEL:                 Step 3 : Stream 50 activations, then write PP_SCALE=8 mid-compute                
# KERNEL: UVM_INFO /home/runner/accel_axis_act_agent.sv(69) @ 777500: uvm_test_top.env.act_a.drv [ACT_DRV] Beat 1/2 sent mode=DENSE last=0
# KERNEL: UVM_INFO /home/runner/accel_axis_act_agent.sv(143) @ 782500: uvm_test_top.env.act_a.mon [ACT_MON] Vector captured a0=1 a1=1 a2=1 a3=1 last=0 mode=DENSE
# KERNEL: UVM_INFO /home/runner/accel_axis_act_agent.sv(69) @ 782500: uvm_test_top.env.act_a.drv [ACT_DRV] Beat 2/2 sent mode=DENSE last=0
# KERNEL: UVM_INFO /home/runner/accel_sequences.sv(115) @ 782500: uvm_test_top.env.act_a.seqr@@a_stream_seq [ACT_STREAM_SEQ] Activation vector streamed
# KERNEL: UVM_INFO /home/runner/accel_axis_act_agent.sv(69) @ 787500: uvm_test_top.env.act_a.drv [ACT_DRV] Beat 1/2 sent mode=DENSE last=0
# KERNEL: UVM_INFO /home/runner/accel_axis_act_agent.sv(143) @ 792500: uvm_test_top.env.act_a.mon [ACT_MON] Vector captured a0=1 a1=1 a2=1 a3=1 last=0 mode=DENSE
# KERNEL: UVM_INFO /home/runner/accel_axis_act_agent.sv(69) @ 792500: uvm_test_top.env.act_a.drv [ACT_DRV] Beat 2/2 sent mode=DENSE last=0
# KERNEL: UVM_INFO /home/runner/accel_sequences.sv(115) @ 792500: uvm_test_top.env.act_a.seqr@@a_stream_seq [ACT_STREAM_SEQ] Activation vector streamed
# KERNEL: UVM_INFO /home/runner/accel_axis_act_agent.sv(69) @ 797500: uvm_test_top.env.act_a.drv [ACT_DRV] Beat 1/2 sent mode=DENSE last=0
# KERNEL: UVM_INFO /home/runner/accel_axis_act_agent.sv(143) @ 802500: uvm_test_top.env.act_a.mon [ACT_MON] Vector captured a0=1 a1=1 a2=1 a3=1 last=0 mode=DENSE
# KERNEL: UVM_INFO /home/runner/accel_axis_act_agent.sv(69) @ 802500: uvm_test_top.env.act_a.drv [ACT_DRV] Beat 2/2 sent mode=DENSE last=0
# KERNEL: UVM_INFO /home/runner/accel_sequences.sv(115) @ 802500: uvm_test_top.env.act_a.seqr@@a_stream_seq [ACT_STREAM_SEQ] Activation vector streamed
# KERNEL: UVM_INFO /home/runner/accel_axis_act_agent.sv(69) @ 807500: uvm_test_top.env.act_a.drv [ACT_DRV] Beat 1/2 sent mode=DENSE last=0
# KERNEL: UVM_INFO /home/runner/accel_axis_act_agent.sv(143) @ 812500: uvm_test_top.env.act_a.mon [ACT_MON] Vector captured a0=1 a1=1 a2=1 a3=1 last=0 mode=DENSE
# KERNEL: UVM_INFO /home/runner/accel_axis_act_agent.sv(69) @ 812500: uvm_test_top.env.act_a.drv [ACT_DRV] Beat 2/2 sent mode=DENSE last=0
# KERNEL: UVM_INFO /home/runner/accel_sequences.sv(115) @ 812500: uvm_test_top.env.act_a.seqr@@a_stream_seq [ACT_STREAM_SEQ] Activation vector streamed
# KERNEL: UVM_INFO /home/runner/accel_axis_act_agent.sv(69) @ 817500: uvm_test_top.env.act_a.drv [ACT_DRV] Beat 1/2 sent mode=DENSE last=0
# KERNEL: UVM_INFO /home/runner/accel_axis_act_agent.sv(143) @ 822500: uvm_test_top.env.act_a.mon [ACT_MON] Vector captured a0=1 a1=1 a2=1 a3=1 last=0 mode=DENSE
# KERNEL: UVM_INFO /home/runner/accel_axis_act_agent.sv(69) @ 822500: uvm_test_top.env.act_a.drv [ACT_DRV] Beat 2/2 sent mode=DENSE last=0
# KERNEL: UVM_INFO /home/runner/accel_sequences.sv(115) @ 822500: uvm_test_top.env.act_a.seqr@@a_stream_seq [ACT_STREAM_SEQ] Activation vector streamed
# KERNEL: UVM_INFO /home/runner/accel_axis_act_agent.sv(69) @ 827500: uvm_test_top.env.act_a.drv [ACT_DRV] Beat 1/2 sent mode=DENSE last=0
# KERNEL: UVM_INFO /home/runner/accel_axis_act_agent.sv(143) @ 832500: uvm_test_top.env.act_a.mon [ACT_MON] Vector captured a0=1 a1=1 a2=1 a3=1 last=0 mode=DENSE
# KERNEL: UVM_INFO /home/runner/accel_axis_act_agent.sv(69) @ 832500: uvm_test_top.env.act_a.drv [ACT_DRV] Beat 2/2 sent mode=DENSE last=0
# KERNEL: UVM_INFO /home/runner/accel_sequences.sv(115) @ 832500: uvm_test_top.env.act_a.seqr@@a_stream_seq [ACT_STREAM_SEQ] Activation vector streamed
# KERNEL: UVM_INFO /home/runner/accel_axis_act_agent.sv(69) @ 837500: uvm_test_top.env.act_a.drv [ACT_DRV] Beat 1/2 sent mode=DENSE last=0
# KERNEL: UVM_INFO /home/runner/accel_axis_act_agent.sv(143) @ 842500: uvm_test_top.env.act_a.mon [ACT_MON] Vector captured a0=1 a1=1 a2=1 a3=1 last=0 mode=DENSE
# KERNEL: UVM_INFO /home/runner/accel_axis_act_agent.sv(69) @ 842500: uvm_test_top.env.act_a.drv [ACT_DRV] Beat 2/2 sent mode=DENSE last=0
# KERNEL: UVM_INFO /home/runner/accel_sequences.sv(115) @ 842500: uvm_test_top.env.act_a.seqr@@a_stream_seq [ACT_STREAM_SEQ] Activation vector streamed
# KERNEL: UVM_INFO /home/runner/accel_axis_act_agent.sv(69) @ 847500: uvm_test_top.env.act_a.drv [ACT_DRV] Beat 1/2 sent mode=DENSE last=0
# KERNEL: UVM_INFO /home/runner/accel_axis_act_agent.sv(143) @ 852500: uvm_test_top.env.act_a.mon [ACT_MON] Vector captured a0=1 a1=1 a2=1 a3=1 last=0 mode=DENSE
# KERNEL: UVM_INFO /home/runner/accel_axis_act_agent.sv(69) @ 852500: uvm_test_top.env.act_a.drv [ACT_DRV] Beat 2/2 sent mode=DENSE last=0
# KERNEL: UVM_INFO /home/runner/accel_sequences.sv(115) @ 852500: uvm_test_top.env.act_a.seqr@@a_stream_seq [ACT_STREAM_SEQ] Activation vector streamed
# KERNEL: UVM_INFO /home/runner/accel_axis_act_agent.sv(69) @ 857500: uvm_test_top.env.act_a.drv [ACT_DRV] Beat 1/2 sent mode=DENSE last=0
# KERNEL: UVM_INFO /home/runner/accel_axis_act_agent.sv(143) @ 862500: uvm_test_top.env.act_a.mon [ACT_MON] Vector captured a0=1 a1=1 a2=1 a3=1 last=0 mode=DENSE
# KERNEL: UVM_INFO /home/runner/accel_axis_act_agent.sv(69) @ 862500: uvm_test_top.env.act_a.drv [ACT_DRV] Beat 2/2 sent mode=DENSE last=0
# KERNEL: UVM_INFO /home/runner/accel_sequences.sv(115) @ 862500: uvm_test_top.env.act_a.seqr@@a_stream_seq [ACT_STREAM_SEQ] Activation vector streamed
# KERNEL: UVM_INFO /home/runner/accel_axis_act_agent.sv(69) @ 867500: uvm_test_top.env.act_a.drv [ACT_DRV] Beat 1/2 sent mode=DENSE last=0
# KERNEL: UVM_INFO /home/runner/accel_axis_act_agent.sv(143) @ 872500: uvm_test_top.env.act_a.mon [ACT_MON] Vector captured a0=1 a1=1 a2=1 a3=1 last=0 mode=DENSE
# KERNEL: UVM_INFO /home/runner/accel_axis_act_agent.sv(69) @ 872500: uvm_test_top.env.act_a.drv [ACT_DRV] Beat 2/2 sent mode=DENSE last=0
# KERNEL: UVM_INFO /home/runner/accel_sequences.sv(115) @ 872500: uvm_test_top.env.act_a.seqr@@a_stream_seq [ACT_STREAM_SEQ] Activation vector streamed
# KERNEL: UVM_INFO /home/runner/accel_axis_act_agent.sv(69) @ 877500: uvm_test_top.env.act_a.drv [ACT_DRV] Beat 1/2 sent mode=DENSE last=0
# KERNEL: UVM_INFO /home/runner/accel_axis_act_agent.sv(143) @ 882500: uvm_test_top.env.act_a.mon [ACT_MON] Vector captured a0=1 a1=1 a2=1 a3=1 last=0 mode=DENSE
# KERNEL: UVM_INFO /home/runner/accel_axis_act_agent.sv(69) @ 882500: uvm_test_top.env.act_a.drv [ACT_DRV] Beat 2/2 sent mode=DENSE last=0
# KERNEL: UVM_INFO /home/runner/accel_sequences.sv(115) @ 882500: uvm_test_top.env.act_a.seqr@@a_stream_seq [ACT_STREAM_SEQ] Activation vector streamed
# KERNEL: UVM_INFO /home/runner/accel_axis_act_agent.sv(69) @ 887500: uvm_test_top.env.act_a.drv [ACT_DRV] Beat 1/2 sent mode=DENSE last=0
# KERNEL: UVM_INFO /home/runner/accel_axis_act_agent.sv(143) @ 892500: uvm_test_top.env.act_a.mon [ACT_MON] Vector captured a0=1 a1=1 a2=1 a3=1 last=0 mode=DENSE
# KERNEL: UVM_INFO /home/runner/accel_axis_act_agent.sv(69) @ 892500: uvm_test_top.env.act_a.drv [ACT_DRV] Beat 2/2 sent mode=DENSE last=0
# KERNEL: UVM_INFO /home/runner/accel_sequences.sv(115) @ 892500: uvm_test_top.env.act_a.seqr@@a_stream_seq [ACT_STREAM_SEQ] Activation vector streamed
# KERNEL: UVM_INFO /home/runner/accel_axis_act_agent.sv(69) @ 897500: uvm_test_top.env.act_a.drv [ACT_DRV] Beat 1/2 sent mode=DENSE last=0
# KERNEL: UVM_INFO /home/runner/accel_axis_act_agent.sv(143) @ 902500: uvm_test_top.env.act_a.mon [ACT_MON] Vector captured a0=1 a1=1 a2=1 a3=1 last=0 mode=DENSE
# KERNEL: UVM_INFO /home/runner/accel_axis_act_agent.sv(69) @ 902500: uvm_test_top.env.act_a.drv [ACT_DRV] Beat 2/2 sent mode=DENSE last=0
# KERNEL: UVM_INFO /home/runner/accel_sequences.sv(115) @ 902500: uvm_test_top.env.act_a.seqr@@a_stream_seq [ACT_STREAM_SEQ] Activation vector streamed
# KERNEL: UVM_INFO /home/runner/accel_axis_act_agent.sv(69) @ 907500: uvm_test_top.env.act_a.drv [ACT_DRV] Beat 1/2 sent mode=DENSE last=0
# KERNEL: UVM_INFO /home/runner/accel_axis_act_agent.sv(143) @ 912500: uvm_test_top.env.act_a.mon [ACT_MON] Vector captured a0=1 a1=1 a2=1 a3=1 last=0 mode=DENSE
# KERNEL: UVM_INFO /home/runner/accel_axis_act_agent.sv(69) @ 912500: uvm_test_top.env.act_a.drv [ACT_DRV] Beat 2/2 sent mode=DENSE last=0
# KERNEL: UVM_INFO /home/runner/accel_sequences.sv(115) @ 912500: uvm_test_top.env.act_a.seqr@@a_stream_seq [ACT_STREAM_SEQ] Activation vector streamed
# KERNEL: UVM_INFO /home/runner/accel_axis_act_agent.sv(69) @ 917500: uvm_test_top.env.act_a.drv [ACT_DRV] Beat 1/2 sent mode=DENSE last=0
# KERNEL: UVM_INFO /home/runner/accel_axis_act_agent.sv(143) @ 922500: uvm_test_top.env.act_a.mon [ACT_MON] Vector captured a0=1 a1=1 a2=1 a3=1 last=0 mode=DENSE
# KERNEL: UVM_INFO /home/runner/accel_axis_act_agent.sv(69) @ 922500: uvm_test_top.env.act_a.drv [ACT_DRV] Beat 2/2 sent mode=DENSE last=0
# KERNEL: UVM_INFO /home/runner/accel_sequences.sv(115) @ 922500: uvm_test_top.env.act_a.seqr@@a_stream_seq [ACT_STREAM_SEQ] Activation vector streamed
# KERNEL: UVM_INFO /home/runner/accel_axis_act_agent.sv(69) @ 927500: uvm_test_top.env.act_a.drv [ACT_DRV] Beat 1/2 sent mode=DENSE last=0
# KERNEL: UVM_INFO /home/runner/accel_axis_act_agent.sv(143) @ 932500: uvm_test_top.env.act_a.mon [ACT_MON] Vector captured a0=1 a1=1 a2=1 a3=1 last=0 mode=DENSE
# KERNEL: UVM_INFO /home/runner/accel_axis_act_agent.sv(69) @ 932500: uvm_test_top.env.act_a.drv [ACT_DRV] Beat 2/2 sent mode=DENSE last=0
# KERNEL: UVM_INFO /home/runner/accel_sequences.sv(115) @ 932500: uvm_test_top.env.act_a.seqr@@a_stream_seq [ACT_STREAM_SEQ] Activation vector streamed
# KERNEL: UVM_INFO /home/runner/accel_axis_act_agent.sv(69) @ 937500: uvm_test_top.env.act_a.drv [ACT_DRV] Beat 1/2 sent mode=DENSE last=0
# KERNEL: UVM_INFO /home/runner/accel_axis_act_agent.sv(143) @ 942500: uvm_test_top.env.act_a.mon [ACT_MON] Vector captured a0=1 a1=1 a2=1 a3=1 last=0 mode=DENSE
# KERNEL: UVM_INFO /home/runner/accel_axis_act_agent.sv(69) @ 942500: uvm_test_top.env.act_a.drv [ACT_DRV] Beat 2/2 sent mode=DENSE last=0
# KERNEL: UVM_INFO /home/runner/accel_sequences.sv(115) @ 942500: uvm_test_top.env.act_a.seqr@@a_stream_seq [ACT_STREAM_SEQ] Activation vector streamed
# KERNEL: UVM_INFO /home/runner/accel_axis_act_agent.sv(69) @ 947500: uvm_test_top.env.act_a.drv [ACT_DRV] Beat 1/2 sent mode=DENSE last=0
# KERNEL: UVM_INFO /home/runner/accel_axis_act_agent.sv(143) @ 952500: uvm_test_top.env.act_a.mon [ACT_MON] Vector captured a0=1 a1=1 a2=1 a3=1 last=0 mode=DENSE
# KERNEL: UVM_INFO /home/runner/accel_axis_act_agent.sv(69) @ 952500: uvm_test_top.env.act_a.drv [ACT_DRV] Beat 2/2 sent mode=DENSE last=0
# KERNEL: UVM_INFO /home/runner/accel_sequences.sv(115) @ 952500: uvm_test_top.env.act_a.seqr@@a_stream_seq [ACT_STREAM_SEQ] Activation vector streamed
# KERNEL: UVM_INFO /home/runner/accel_axis_act_agent.sv(69) @ 957500: uvm_test_top.env.act_a.drv [ACT_DRV] Beat 1/2 sent mode=DENSE last=0
# KERNEL: UVM_INFO /home/runner/accel_axis_act_agent.sv(143) @ 962500: uvm_test_top.env.act_a.mon [ACT_MON] Vector captured a0=1 a1=1 a2=1 a3=1 last=0 mode=DENSE
# KERNEL: UVM_INFO /home/runner/accel_axis_act_agent.sv(69) @ 962500: uvm_test_top.env.act_a.drv [ACT_DRV] Beat 2/2 sent mode=DENSE last=0
# KERNEL: UVM_INFO /home/runner/accel_sequences.sv(115) @ 962500: uvm_test_top.env.act_a.seqr@@a_stream_seq [ACT_STREAM_SEQ] Activation vector streamed
# KERNEL: UVM_INFO /home/runner/accel_axis_act_agent.sv(69) @ 967500: uvm_test_top.env.act_a.drv [ACT_DRV] Beat 1/2 sent mode=DENSE last=0
# KERNEL: UVM_INFO /home/runner/accel_axis_act_agent.sv(143) @ 972500: uvm_test_top.env.act_a.mon [ACT_MON] Vector captured a0=1 a1=1 a2=1 a3=1 last=0 mode=DENSE
# KERNEL: UVM_INFO /home/runner/accel_axis_act_agent.sv(69) @ 972500: uvm_test_top.env.act_a.drv [ACT_DRV] Beat 2/2 sent mode=DENSE last=0
# KERNEL: UVM_INFO /home/runner/accel_sequences.sv(115) @ 972500: uvm_test_top.env.act_a.seqr@@a_stream_seq [ACT_STREAM_SEQ] Activation vector streamed
# KERNEL: UVM_INFO /home/runner/accel_axis_act_agent.sv(69) @ 977500: uvm_test_top.env.act_a.drv [ACT_DRV] Beat 1/2 sent mode=DENSE last=0
# KERNEL: UVM_INFO /home/runner/accel_axis_act_agent.sv(143) @ 982500: uvm_test_top.env.act_a.mon [ACT_MON] Vector captured a0=1 a1=1 a2=1 a3=1 last=0 mode=DENSE
# KERNEL: UVM_INFO /home/runner/accel_axis_act_agent.sv(69) @ 982500: uvm_test_top.env.act_a.drv [ACT_DRV] Beat 2/2 sent mode=DENSE last=0
# KERNEL: UVM_INFO /home/runner/accel_sequences.sv(115) @ 982500: uvm_test_top.env.act_a.seqr@@a_stream_seq [ACT_STREAM_SEQ] Activation vector streamed
# KERNEL: UVM_INFO /home/runner/accel_axis_act_agent.sv(69) @ 987500: uvm_test_top.env.act_a.drv [ACT_DRV] Beat 1/2 sent mode=DENSE last=0
# KERNEL: UVM_INFO /home/runner/accel_axis_act_agent.sv(143) @ 992500: uvm_test_top.env.act_a.mon [ACT_MON] Vector captured a0=1 a1=1 a2=1 a3=1 last=0 mode=DENSE
# KERNEL: UVM_INFO /home/runner/accel_axis_act_agent.sv(69) @ 992500: uvm_test_top.env.act_a.drv [ACT_DRV] Beat 2/2 sent mode=DENSE last=0
# KERNEL: UVM_INFO /home/runner/accel_sequences.sv(115) @ 992500: uvm_test_top.env.act_a.seqr@@a_stream_seq [ACT_STREAM_SEQ] Activation vector streamed
# KERNEL: UVM_INFO /home/runner/accel_axis_act_agent.sv(69) @ 997500: uvm_test_top.env.act_a.drv [ACT_DRV] Beat 1/2 sent mode=DENSE last=0
# KERNEL: UVM_INFO /home/runner/accel_axis_act_agent.sv(143) @ 1002500: uvm_test_top.env.act_a.mon [ACT_MON] Vector captured a0=1 a1=1 a2=1 a3=1 last=0 mode=DENSE
# KERNEL: UVM_INFO /home/runner/accel_axis_act_agent.sv(69) @ 1002500: uvm_test_top.env.act_a.drv [ACT_DRV] Beat 2/2 sent mode=DENSE last=0
# KERNEL: UVM_INFO /home/runner/accel_sequences.sv(115) @ 1002500: uvm_test_top.env.act_a.seqr@@a_stream_seq [ACT_STREAM_SEQ] Activation vector streamed
# KERNEL: UVM_INFO /home/runner/accel_axis_act_agent.sv(69) @ 1007500: uvm_test_top.env.act_a.drv [ACT_DRV] Beat 1/2 sent mode=DENSE last=0
# KERNEL: UVM_INFO /home/runner/accel_axis_act_agent.sv(143) @ 1012500: uvm_test_top.env.act_a.mon [ACT_MON] Vector captured a0=1 a1=1 a2=1 a3=1 last=0 mode=DENSE
# KERNEL: UVM_INFO /home/runner/accel_axis_act_agent.sv(69) @ 1012500: uvm_test_top.env.act_a.drv [ACT_DRV] Beat 2/2 sent mode=DENSE last=0
# KERNEL: UVM_INFO /home/runner/accel_sequences.sv(115) @ 1012500: uvm_test_top.env.act_a.seqr@@a_stream_seq [ACT_STREAM_SEQ] Activation vector streamed
# KERNEL: UVM_INFO /home/runner/accel_axis_act_agent.sv(69) @ 1017500: uvm_test_top.env.act_a.drv [ACT_DRV] Beat 1/2 sent mode=DENSE last=0
# KERNEL: UVM_INFO /home/runner/accel_axis_act_agent.sv(143) @ 1022500: uvm_test_top.env.act_a.mon [ACT_MON] Vector captured a0=1 a1=1 a2=1 a3=1 last=0 mode=DENSE
# KERNEL: UVM_INFO /home/runner/accel_axis_act_agent.sv(69) @ 1022500: uvm_test_top.env.act_a.drv [ACT_DRV] Beat 2/2 sent mode=DENSE last=0
# KERNEL: UVM_INFO /home/runner/accel_sequences.sv(115) @ 1022500: uvm_test_top.env.act_a.seqr@@a_stream_seq [ACT_STREAM_SEQ] Activation vector streamed
# KERNEL: UVM_INFO /home/runner/accel_axis_act_agent.sv(69) @ 1027500: uvm_test_top.env.act_a.drv [ACT_DRV] Beat 1/2 sent mode=DENSE last=0
# KERNEL: UVM_INFO /home/runner/accel_axis_act_agent.sv(143) @ 1032500: uvm_test_top.env.act_a.mon [ACT_MON] Vector captured a0=1 a1=1 a2=1 a3=1 last=0 mode=DENSE
# KERNEL: UVM_INFO /home/runner/accel_axis_act_agent.sv(69) @ 1032500: uvm_test_top.env.act_a.drv [ACT_DRV] Beat 2/2 sent mode=DENSE last=0
# KERNEL: UVM_INFO /home/runner/accel_sequences.sv(115) @ 1032500: uvm_test_top.env.act_a.seqr@@a_stream_seq [ACT_STREAM_SEQ] Activation vector streamed
# KERNEL: UVM_INFO /home/runner/accel_axis_act_agent.sv(69) @ 1037500: uvm_test_top.env.act_a.drv [ACT_DRV] Beat 1/2 sent mode=DENSE last=0
# KERNEL: UVM_INFO /home/runner/accel_axis_act_agent.sv(143) @ 1042500: uvm_test_top.env.act_a.mon [ACT_MON] Vector captured a0=1 a1=1 a2=1 a3=1 last=0 mode=DENSE
# KERNEL: UVM_INFO /home/runner/accel_axis_act_agent.sv(69) @ 1042500: uvm_test_top.env.act_a.drv [ACT_DRV] Beat 2/2 sent mode=DENSE last=0
# KERNEL: UVM_INFO /home/runner/accel_sequences.sv(115) @ 1042500: uvm_test_top.env.act_a.seqr@@a_stream_seq [ACT_STREAM_SEQ] Activation vector streamed
# KERNEL: UVM_INFO /home/runner/accel_axis_act_agent.sv(69) @ 1047500: uvm_test_top.env.act_a.drv [ACT_DRV] Beat 1/2 sent mode=DENSE last=0
# KERNEL: UVM_INFO /home/runner/accel_axis_act_agent.sv(143) @ 1052500: uvm_test_top.env.act_a.mon [ACT_MON] Vector captured a0=1 a1=1 a2=1 a3=1 last=0 mode=DENSE
# KERNEL: UVM_INFO /home/runner/accel_axis_act_agent.sv(69) @ 1052500: uvm_test_top.env.act_a.drv [ACT_DRV] Beat 2/2 sent mode=DENSE last=0
# KERNEL: UVM_INFO /home/runner/accel_sequences.sv(115) @ 1052500: uvm_test_top.env.act_a.seqr@@a_stream_seq [ACT_STREAM_SEQ] Activation vector streamed
# KERNEL: UVM_INFO /home/runner/accel_axis_act_agent.sv(69) @ 1057500: uvm_test_top.env.act_a.drv [ACT_DRV] Beat 1/2 sent mode=DENSE last=0
# KERNEL: UVM_INFO /home/runner/accel_axis_act_agent.sv(143) @ 1062500: uvm_test_top.env.act_a.mon [ACT_MON] Vector captured a0=1 a1=1 a2=1 a3=1 last=0 mode=DENSE
# KERNEL: UVM_INFO /home/runner/accel_axis_act_agent.sv(69) @ 1062500: uvm_test_top.env.act_a.drv [ACT_DRV] Beat 2/2 sent mode=DENSE last=0
# KERNEL: UVM_INFO /home/runner/accel_sequences.sv(115) @ 1062500: uvm_test_top.env.act_a.seqr@@a_stream_seq [ACT_STREAM_SEQ] Activation vector streamed
# KERNEL: UVM_INFO /home/runner/accel_axis_act_agent.sv(69) @ 1067500: uvm_test_top.env.act_a.drv [ACT_DRV] Beat 1/2 sent mode=DENSE last=0
# KERNEL: UVM_INFO /home/runner/accel_axis_act_agent.sv(143) @ 1072500: uvm_test_top.env.act_a.mon [ACT_MON] Vector captured a0=1 a1=1 a2=1 a3=1 last=0 mode=DENSE
# KERNEL: UVM_INFO /home/runner/accel_axis_act_agent.sv(69) @ 1072500: uvm_test_top.env.act_a.drv [ACT_DRV] Beat 2/2 sent mode=DENSE last=0
# KERNEL: UVM_INFO /home/runner/accel_sequences.sv(115) @ 1072500: uvm_test_top.env.act_a.seqr@@a_stream_seq [ACT_STREAM_SEQ] Activation vector streamed
# KERNEL: UVM_INFO /home/runner/accel_axis_act_agent.sv(69) @ 1077500: uvm_test_top.env.act_a.drv [ACT_DRV] Beat 1/2 sent mode=DENSE last=0
# KERNEL: UVM_INFO /home/runner/accel_axis_act_agent.sv(143) @ 1082500: uvm_test_top.env.act_a.mon [ACT_MON] Vector captured a0=1 a1=1 a2=1 a3=1 last=0 mode=DENSE
# KERNEL: UVM_INFO /home/runner/accel_axis_act_agent.sv(69) @ 1082500: uvm_test_top.env.act_a.drv [ACT_DRV] Beat 2/2 sent mode=DENSE last=0
# KERNEL: UVM_INFO /home/runner/accel_sequences.sv(115) @ 1082500: uvm_test_top.env.act_a.seqr@@a_stream_seq [ACT_STREAM_SEQ] Activation vector streamed
# KERNEL: UVM_INFO /home/runner/accel_axis_act_agent.sv(69) @ 1087500: uvm_test_top.env.act_a.drv [ACT_DRV] Beat 1/2 sent mode=DENSE last=0
# KERNEL: UVM_INFO /home/runner/accel_axis_act_agent.sv(143) @ 1092500: uvm_test_top.env.act_a.mon [ACT_MON] Vector captured a0=1 a1=1 a2=1 a3=1 last=0 mode=DENSE
# KERNEL: UVM_INFO /home/runner/accel_axis_act_agent.sv(69) @ 1092500: uvm_test_top.env.act_a.drv [ACT_DRV] Beat 2/2 sent mode=DENSE last=0
# KERNEL: UVM_INFO /home/runner/accel_sequences.sv(115) @ 1092500: uvm_test_top.env.act_a.seqr@@a_stream_seq [ACT_STREAM_SEQ] Activation vector streamed
# KERNEL: UVM_INFO /home/runner/accel_axis_act_agent.sv(69) @ 1097500: uvm_test_top.env.act_a.drv [ACT_DRV] Beat 1/2 sent mode=DENSE last=0
# KERNEL: UVM_INFO /home/runner/accel_axis_act_agent.sv(143) @ 1102500: uvm_test_top.env.act_a.mon [ACT_MON] Vector captured a0=1 a1=1 a2=1 a3=1 last=0 mode=DENSE
# KERNEL: UVM_INFO /home/runner/accel_axis_act_agent.sv(69) @ 1102500: uvm_test_top.env.act_a.drv [ACT_DRV] Beat 2/2 sent mode=DENSE last=0
# KERNEL: UVM_INFO /home/runner/accel_sequences.sv(115) @ 1102500: uvm_test_top.env.act_a.seqr@@a_stream_seq [ACT_STREAM_SEQ] Activation vector streamed
# KERNEL: UVM_INFO /home/runner/accel_axis_act_agent.sv(69) @ 1107500: uvm_test_top.env.act_a.drv [ACT_DRV] Beat 1/2 sent mode=DENSE last=0
# KERNEL: UVM_INFO /home/runner/accel_axis_act_agent.sv(143) @ 1112500: uvm_test_top.env.act_a.mon [ACT_MON] Vector captured a0=1 a1=1 a2=1 a3=1 last=0 mode=DENSE
# KERNEL: UVM_INFO /home/runner/accel_axis_act_agent.sv(69) @ 1112500: uvm_test_top.env.act_a.drv [ACT_DRV] Beat 2/2 sent mode=DENSE last=0
# KERNEL: UVM_INFO /home/runner/accel_sequences.sv(115) @ 1112500: uvm_test_top.env.act_a.seqr@@a_stream_seq [ACT_STREAM_SEQ] Activation vector streamed
# KERNEL: UVM_INFO /home/runner/accel_axis_act_agent.sv(69) @ 1117500: uvm_test_top.env.act_a.drv [ACT_DRV] Beat 1/2 sent mode=DENSE last=0
# KERNEL: UVM_INFO /home/runner/accel_axis_act_agent.sv(143) @ 1122500: uvm_test_top.env.act_a.mon [ACT_MON] Vector captured a0=1 a1=1 a2=1 a3=1 last=0 mode=DENSE
# KERNEL: UVM_INFO /home/runner/accel_axis_act_agent.sv(69) @ 1122500: uvm_test_top.env.act_a.drv [ACT_DRV] Beat 2/2 sent mode=DENSE last=0
# KERNEL: UVM_INFO /home/runner/accel_sequences.sv(115) @ 1122500: uvm_test_top.env.act_a.seqr@@a_stream_seq [ACT_STREAM_SEQ] Activation vector streamed
# KERNEL: UVM_INFO /home/runner/accel_axis_act_agent.sv(69) @ 1127500: uvm_test_top.env.act_a.drv [ACT_DRV] Beat 1/2 sent mode=DENSE last=0
# KERNEL: UVM_INFO /home/runner/accel_axis_act_agent.sv(143) @ 1132500: uvm_test_top.env.act_a.mon [ACT_MON] Vector captured a0=1 a1=1 a2=1 a3=1 last=0 mode=DENSE
# KERNEL: UVM_INFO /home/runner/accel_axis_act_agent.sv(69) @ 1132500: uvm_test_top.env.act_a.drv [ACT_DRV] Beat 2/2 sent mode=DENSE last=0
# KERNEL: UVM_INFO /home/runner/accel_sequences.sv(115) @ 1132500: uvm_test_top.env.act_a.seqr@@a_stream_seq [ACT_STREAM_SEQ] Activation vector streamed
# KERNEL: UVM_INFO /home/runner/accel_axis_act_agent.sv(69) @ 1137500: uvm_test_top.env.act_a.drv [ACT_DRV] Beat 1/2 sent mode=DENSE last=0
# KERNEL: UVM_INFO /home/runner/accel_axis_result_agent.sv(69) @ 1137500: uvm_test_top.env.result_a.mon [RESULT_MON] Result vector captured â€” last=0
# KERNEL: UVM_INFO /home/runner/accel_axis_act_agent.sv(143) @ 1142500: uvm_test_top.env.act_a.mon [ACT_MON] Vector captured a0=1 a1=1 a2=1 a3=1 last=0 mode=DENSE
# KERNEL: UVM_INFO /home/runner/accel_axis_act_agent.sv(69) @ 1142500: uvm_test_top.env.act_a.drv [ACT_DRV] Beat 2/2 sent mode=DENSE last=0
# KERNEL: UVM_INFO /home/runner/accel_sequences.sv(115) @ 1142500: uvm_test_top.env.act_a.seqr@@a_stream_seq [ACT_STREAM_SEQ] Activation vector streamed
# KERNEL: UVM_INFO /home/runner/accel_axis_act_agent.sv(69) @ 1147500: uvm_test_top.env.act_a.drv [ACT_DRV] Beat 1/2 sent mode=DENSE last=0
# KERNEL: UVM_INFO /home/runner/accel_axis_act_agent.sv(143) @ 1152500: uvm_test_top.env.act_a.mon [ACT_MON] Vector captured a0=1 a1=1 a2=1 a3=1 last=0 mode=DENSE
# KERNEL: UVM_INFO /home/runner/accel_axis_act_agent.sv(69) @ 1152500: uvm_test_top.env.act_a.drv [ACT_DRV] Beat 2/2 sent mode=DENSE last=0
# KERNEL: UVM_INFO /home/runner/accel_sequences.sv(115) @ 1152500: uvm_test_top.env.act_a.seqr@@a_stream_seq [ACT_STREAM_SEQ] Activation vector streamed
# KERNEL: UVM_INFO /home/runner/accel_axis_act_agent.sv(69) @ 1157500: uvm_test_top.env.act_a.drv [ACT_DRV] Beat 1/2 sent mode=DENSE last=0
# KERNEL: UVM_INFO /home/runner/accel_axis_result_agent.sv(69) @ 1157500: uvm_test_top.env.result_a.mon [RESULT_MON] Result vector captured â€” last=0
# KERNEL: UVM_INFO /home/runner/accel_axis_act_agent.sv(143) @ 1162500: uvm_test_top.env.act_a.mon [ACT_MON] Vector captured a0=1 a1=1 a2=1 a3=1 last=0 mode=DENSE
# KERNEL: UVM_INFO /home/runner/accel_axis_act_agent.sv(69) @ 1162500: uvm_test_top.env.act_a.drv [ACT_DRV] Beat 2/2 sent mode=DENSE last=0
# KERNEL: UVM_INFO /home/runner/accel_sequences.sv(115) @ 1162500: uvm_test_top.env.act_a.seqr@@a_stream_seq [ACT_STREAM_SEQ] Activation vector streamed
# KERNEL: UVM_INFO /home/runner/accel_axis_act_agent.sv(69) @ 1167500: uvm_test_top.env.act_a.drv [ACT_DRV] Beat 1/2 sent mode=DENSE last=0
# KERNEL: UVM_INFO /home/runner/accel_axis_act_agent.sv(143) @ 1172500: uvm_test_top.env.act_a.mon [ACT_MON] Vector captured a0=1 a1=1 a2=1 a3=1 last=0 mode=DENSE
# KERNEL: UVM_INFO /home/runner/accel_axis_act_agent.sv(69) @ 1172500: uvm_test_top.env.act_a.drv [ACT_DRV] Beat 2/2 sent mode=DENSE last=0
# KERNEL: UVM_INFO /home/runner/accel_sequences.sv(115) @ 1172500: uvm_test_top.env.act_a.seqr@@a_stream_seq [ACT_STREAM_SEQ] Activation vector streamed
# KERNEL: UVM_INFO /home/runner/accel_axis_act_agent.sv(69) @ 1177500: uvm_test_top.env.act_a.drv [ACT_DRV] Beat 1/2 sent mode=DENSE last=0
# KERNEL: UVM_INFO /home/runner/accel_axis_result_agent.sv(69) @ 1177500: uvm_test_top.env.result_a.mon [RESULT_MON] Result vector captured â€” last=0
# KERNEL: UVM_INFO /home/runner/accel_axis_act_agent.sv(143) @ 1182500: uvm_test_top.env.act_a.mon [ACT_MON] Vector captured a0=1 a1=1 a2=1 a3=1 last=0 mode=DENSE
# KERNEL: UVM_INFO /home/runner/accel_axis_act_agent.sv(69) @ 1182500: uvm_test_top.env.act_a.drv [ACT_DRV] Beat 2/2 sent mode=DENSE last=0
# KERNEL: UVM_INFO /home/runner/accel_sequences.sv(115) @ 1182500: uvm_test_top.env.act_a.seqr@@a_stream_seq [ACT_STREAM_SEQ] Activation vector streamed
# KERNEL: UVM_INFO /home/runner/accel_axis_act_agent.sv(69) @ 1187500: uvm_test_top.env.act_a.drv [ACT_DRV] Beat 1/2 sent mode=DENSE last=0
# KERNEL: UVM_INFO /home/runner/accel_axis_act_agent.sv(143) @ 1192500: uvm_test_top.env.act_a.mon [ACT_MON] Vector captured a0=1 a1=1 a2=1 a3=1 last=0 mode=DENSE
# KERNEL: UVM_INFO /home/runner/accel_axis_act_agent.sv(69) @ 1192500: uvm_test_top.env.act_a.drv [ACT_DRV] Beat 2/2 sent mode=DENSE last=0
# KERNEL: UVM_INFO /home/runner/accel_sequences.sv(115) @ 1192500: uvm_test_top.env.act_a.seqr@@a_stream_seq [ACT_STREAM_SEQ] Activation vector streamed
# KERNEL: UVM_INFO /home/runner/accel_axis_act_agent.sv(69) @ 1197500: uvm_test_top.env.act_a.drv [ACT_DRV] Beat 1/2 sent mode=DENSE last=0
# KERNEL: UVM_INFO /home/runner/accel_axis_result_agent.sv(69) @ 1197500: uvm_test_top.env.result_a.mon [RESULT_MON] Result vector captured â€” last=0
# KERNEL: UVM_INFO /home/runner/accel_axis_act_agent.sv(143) @ 1202500: uvm_test_top.env.act_a.mon [ACT_MON] Vector captured a0=1 a1=1 a2=1 a3=1 last=0 mode=DENSE
# KERNEL: UVM_INFO /home/runner/accel_axis_act_agent.sv(69) @ 1202500: uvm_test_top.env.act_a.drv [ACT_DRV] Beat 2/2 sent mode=DENSE last=0
# KERNEL: UVM_INFO /home/runner/accel_sequences.sv(115) @ 1202500: uvm_test_top.env.act_a.seqr@@a_stream_seq [ACT_STREAM_SEQ] Activation vector streamed
# KERNEL: UVM_INFO /home/runner/accel_axis_act_agent.sv(69) @ 1207500: uvm_test_top.env.act_a.drv [ACT_DRV] Beat 1/2 sent mode=DENSE last=0
# KERNEL: UVM_INFO /home/runner/accel_axis_act_agent.sv(143) @ 1212500: uvm_test_top.env.act_a.mon [ACT_MON] Vector captured a0=1 a1=1 a2=1 a3=1 last=0 mode=DENSE
# KERNEL: UVM_INFO /home/runner/accel_axis_act_agent.sv(69) @ 1212500: uvm_test_top.env.act_a.drv [ACT_DRV] Beat 2/2 sent mode=DENSE last=0
# KERNEL: UVM_INFO /home/runner/accel_sequences.sv(115) @ 1212500: uvm_test_top.env.act_a.seqr@@a_stream_seq [ACT_STREAM_SEQ] Activation vector streamed
# KERNEL: UVM_INFO /home/runner/accel_axis_act_agent.sv(69) @ 1217500: uvm_test_top.env.act_a.drv [ACT_DRV] Beat 1/2 sent mode=DENSE last=0
# KERNEL: UVM_INFO /home/runner/accel_axis_result_agent.sv(69) @ 1217500: uvm_test_top.env.result_a.mon [RESULT_MON] Result vector captured â€” last=0
# KERNEL: UVM_INFO /home/runner/accel_axis_act_agent.sv(143) @ 1222500: uvm_test_top.env.act_a.mon [ACT_MON] Vector captured a0=1 a1=1 a2=1 a3=1 last=0 mode=DENSE
# KERNEL: UVM_INFO /home/runner/accel_axis_act_agent.sv(69) @ 1222500: uvm_test_top.env.act_a.drv [ACT_DRV] Beat 2/2 sent mode=DENSE last=0
# KERNEL: UVM_INFO /home/runner/accel_sequences.sv(115) @ 1222500: uvm_test_top.env.act_a.seqr@@a_stream_seq [ACT_STREAM_SEQ] Activation vector streamed
# KERNEL: UVM_INFO /home/runner/accel_axis_act_agent.sv(69) @ 1227500: uvm_test_top.env.act_a.drv [ACT_DRV] Beat 1/2 sent mode=DENSE last=0
# KERNEL: UVM_INFO /home/runner/accel_axis_act_agent.sv(143) @ 1232500: uvm_test_top.env.act_a.mon [ACT_MON] Vector captured a0=1 a1=1 a2=1 a3=1 last=0 mode=DENSE
# KERNEL: UVM_INFO /home/runner/accel_axis_act_agent.sv(69) @ 1232500: uvm_test_top.env.act_a.drv [ACT_DRV] Beat 2/2 sent mode=DENSE last=0
# KERNEL: UVM_INFO /home/runner/accel_sequences.sv(115) @ 1232500: uvm_test_top.env.act_a.seqr@@a_stream_seq [ACT_STREAM_SEQ] Activation vector streamed
# KERNEL: UVM_INFO /home/runner/accel_axis_act_agent.sv(69) @ 1237500: uvm_test_top.env.act_a.drv [ACT_DRV] Beat 1/2 sent mode=DENSE last=0
# KERNEL: UVM_INFO /home/runner/accel_axis_result_agent.sv(69) @ 1237500: uvm_test_top.env.result_a.mon [RESULT_MON] Result vector captured â€” last=0
# KERNEL: UVM_INFO /home/runner/accel_axis_act_agent.sv(143) @ 1242500: uvm_test_top.env.act_a.mon [ACT_MON] Vector captured a0=1 a1=1 a2=1 a3=1 last=0 mode=DENSE
# KERNEL: UVM_INFO /home/runner/accel_axis_act_agent.sv(69) @ 1242500: uvm_test_top.env.act_a.drv [ACT_DRV] Beat 2/2 sent mode=DENSE last=0
# KERNEL: UVM_INFO /home/runner/accel_sequences.sv(115) @ 1242500: uvm_test_top.env.act_a.seqr@@a_stream_seq [ACT_STREAM_SEQ] Activation vector streamed
# KERNEL: UVM_INFO /home/runner/accel_axis_act_agent.sv(69) @ 1247500: uvm_test_top.env.act_a.drv [ACT_DRV] Beat 1/2 sent mode=DENSE last=0
# KERNEL: UVM_INFO /home/runner/accel_axis_act_agent.sv(143) @ 1252500: uvm_test_top.env.act_a.mon [ACT_MON] Vector captured a0=1 a1=1 a2=1 a3=1 last=0 mode=DENSE
# KERNEL: UVM_INFO /home/runner/accel_axis_act_agent.sv(69) @ 1252500: uvm_test_top.env.act_a.drv [ACT_DRV] Beat 2/2 sent mode=DENSE last=0
# KERNEL: UVM_INFO /home/runner/accel_sequences.sv(115) @ 1252500: uvm_test_top.env.act_a.seqr@@a_stream_seq [ACT_STREAM_SEQ] Activation vector streamed
# KERNEL: UVM_INFO /home/runner/accel_axis_act_agent.sv(69) @ 1257500: uvm_test_top.env.act_a.drv [ACT_DRV] Beat 1/2 sent mode=DENSE last=0
# KERNEL: UVM_INFO /home/runner/accel_axis_result_agent.sv(69) @ 1257500: uvm_test_top.env.result_a.mon [RESULT_MON] Result vector captured â€” last=0
# KERNEL: UVM_INFO /home/runner/accel_axis_act_agent.sv(143) @ 1262500: uvm_test_top.env.act_a.mon [ACT_MON] Vector captured a0=1 a1=1 a2=1 a3=1 last=0 mode=DENSE
# KERNEL: UVM_INFO /home/runner/accel_axis_act_agent.sv(69) @ 1262500: uvm_test_top.env.act_a.drv [ACT_DRV] Beat 2/2 sent mode=DENSE last=0
# KERNEL: UVM_INFO /home/runner/accel_sequences.sv(115) @ 1262500: uvm_test_top.env.act_a.seqr@@a_stream_seq [ACT_STREAM_SEQ] Activation vector streamed
# KERNEL: UVM_INFO /home/runner/accel_axis_act_agent.sv(69) @ 1267500: uvm_test_top.env.act_a.drv [ACT_DRV] Beat 1/2 sent mode=DENSE last=0
# KERNEL: UVM_INFO /home/runner/accel_axis_act_agent.sv(143) @ 1272500: uvm_test_top.env.act_a.mon [ACT_MON] Vector captured a0=1 a1=1 a2=1 a3=1 last=0 mode=DENSE
# KERNEL: UVM_INFO /home/runner/accel_axis_act_agent.sv(69) @ 1272500: uvm_test_top.env.act_a.drv [ACT_DRV] Beat 2/2 sent mode=DENSE last=0
# KERNEL: UVM_INFO /home/runner/accel_sequences.sv(115) @ 1272500: uvm_test_top.env.act_a.seqr@@a_stream_seq [ACT_STREAM_SEQ] Activation vector streamed
# KERNEL: UVM_INFO /home/runner/accel_axis_act_agent.sv(69) @ 1277500: uvm_test_top.env.act_a.drv [ACT_DRV] Beat 1/2 sent mode=DENSE last=0
# KERNEL: UVM_INFO /home/runner/accel_axis_result_agent.sv(69) @ 1277500: uvm_test_top.env.result_a.mon [RESULT_MON] Result vector captured â€” last=0
# KERNEL: UVM_INFO /home/runner/accel_axis_act_agent.sv(143) @ 1282500: uvm_test_top.env.act_a.mon [ACT_MON] Vector captured a0=1 a1=1 a2=1 a3=1 last=0 mode=DENSE
# KERNEL: UVM_INFO /home/runner/accel_axis_act_agent.sv(69) @ 1282500: uvm_test_top.env.act_a.drv [ACT_DRV] Beat 2/2 sent mode=DENSE last=0
# KERNEL: UVM_INFO /home/runner/accel_sequences.sv(115) @ 1282500: uvm_test_top.env.act_a.seqr@@a_stream_seq [ACT_STREAM_SEQ] Activation vector streamed
# KERNEL: UVM_INFO /home/runner/accel_axis_act_agent.sv(69) @ 1287500: uvm_test_top.env.act_a.drv [ACT_DRV] Beat 1/2 sent mode=DENSE last=0
# KERNEL: UVM_INFO /home/runner/accel_axis_act_agent.sv(143) @ 1292500: uvm_test_top.env.act_a.mon [ACT_MON] Vector captured a0=1 a1=1 a2=1 a3=1 last=0 mode=DENSE
# KERNEL: UVM_INFO /home/runner/accel_axis_act_agent.sv(69) @ 1292500: uvm_test_top.env.act_a.drv [ACT_DRV] Beat 2/2 sent mode=DENSE last=0
# KERNEL: UVM_INFO /home/runner/accel_sequences.sv(115) @ 1292500: uvm_test_top.env.act_a.seqr@@a_stream_seq [ACT_STREAM_SEQ] Activation vector streamed
# KERNEL: UVM_INFO /home/runner/accel_axis_act_agent.sv(69) @ 1297500: uvm_test_top.env.act_a.drv [ACT_DRV] Beat 1/2 sent mode=DENSE last=0
# KERNEL: UVM_INFO /home/runner/accel_axis_result_agent.sv(69) @ 1297500: uvm_test_top.env.result_a.mon [RESULT_MON] Result vector captured â€” last=0
# KERNEL: UVM_INFO /home/runner/accel_axis_act_agent.sv(143) @ 1302500: uvm_test_top.env.act_a.mon [ACT_MON] Vector captured a0=1 a1=1 a2=1 a3=1 last=0 mode=DENSE
# KERNEL: UVM_INFO /home/runner/accel_axis_act_agent.sv(69) @ 1302500: uvm_test_top.env.act_a.drv [ACT_DRV] Beat 2/2 sent mode=DENSE last=0
# KERNEL: UVM_INFO /home/runner/accel_sequences.sv(115) @ 1302500: uvm_test_top.env.act_a.seqr@@a_stream_seq [ACT_STREAM_SEQ] Activation vector streamed
# KERNEL: UVM_INFO /home/runner/accel_axis_act_agent.sv(69) @ 1307500: uvm_test_top.env.act_a.drv [ACT_DRV] Beat 1/2 sent mode=DENSE last=0
# KERNEL: UVM_INFO /home/runner/accel_axis_act_agent.sv(143) @ 1312500: uvm_test_top.env.act_a.mon [ACT_MON] Vector captured a0=1 a1=1 a2=1 a3=1 last=0 mode=DENSE
# KERNEL: UVM_INFO /home/runner/accel_axis_act_agent.sv(69) @ 1312500: uvm_test_top.env.act_a.drv [ACT_DRV] Beat 2/2 sent mode=DENSE last=0
# KERNEL: UVM_INFO /home/runner/accel_sequences.sv(115) @ 1312500: uvm_test_top.env.act_a.seqr@@a_stream_seq [ACT_STREAM_SEQ] Activation vector streamed
# KERNEL: UVM_INFO /home/runner/accel_axis_act_agent.sv(69) @ 1317500: uvm_test_top.env.act_a.drv [ACT_DRV] Beat 1/2 sent mode=DENSE last=0
# KERNEL: UVM_INFO /home/runner/accel_axis_result_agent.sv(69) @ 1317500: uvm_test_top.env.result_a.mon [RESULT_MON] Result vector captured â€” last=0
# KERNEL:     Writing PP_SCALE=8 during STREAM state â€” must be accepted without hang
# KERNEL: UVM_INFO /home/runner/accel_axis_act_agent.sv(143) @ 1322500: uvm_test_top.env.act_a.mon [ACT_MON] Vector captured a0=1 a1=1 a2=1 a3=1 last=0 mode=DENSE
# KERNEL: UVM_INFO /home/runner/accel_axis_act_agent.sv(69) @ 1322500: uvm_test_top.env.act_a.drv [ACT_DRV] Beat 2/2 sent mode=DENSE last=0
# KERNEL: UVM_INFO /home/runner/accel_sequences.sv(115) @ 1322500: uvm_test_top.env.act_a.seqr@@a_stream_seq [ACT_STREAM_SEQ] Activation vector streamed
# KERNEL: UVM_INFO /home/runner/accel_axil_agent.sv(56) @ 1322500: uvm_test_top.env.axil_a.drv [axil_csr_drv] WRITE addr=0xb4 data=0x8
# KERNEL: UVM_INFO /home/runner/accel_axis_act_agent.sv(69) @ 1327500: uvm_test_top.env.act_a.drv [ACT_DRV] Beat 1/2 sent mode=DENSE last=0
# KERNEL: UVM_INFO /home/runner/accel_axis_act_agent.sv(143) @ 1332500: uvm_test_top.env.act_a.mon [ACT_MON] Vector captured a0=1 a1=1 a2=1 a3=1 last=0 mode=DENSE
# KERNEL: UVM_INFO /home/runner/accel_axis_act_agent.sv(69) @ 1332500: uvm_test_top.env.act_a.drv [ACT_DRV] Beat 2/2 sent mode=DENSE last=0
# KERNEL: UVM_INFO /home/runner/accel_sequences.sv(115) @ 1332500: uvm_test_top.env.act_a.seqr@@a_stream_seq [ACT_STREAM_SEQ] Activation vector streamed
# KERNEL: UVM_INFO /home/runner/accel_axis_act_agent.sv(69) @ 1337500: uvm_test_top.env.act_a.drv [ACT_DRV] Beat 1/2 sent mode=DENSE last=0
# KERNEL: UVM_INFO /home/runner/accel_axis_result_agent.sv(69) @ 1337500: uvm_test_top.env.result_a.mon [RESULT_MON] Result vector captured â€” last=0
# KERNEL: UVM_INFO /home/runner/accel_axis_act_agent.sv(143) @ 1342500: uvm_test_top.env.act_a.mon [ACT_MON] Vector captured a0=1 a1=1 a2=1 a3=1 last=0 mode=DENSE
# KERNEL: UVM_INFO /home/runner/accel_axis_act_agent.sv(69) @ 1342500: uvm_test_top.env.act_a.drv [ACT_DRV] Beat 2/2 sent mode=DENSE last=0
# KERNEL: UVM_INFO /home/runner/accel_sequences.sv(115) @ 1342500: uvm_test_top.env.act_a.seqr@@a_stream_seq [ACT_STREAM_SEQ] Activation vector streamed
# KERNEL: UVM_INFO /home/runner/accel_axis_act_agent.sv(69) @ 1347500: uvm_test_top.env.act_a.drv [ACT_DRV] Beat 1/2 sent mode=DENSE last=0
# KERNEL: UVM_INFO /home/runner/accel_axil_agent.sv(121) @ 1347500: uvm_test_top.env.axil_a.drv [axil_csr_drv] [CSR] Write Data transaction completed
# KERNEL: UVM_INFO /home/runner/accel_sequences.sv(31) @ 1347500: uvm_test_top.env.axil_a.seqr@@wr_seq [CSR_WRITE_SEQ] Written addr=0xb4 data=0x8
# KERNEL:     PP_SCALE write completed â€” AXI-Lite interface not hung by active compute
# KERNEL: UVM_INFO /home/runner/accel_axis_act_agent.sv(143) @ 1352500: uvm_test_top.env.act_a.mon [ACT_MON] Vector captured a0=1 a1=1 a2=1 a3=1 last=0 mode=DENSE
# KERNEL: UVM_INFO /home/runner/accel_axis_act_agent.sv(69) @ 1352500: uvm_test_top.env.act_a.drv [ACT_DRV] Beat 2/2 sent mode=DENSE last=0
# KERNEL: UVM_INFO /home/runner/accel_sequences.sv(115) @ 1352500: uvm_test_top.env.act_a.seqr@@a_stream_seq [ACT_STREAM_SEQ] Activation vector streamed
# KERNEL: UVM_INFO /home/runner/accel_axis_act_agent.sv(69) @ 1357500: uvm_test_top.env.act_a.drv [ACT_DRV] Beat 1/2 sent mode=DENSE last=0
# KERNEL: UVM_INFO /home/runner/accel_axis_result_agent.sv(69) @ 1357500: uvm_test_top.env.result_a.mon [RESULT_MON] Result vector captured â€” last=0
# KERNEL: UVM_ERROR /home/runner/accel_scoreboard.sv(187) @ 1357500: uvm_test_top.env.sco [SCO] MISMATCH col=0 exp=0x200 got=0x100
# KERNEL: UVM_INFO ./uvm-1.2/src/base/uvm_report_server.svh(869) @ 1357500: reporter [UVM/REPORT/SERVER] 
# KERNEL: --- UVM Report Summary ---
# KERNEL: 
# KERNEL: Quit count reached!
# KERNEL: Quit count :     1 of     1
# KERNEL: ** Report counts by severity
# KERNEL: UVM_INFO :  296
# KERNEL: UVM_WARNING :    0
# KERNEL: UVM_ERROR :    1
# KERNEL: UVM_FATAL :    0
# KERNEL: ** Report counts by id
# KERNEL: [ACT_DRV]   118
# KERNEL: [ACT_MON]    58
# KERNEL: [ACT_STREAM_SEQ]    58
# KERNEL: [CSR_WRITE_SEQ]    10
# KERNEL: [MAXQUITSET]     1
# KERNEL: [RESULT_MON]    12
# KERNEL: [RNTST]     1
# KERNEL: [SCO]    12
# KERNEL: [UVM/RELNOTES]     1
# KERNEL: [WEIGHT_DRV]     2
# KERNEL: [WEIGHT_MON]     2
# KERNEL: [WEIGHT_TILE_SEQ]     1
# KERNEL: [axil_csr_drv]    21
# KERNEL: 
# RUNTIME: Info: RUNTIME_0068 uvm_root.svh (135): $finish called.
# KERNEL: Time: 1357500 ps,  Iteration: 3,  Instance: /\package uvm_1_2.uvm_pkg\/uvm_task_phase,  Process: @INTERNAL#143_0@.
# KERNEL: stopped at time: 1357500 ps
# VSIM: Simulation has finished. There are no more test vectors to simulate.
# ACDB: Covergroup Coverage data has been saved to "coverage/test_063_csr_write_during_compute.acdb" database.
# VSIM: Simulation has finished.
set total [expr {$pass_count + $fail_count}]
# 1
puts "========================================="
# =========================================
puts "         REGRESSION COMPLETE             "
#          REGRESSION COMPLETE             
puts "========================================="
# =========================================
foreach line $result_lines {
    puts "  $line"
}
#   FAIL  test_063_csr_write_during_compute
puts "-----------------------------------------"
# -----------------------------------------
puts "  PASSED : $pass_count / $total"
#   PASSED : 0 / 1
puts "  FAILED : $fail_count / $total"
#   FAILED : 1 / 1
puts "========================================="
# =========================================
if {[llength $acdb_files] > 0} {

    puts ""
    puts "========================================="
    puts "  Merging Coverage ([llength $acdb_files] tests)"
    puts "========================================="

    # ? Correct Aldec acdb merge syntax: -i per file, -o for output
    set merge_cmd "acdb merge -o coverage/merged.acdb"
    foreach f $acdb_files {
        append merge_cmd " -i $f"
    }

    if {[catch {eval $merge_cmd} err]} {
        puts "WARN: Merge failed: $err"
    } else {
        puts "Merged OK: coverage/merged.acdb"

        # ? Correct Aldec report syntax
        if {[catch {
            acdb report -i coverage/merged.acdb -o coverage/merged_report.txt -txt
        } err]} {
            puts "WARN: Report failed: $err"
            puts "Try opening coverage/merged.acdb in Aldec GUI manually"
        } else {
            # Print report to console
            if {[catch {open coverage/merged_report.txt r} fid]} {
                puts "Could not read report file"
            } else {
                puts ""
                puts "========================================="
                puts "     OVERALL COVERAGE SUMMARY            "
                puts "========================================="
                while {[gets $fid line] >= 0} {
                    puts $line
                }
                close $fid
                puts "========================================="
            }
        }
    }

} else {
    puts "No coverage databases found to merge"
}
# 
# =========================================
#   Merging Coverage (1 tests)
# =========================================
# Merged OK: coverage/merged.acdb
# 
# =========================================
#      OVERALL COVERAGE SUMMARY            
# =========================================
# +++++++++++++++++++++++++++++++++++++++++++++
# ++++++++++       REPORT INFO       ++++++++++
# +++++++++++++++++++++++++++++++++++++++++++++
# 
# 
# SUMMARY
# ==============================================================
# |     Property     |                  Value                  |
# ==============================================================
# | User             | runner                                  |
# | Host             | 19e815f6010d                            |
# | Tool             | Riviera-PRO 2025.04                     |
# | Report file      | /home/runner/coverage/merged_report.txt |
# | Report date      | 2026-05-02 11:25                        |
# | Report arguments |                                         |
# | Input file       | /home/runner/coverage/merged.acdb       |
# | Input file date  | 2026-05-02 11:25                        |
# | Number of tests  | 1                                       |
# ==============================================================
# 
# 
# TEST DETAILS
# ==========================================================================================================================
# | Property |                                                    Value                                                    |
# ==========================================================================================================================
# | Test     | test_063_csr_write_during_compute.acdb:test_063_csr_write_during_compute                                    |
# | Status   | Error                                                                                                       |
# | Args     | asim -c work.tb_top +access +r +UVM_TESTNAME=test_063_csr_write_during_compute +UVM_MAX_QUIT_COUNT=1,YES    |
# |          | -acdb_file coverage/test_063_csr_write_during_compute.acdb -l results/test_063_csr_write_during_compute.log |
# | Simtime  | 1357500 ps                                                                                                  |
# | Cputime  | 2.695 s                                                                                                     |
# | Seed     | 1                                                                                                           |
# | Date     | 2026-05-02 11:25                                                                                            |
# | User     | runner                                                                                                      |
# | Host     | 19e815f6010d                                                                                                |
# | Host os  | Linux64                                                                                                     |
# | Tool     | Riviera-PRO 2025.04 (simulator)                                                                             |
# ==========================================================================================================================
# 
# 
# +++++++++++++++++++++++++++++++++++++++++++++
# ++++++++++     DESIGN HIERARCHY    ++++++++++
# +++++++++++++++++++++++++++++++++++++++++++++
# 
# 
# CUMULATIVE SUMMARY
# =============================================
# |    Coverage Type    | Weight | Hits/Total |
# =============================================
# | Covergroup Coverage |      1 |    39.480% |
# |---------------------|--------|------------|
# | Types               |        |      0 / 5 |
# =============================================
# CUMULATIVE INSTANCE-BASED COVERAGE: 39.480%
# COVERED INSTANCES: 0 / 1
# FILES: 1
# 
# 
# CLASS - /accel_coverage_subscriber : work.accel_coverage_subscriber
# 
# 
#     SUMMARY
#     =============================================
#     |    Coverage Type    | Weight | Hits/Total |
#     =============================================
#     | Covergroup Coverage |      1 |    39.480% |
#     |---------------------|--------|------------|
#     | Types               |        |      0 / 5 |
#     =============================================
#     WEIGHTED AVERAGE LOCAL: 39.480%
# 
# 
#     COVERGROUP COVERAGE
#     ===================================================================================
#     |                  Covergroup                   |   Hits   |  Goal /  |  Status   |
#     |                                               |          | At Least |           |
#     ===================================================================================
#     | TYPE /accel_coverage_subscriber/cg_axil       |  46.428% | 100.000% | Uncovered |
#     ===================================================================================
#     | INSTANCE <UNNAMED1>                           |  46.428% | 100.000% | Uncovered |
#     |-----------------------------------------------|----------|----------|-----------|
#     | COVERPOINT <UNNAMED1>::cp_we                  |  50.000% | 100.000% | Uncovered |
#     |-----------------------------------------------|----------|----------|-----------|
#     | bin write                                     |       10 |        1 | Covered   |
#     | bin read                                      |        0 |        1 | Zero      |
#     |-----------------------------------------------|----------|----------|-----------|
#     | COVERPOINT <UNNAMED1>::cp_wdata_lsb           | 100.000% | 100.000% | Covered   |
#     |-----------------------------------------------|----------|----------|-----------|
#     | bin zero                                      |        7 |        1 | Covered   |
#     | bin one                                       |        3 |        1 | Covered   |
#     |-----------------------------------------------|----------|----------|-----------|
#     | COVERPOINT <UNNAMED1>::cp_rdata_lsb           |   0.000% | 100.000% | Zero      |
#     |-----------------------------------------------|----------|----------|-----------|
#     | bin zero                                      |        0 |        1 | Zero      |
#     | bin one                                       |        0 |        1 | Zero      |
#     |-----------------------------------------------|----------|----------|-----------|
#     | COVERPOINT <UNNAMED1>::cp_resp                |  50.000% | 100.000% | Uncovered |
#     |-----------------------------------------------|----------|----------|-----------|
#     | bin okay                                      |       10 |        1 | Covered   |
#     | bin slverr                                    |        0 |        1 | Zero      |
#     |-----------------------------------------------|----------|----------|-----------|
#     | CROSS <UNNAMED1>::cross_we_wdata              | 100.000% | 100.000% | Covered   |
#     |-----------------------------------------------|----------|----------|-----------|
#     | bin <write,zero>                              |        7 |        1 | Covered   |
#     | bin <write,one>                               |        3 |        1 | Covered   |
#     |-----------------------------------------------|----------|----------|-----------|
#     | CROSS <UNNAMED1>::cross_we_rdata              |   0.000% | 100.000% | Zero      |
#     |-----------------------------------------------|----------|----------|-----------|
#     | CROSS <UNNAMED1>::cross_we_resp               |  25.000% | 100.000% | Uncovered |
#     |-----------------------------------------------|----------|----------|-----------|
#     | bin <write,okay>                              |       10 |        1 | Covered   |
#     ===================================================================================
#     | TYPE /accel_coverage_subscriber/cg_weight     |  28.906% | 100.000% | Uncovered |
#     ===================================================================================
#     | INSTANCE <UNNAMED1>                           |  28.906% | 100.000% | Uncovered |
#     |-----------------------------------------------|----------|----------|-----------|
#     | COVERPOINT <UNNAMED1>::cp_sparsity            |  25.000% | 100.000% | Uncovered |
#     |-----------------------------------------------|----------|----------|-----------|
#     | bin dense                                     |        1 |        1 | Covered   |
#     | bin sp_2_4                                    |        0 |        1 | Zero      |
#     | bin sp_1_4                                    |        0 |        1 | Zero      |
#     | bin sp_4_8                                    |        0 |        1 | Zero      |
#     |-----------------------------------------------|----------|----------|-----------|
#     | COVERPOINT <UNNAMED1>::cp_w0_zero             |  50.000% | 100.000% | Uncovered |
#     |-----------------------------------------------|----------|----------|-----------|
#     | bin zero                                      |        0 |        1 | Zero      |
#     | bin non_zero                                  |        1 |        1 | Covered   |
#     |-----------------------------------------------|----------|----------|-----------|
#     | COVERPOINT <UNNAMED1>::cp_w1_zero             |  50.000% | 100.000% | Uncovered |
#     |-----------------------------------------------|----------|----------|-----------|
#     | bin zero                                      |        0 |        1 | Zero      |
#     | bin non_zero                                  |        1 |        1 | Covered   |
#     |-----------------------------------------------|----------|----------|-----------|
#     | COVERPOINT <UNNAMED1>::cp_sparse_mask         |  25.000% | 100.000% | Uncovered |
#     |-----------------------------------------------|----------|----------|-----------|
#     | bin mask_0000                                 |        0 |        1 | Zero      |
#     | bin mask_1111                                 |        1 |        1 | Covered   |
#     | bin mask_1010                                 |        0 |        1 | Zero      |
#     | bin mask_0101                                 |        0 |        1 | Zero      |
#     | default bin others                            |        0 |    -     | Zero      |
#     |-----------------------------------------------|----------|----------|-----------|
#     | COVERPOINT <UNNAMED1>::cp_idx0                |  50.000% | 100.000% | Uncovered |
#     |-----------------------------------------------|----------|----------|-----------|
#     | bin low                                       |        1 |        1 | Covered   |
#     | bin high                                      |        0 |        1 | Zero      |
#     |-----------------------------------------------|----------|----------|-----------|
#     | CROSS <UNNAMED1>::cross_sparsity_w0           |  12.500% | 100.000% | Uncovered |
#     |-----------------------------------------------|----------|----------|-----------|
#     | bin <dense,non_zero>                          |        1 |        1 | Covered   |
#     |-----------------------------------------------|----------|----------|-----------|
#     | CROSS <UNNAMED1>::cross_sparsity_mask         |   6.250% | 100.000% | Uncovered |
#     |-----------------------------------------------|----------|----------|-----------|
#     | bin <dense,mask_1111>                         |        1 |        1 | Covered   |
#     |-----------------------------------------------|----------|----------|-----------|
#     | CROSS <UNNAMED1>::cross_sparsity_idx0         |  12.500% | 100.000% | Uncovered |
#     |-----------------------------------------------|----------|----------|-----------|
#     | bin <dense,low>                               |        1 |        1 | Covered   |
#     ===================================================================================
#     | TYPE /accel_coverage_subscriber/cg_activation |  42.307% | 100.000% | Uncovered |
#     ===================================================================================
#     | INSTANCE <UNNAMED1>                           |  42.307% | 100.000% | Uncovered |
#     |-----------------------------------------------|----------|----------|-----------|
#     | COVERPOINT <UNNAMED1>::cp_mode_dense          |  50.000% | 100.000% | Uncovered |
#     |-----------------------------------------------|----------|----------|-----------|
#     | bin dense                                     |       58 |        1 | Covered   |
#     | bin sparse                                    |        0 |        1 | Zero      |
#     |-----------------------------------------------|----------|----------|-----------|
#     | COVERPOINT <UNNAMED1>::cp_is_last             |  50.000% | 100.000% | Uncovered |
#     |-----------------------------------------------|----------|----------|-----------|
#     | bin last                                      |        0 |        1 | Zero      |
#     | bin not_last                                  |       58 |        1 | Covered   |
#     |-----------------------------------------------|----------|----------|-----------|
#     | COVERPOINT <UNNAMED1>::cp_a0_zero             |  50.000% | 100.000% | Uncovered |
#     |-----------------------------------------------|----------|----------|-----------|
#     | bin zero                                      |        0 |        1 | Zero      |
#     | bin non_zero                                  |       58 |        1 | Covered   |
#     |-----------------------------------------------|----------|----------|-----------|
#     | COVERPOINT <UNNAMED1>::cp_a1_zero             |  50.000% | 100.000% | Uncovered |
#     |-----------------------------------------------|----------|----------|-----------|
#     | bin zero                                      |        0 |        1 | Zero      |
#     | bin non_zero                                  |       58 |        1 | Covered   |
#     |-----------------------------------------------|----------|----------|-----------|
#     | COVERPOINT <UNNAMED1>::cp_a2_zero             |  50.000% | 100.000% | Uncovered |
#     |-----------------------------------------------|----------|----------|-----------|
#     | bin zero                                      |        0 |        1 | Zero      |
#     | bin non_zero                                  |       58 |        1 | Covered   |
#     |-----------------------------------------------|----------|----------|-----------|
#     | COVERPOINT <UNNAMED1>::cp_a3_zero             |  50.000% | 100.000% | Uncovered |
#     |-----------------------------------------------|----------|----------|-----------|
#     | bin zero                                      |        0 |        1 | Zero      |
#     | bin non_zero                                  |       58 |        1 | Covered   |
#     |-----------------------------------------------|----------|----------|-----------|
#     | COVERPOINT <UNNAMED1>::cp_all_zero            |  50.000% | 100.000% | Uncovered |
#     |-----------------------------------------------|----------|----------|-----------|
#     | bin all_zero                                  |        0 |        1 | Zero      |
#     | bin non_zero                                  |       58 |        1 | Covered   |
#     |-----------------------------------------------|----------|----------|-----------|
#     | COVERPOINT <UNNAMED1>::cp_a0_neg              |  50.000% | 100.000% | Uncovered |
#     |-----------------------------------------------|----------|----------|-----------|
#     | bin positive                                  |       58 |        1 | Covered   |
#     | bin negative                                  |        0 |        1 | Zero      |
#     |-----------------------------------------------|----------|----------|-----------|
#     | COVERPOINT <UNNAMED1>::cp_a1_neg              |  50.000% | 100.000% | Uncovered |
#     |-----------------------------------------------|----------|----------|-----------|
#     | bin positive                                  |       58 |        1 | Covered   |
#     | bin negative                                  |        0 |        1 | Zero      |
#     |-----------------------------------------------|----------|----------|-----------|
#     | CROSS <UNNAMED1>::cross_mode_last             |  25.000% | 100.000% | Uncovered |
#     |-----------------------------------------------|----------|----------|-----------|
#     | bin <dense,not_last>                          |       58 |        1 | Covered   |
#     |-----------------------------------------------|----------|----------|-----------|
#     | CROSS <UNNAMED1>::cross_mode_allzero          |  25.000% | 100.000% | Uncovered |
#     |-----------------------------------------------|----------|----------|-----------|
#     | bin <dense,non_zero>                          |       58 |        1 | Covered   |
#     |-----------------------------------------------|----------|----------|-----------|
#     | CROSS <UNNAMED1>::cross_last_allzero          |  25.000% | 100.000% | Uncovered |
#     |-----------------------------------------------|----------|----------|-----------|
#     | bin <not_last,non_zero>                       |       58 |        1 | Covered   |
#     |-----------------------------------------------|----------|----------|-----------|
#     | CROSS <UNNAMED1>::cross_mode_a0sign           |  25.000% | 100.000% | Uncovered |
#     |-----------------------------------------------|----------|----------|-----------|
#     | bin <dense,positive>                          |       58 |        1 | Covered   |
#     ===================================================================================
#     | TYPE /accel_coverage_subscriber/cg_result     |  41.666% | 100.000% | Uncovered |
#     ===================================================================================
#     | INSTANCE <UNNAMED1>                           |  41.666% | 100.000% | Uncovered |
#     |-----------------------------------------------|----------|----------|-----------|
#     | COVERPOINT <UNNAMED1>::cp_is_last             |  50.000% | 100.000% | Uncovered |
#     |-----------------------------------------------|----------|----------|-----------|
#     | bin last                                      |        0 |        1 | Zero      |
#     | bin not_last                                  |       12 |        1 | Covered   |
#     |-----------------------------------------------|----------|----------|-----------|
#     | COVERPOINT <UNNAMED1>::cp_result0_zero        |  50.000% | 100.000% | Uncovered |
#     |-----------------------------------------------|----------|----------|-----------|
#     | bin zero                                      |        0 |        1 | Zero      |
#     | bin non_zero                                  |       12 |        1 | Covered   |
#     |-----------------------------------------------|----------|----------|-----------|
#     | COVERPOINT <UNNAMED1>::cp_result_last_zero    |  50.000% | 100.000% | Uncovered |
#     |-----------------------------------------------|----------|----------|-----------|
#     | bin zero                                      |        0 |        1 | Zero      |
#     | bin non_zero                                  |       12 |        1 | Covered   |
#     |-----------------------------------------------|----------|----------|-----------|
#     | COVERPOINT <UNNAMED1>::cp_result0_neg         |  50.000% | 100.000% | Uncovered |
#     |-----------------------------------------------|----------|----------|-----------|
#     | bin positive                                  |       12 |        1 | Covered   |
#     | bin negative                                  |        0 |        1 | Zero      |
#     |-----------------------------------------------|----------|----------|-----------|
#     | CROSS <UNNAMED1>::cross_last_zero             |  25.000% | 100.000% | Uncovered |
#     |-----------------------------------------------|----------|----------|-----------|
#     | bin <not_last,non_zero>                       |       12 |        1 | Covered   |
#     |-----------------------------------------------|----------|----------|-----------|
#     | CROSS <UNNAMED1>::cross_last_neg              |  25.000% | 100.000% | Uncovered |
#     |-----------------------------------------------|----------|----------|-----------|
#     | bin <not_last,positive>                       |       12 |        1 | Covered   |
#     ===================================================================================
#     | TYPE /accel_coverage_subscriber/cg_fsm        |  38.095% | 100.000% | Uncovered |
#     ===================================================================================
#     | INSTANCE <UNNAMED1>                           |  38.095% | 100.000% | Uncovered |
#     |-----------------------------------------------|----------|----------|-----------|
#     | COVERPOINT <UNNAMED1>::cp_state               |  42.857% | 100.000% | Uncovered |
#     |-----------------------------------------------|----------|----------|-----------|
#     | bin idle                                      |      138 |        1 | Covered   |
#     | bin load                                      |       16 |        1 | Covered   |
#     | bin stream                                    |      118 |        1 | Covered   |
#     | bin drain                                     |        0 |        1 | Zero      |
#     | bin done_st                                   |        0 |        1 | Zero      |
#     | bin error                                     |        0 |        1 | Zero      |
#     | bin recovery                                  |        0 |        1 | Zero      |
#     |-----------------------------------------------|----------|----------|-----------|
#     | COVERPOINT <UNNAMED1>::cp_mode                |  50.000% | 100.000% | Uncovered |
#     |-----------------------------------------------|----------|----------|-----------|
#     | bin dense                                     |      272 |        1 | Covered   |
#     | bin sparse                                    |        0 |        1 | Zero      |
#     |-----------------------------------------------|----------|----------|-----------|
#     | CROSS <UNNAMED1>::cross_state_mode            |  21.428% | 100.000% | Uncovered |
#     |-----------------------------------------------|----------|----------|-----------|
#     | bin <idle,dense>                              |      138 |        1 | Covered   |
#     | bin <load,dense>                              |       16 |        1 | Covered   |
#     | bin <stream,dense>                            |      118 |        1 | Covered   |
#     ===================================================================================
# 
# 
# +++++++++++++++++++++++++++++++++++++++++++++
# ++++++++++       DESIGN UNITS      ++++++++++
# +++++++++++++++++++++++++++++++++++++++++++++
# 
# 
# CUMULATIVE SUMMARY
# =============================================
# |    Coverage Type    | Weight | Hits/Total |
# =============================================
# | Covergroup Coverage |      1 |    39.480% |
# |---------------------|--------|------------|
# | Types               |        |      0 / 5 |
# =============================================
# CUMULATIVE DESIGN-BASED COVERAGE: 39.480%
# COVERED DESIGN UNITS: 0 / 1
# FILES: 1
# 
# 
# CLASS - work.accel_coverage_subscriber
# 
# 
#     SUMMARY
#     =============================================
#     |    Coverage Type    | Weight | Hits/Total |
#     =============================================
#     | Covergroup Coverage |      1 |    39.480% |
#     |---------------------|--------|------------|
#     | Types               |        |      0 / 5 |
#     =============================================
#     WEIGHTED AVERAGE: 39.480%
# 
# 
#     COVERGROUP COVERAGE
#     ===================================================================================
#     |                  Covergroup                   |   Hits   |  Goal /  |  Status   |
#     |                                               |          | At Least |           |
#     ===================================================================================
#     | TYPE /accel_coverage_subscriber/cg_axil       |  46.428% | 100.000% | Uncovered |
#     ===================================================================================
#     | INSTANCE <UNNAMED1>                           |  46.428% | 100.000% | Uncovered |
#     |-----------------------------------------------|----------|----------|-----------|
#     | COVERPOINT <UNNAMED1>::cp_we                  |  50.000% | 100.000% | Uncovered |
#     |-----------------------------------------------|----------|----------|-----------|
#     | bin write                                     |       10 |        1 | Covered   |
#     | bin read                                      |        0 |        1 | Zero      |
#     |-----------------------------------------------|----------|----------|-----------|
#     | COVERPOINT <UNNAMED1>::cp_wdata_lsb           | 100.000% | 100.000% | Covered   |
#     |-----------------------------------------------|----------|----------|-----------|
#     | bin zero                                      |        7 |        1 | Covered   |
#     | bin one                                       |        3 |        1 | Covered   |
#     |-----------------------------------------------|----------|----------|-----------|
#     | COVERPOINT <UNNAMED1>::cp_rdata_lsb           |   0.000% | 100.000% | Zero      |
#     |-----------------------------------------------|----------|----------|-----------|
#     | bin zero                                      |        0 |        1 | Zero      |
#     | bin one                                       |        0 |        1 | Zero      |
#     |-----------------------------------------------|----------|----------|-----------|
#     | COVERPOINT <UNNAMED1>::cp_resp                |  50.000% | 100.000% | Uncovered |
#     |-----------------------------------------------|----------|----------|-----------|
#     | bin okay                                      |       10 |        1 | Covered   |
#     | bin slverr                                    |        0 |        1 | Zero      |
#     |-----------------------------------------------|----------|----------|-----------|
#     | CROSS <UNNAMED1>::cross_we_wdata              | 100.000% | 100.000% | Covered   |
#     |-----------------------------------------------|----------|----------|-----------|
#     | bin <write,zero>                              |        7 |        1 | Covered   |
#     | bin <write,one>                               |        3 |        1 | Covered   |
#     |-----------------------------------------------|----------|----------|-----------|
#     | CROSS <UNNAMED1>::cross_we_rdata              |   0.000% | 100.000% | Zero      |
#     |-----------------------------------------------|----------|----------|-----------|
#     | CROSS <UNNAMED1>::cross_we_resp               |  25.000% | 100.000% | Uncovered |
#     |-----------------------------------------------|----------|----------|-----------|
#     | bin <write,okay>                              |       10 |        1 | Covered   |
#     ===================================================================================
#     | TYPE /accel_coverage_subscriber/cg_weight     |  28.906% | 100.000% | Uncovered |
#     ===================================================================================
#     | INSTANCE <UNNAMED1>                           |  28.906% | 100.000% | Uncovered |
#     |-----------------------------------------------|----------|----------|-----------|
#     | COVERPOINT <UNNAMED1>::cp_sparsity            |  25.000% | 100.000% | Uncovered |
#     |-----------------------------------------------|----------|----------|-----------|
#     | bin dense                                     |        1 |        1 | Covered   |
#     | bin sp_2_4                                    |        0 |        1 | Zero      |
#     | bin sp_1_4                                    |        0 |        1 | Zero      |
#     | bin sp_4_8                                    |        0 |        1 | Zero      |
#     |-----------------------------------------------|----------|----------|-----------|
#     | COVERPOINT <UNNAMED1>::cp_w0_zero             |  50.000% | 100.000% | Uncovered |
#     |-----------------------------------------------|----------|----------|-----------|
#     | bin zero                                      |        0 |        1 | Zero      |
#     | bin non_zero                                  |        1 |        1 | Covered   |
#     |-----------------------------------------------|----------|----------|-----------|
#     | COVERPOINT <UNNAMED1>::cp_w1_zero             |  50.000% | 100.000% | Uncovered |
#     |-----------------------------------------------|----------|----------|-----------|
#     | bin zero                                      |        0 |        1 | Zero      |
#     | bin non_zero                                  |        1 |        1 | Covered   |
#     |-----------------------------------------------|----------|----------|-----------|
#     | COVERPOINT <UNNAMED1>::cp_sparse_mask         |  25.000% | 100.000% | Uncovered |
#     |-----------------------------------------------|----------|----------|-----------|
#     | bin mask_0000                                 |        0 |        1 | Zero      |
#     | bin mask_1111                                 |        1 |        1 | Covered   |
#     | bin mask_1010                                 |        0 |        1 | Zero      |
#     | bin mask_0101                                 |        0 |        1 | Zero      |
#     | default bin others                            |        0 |    -     | Zero      |
#     |-----------------------------------------------|----------|----------|-----------|
#     | COVERPOINT <UNNAMED1>::cp_idx0                |  50.000% | 100.000% | Uncovered |
#     |-----------------------------------------------|----------|----------|-----------|
#     | bin low                                       |        1 |        1 | Covered   |
#     | bin high                                      |        0 |        1 | Zero      |
#     |-----------------------------------------------|----------|----------|-----------|
#     | CROSS <UNNAMED1>::cross_sparsity_w0           |  12.500% | 100.000% | Uncovered |
#     |-----------------------------------------------|----------|----------|-----------|
#     | bin <dense,non_zero>                          |        1 |        1 | Covered   |
#     |-----------------------------------------------|----------|----------|-----------|
#     | CROSS <UNNAMED1>::cross_sparsity_mask         |   6.250% | 100.000% | Uncovered |
#     |-----------------------------------------------|----------|----------|-----------|
#     | bin <dense,mask_1111>                         |        1 |        1 | Covered   |
#     |-----------------------------------------------|----------|----------|-----------|
#     | CROSS <UNNAMED1>::cross_sparsity_idx0         |  12.500% | 100.000% | Uncovered |
#     |-----------------------------------------------|----------|----------|-----------|
#     | bin <dense,low>                               |        1 |        1 | Covered   |
#     ===================================================================================
#     | TYPE /accel_coverage_subscriber/cg_activation |  42.307% | 100.000% | Uncovered |
#     ===================================================================================
#     | INSTANCE <UNNAMED1>                           |  42.307% | 100.000% | Uncovered |
#     |-----------------------------------------------|----------|----------|-----------|
#     | COVERPOINT <UNNAMED1>::cp_mode_dense          |  50.000% | 100.000% | Uncovered |
#     |-----------------------------------------------|----------|----------|-----------|
#     | bin dense                                     |       58 |        1 | Covered   |
#     | bin sparse                                    |        0 |        1 | Zero      |
#     |-----------------------------------------------|----------|----------|-----------|
#     | COVERPOINT <UNNAMED1>::cp_is_last             |  50.000% | 100.000% | Uncovered |
#     |-----------------------------------------------|----------|----------|-----------|
#     | bin last                                      |        0 |        1 | Zero      |
#     | bin not_last                                  |       58 |        1 | Covered   |
#     |-----------------------------------------------|----------|----------|-----------|
#     | COVERPOINT <UNNAMED1>::cp_a0_zero             |  50.000% | 100.000% | Uncovered |
#     |-----------------------------------------------|----------|----------|-----------|
#     | bin zero                                      |        0 |        1 | Zero      |
#     | bin non_zero                                  |       58 |        1 | Covered   |
#     |-----------------------------------------------|----------|----------|-----------|
#     | COVERPOINT <UNNAMED1>::cp_a1_zero             |  50.000% | 100.000% | Uncovered |
#     |-----------------------------------------------|----------|----------|-----------|
#     | bin zero                                      |        0 |        1 | Zero      |
#     | bin non_zero                                  |       58 |        1 | Covered   |
#     |-----------------------------------------------|----------|----------|-----------|
#     | COVERPOINT <UNNAMED1>::cp_a2_zero             |  50.000% | 100.000% | Uncovered |
#     |-----------------------------------------------|----------|----------|-----------|
#     | bin zero                                      |        0 |        1 | Zero      |
#     | bin non_zero                                  |       58 |        1 | Covered   |
#     |-----------------------------------------------|----------|----------|-----------|
#     | COVERPOINT <UNNAMED1>::cp_a3_zero             |  50.000% | 100.000% | Uncovered |
#     |-----------------------------------------------|----------|----------|-----------|
#     | bin zero                                      |        0 |        1 | Zero      |
#     | bin non_zero                                  |       58 |        1 | Covered   |
#     |-----------------------------------------------|----------|----------|-----------|
#     | COVERPOINT <UNNAMED1>::cp_all_zero            |  50.000% | 100.000% | Uncovered |
#     |-----------------------------------------------|----------|----------|-----------|
#     | bin all_zero                                  |        0 |        1 | Zero      |
#     | bin non_zero                                  |       58 |        1 | Covered   |
#     |-----------------------------------------------|----------|----------|-----------|
#     | COVERPOINT <UNNAMED1>::cp_a0_neg              |  50.000% | 100.000% | Uncovered |
#     |-----------------------------------------------|----------|----------|-----------|
#     | bin positive                                  |       58 |        1 | Covered   |
#     | bin negative                                  |        0 |        1 | Zero      |
#     |-----------------------------------------------|----------|----------|-----------|
#     | COVERPOINT <UNNAMED1>::cp_a1_neg              |  50.000% | 100.000% | Uncovered |
#     |-----------------------------------------------|----------|----------|-----------|
#     | bin positive                                  |       58 |        1 | Covered   |
#     | bin negative                                  |        0 |        1 | Zero      |
#     |-----------------------------------------------|----------|----------|-----------|
#     | CROSS <UNNAMED1>::cross_mode_last             |  25.000% | 100.000% | Uncovered |
#     |-----------------------------------------------|----------|----------|-----------|
#     | bin <dense,not_last>                          |       58 |        1 | Covered   |
#     |-----------------------------------------------|----------|----------|-----------|
#     | CROSS <UNNAMED1>::cross_mode_allzero          |  25.000% | 100.000% | Uncovered |
#     |-----------------------------------------------|----------|----------|-----------|
#     | bin <dense,non_zero>                          |       58 |        1 | Covered   |
#     |-----------------------------------------------|----------|----------|-----------|
#     | CROSS <UNNAMED1>::cross_last_allzero          |  25.000% | 100.000% | Uncovered |
#     |-----------------------------------------------|----------|----------|-----------|
#     | bin <not_last,non_zero>                       |       58 |        1 | Covered   |
#     |-----------------------------------------------|----------|----------|-----------|
#     | CROSS <UNNAMED1>::cross_mode_a0sign           |  25.000% | 100.000% | Uncovered |
#     |-----------------------------------------------|----------|----------|-----------|
#     | bin <dense,positive>                          |       58 |        1 | Covered   |
#     ===================================================================================
#     | TYPE /accel_coverage_subscriber/cg_result     |  41.666% | 100.000% | Uncovered |
#     ===================================================================================
#     | INSTANCE <UNNAMED1>                           |  41.666% | 100.000% | Uncovered |
#     |-----------------------------------------------|----------|----------|-----------|
#     | COVERPOINT <UNNAMED1>::cp_is_last             |  50.000% | 100.000% | Uncovered |
#     |-----------------------------------------------|----------|----------|-----------|
#     | bin last                                      |        0 |        1 | Zero      |
#     | bin not_last                                  |       12 |        1 | Covered   |
#     |-----------------------------------------------|----------|----------|-----------|
#     | COVERPOINT <UNNAMED1>::cp_result0_zero        |  50.000% | 100.000% | Uncovered |
#     |-----------------------------------------------|----------|----------|-----------|
#     | bin zero                                      |        0 |        1 | Zero      |
#     | bin non_zero                                  |       12 |        1 | Covered   |
#     |-----------------------------------------------|----------|----------|-----------|
#     | COVERPOINT <UNNAMED1>::cp_result_last_zero    |  50.000% | 100.000% | Uncovered |
#     |-----------------------------------------------|----------|----------|-----------|
#     | bin zero                                      |        0 |        1 | Zero      |
#     | bin non_zero                                  |       12 |        1 | Covered   |
#     |-----------------------------------------------|----------|----------|-----------|
#     | COVERPOINT <UNNAMED1>::cp_result0_neg         |  50.000% | 100.000% | Uncovered |
#     |-----------------------------------------------|----------|----------|-----------|
#     | bin positive                                  |       12 |        1 | Covered   |
#     | bin negative                                  |        0 |        1 | Zero      |
#     |-----------------------------------------------|----------|----------|-----------|
#     | CROSS <UNNAMED1>::cross_last_zero             |  25.000% | 100.000% | Uncovered |
#     |-----------------------------------------------|----------|----------|-----------|
#     | bin <not_last,non_zero>                       |       12 |        1 | Covered   |
#     |-----------------------------------------------|----------|----------|-----------|
#     | CROSS <UNNAMED1>::cross_last_neg              |  25.000% | 100.000% | Uncovered |
#     |-----------------------------------------------|----------|----------|-----------|
#     | bin <not_last,positive>                       |       12 |        1 | Covered   |
#     ===================================================================================
#     | TYPE /accel_coverage_subscriber/cg_fsm        |  38.095% | 100.000% | Uncovered |
#     ===================================================================================
#     | INSTANCE <UNNAMED1>                           |  38.095% | 100.000% | Uncovered |
#     |-----------------------------------------------|----------|----------|-----------|
#     | COVERPOINT <UNNAMED1>::cp_state               |  42.857% | 100.000% | Uncovered |
#     |-----------------------------------------------|----------|----------|-----------|
#     | bin idle                                      |      138 |        1 | Covered   |
#     | bin load                                      |       16 |        1 | Covered   |
#     | bin stream                                    |      118 |        1 | Covered   |
#     | bin drain                                     |        0 |        1 | Zero      |
#     | bin done_st                                   |        0 |        1 | Zero      |
#     | bin error                                     |        0 |        1 | Zero      |
#     | bin recovery                                  |        0 |        1 | Zero      |
#     |-----------------------------------------------|----------|----------|-----------|
#     | COVERPOINT <UNNAMED1>::cp_mode                |  50.000% | 100.000% | Uncovered |
#     |-----------------------------------------------|----------|----------|-----------|
#     | bin dense                                     |      272 |        1 | Covered   |
#     | bin sparse                                    |        0 |        1 | Zero      |
#     |-----------------------------------------------|----------|----------|-----------|
#     | CROSS <UNNAMED1>::cross_state_mode            |  21.428% | 100.000% | Uncovered |
#     |-----------------------------------------------|----------|----------|-----------|
#     | bin <idle,dense>                              |      138 |        1 | Covered   |
#     | bin <load,dense>                              |       16 |        1 | Covered   |
#     | bin <stream,dense>                            |      118 |        1 | Covered   |
#     ===================================================================================
# 
# 
# =========================================
Done