# KERNEL: UVM_INFO @ 0: reporter [RNTST] Running test test_018_dense_32vectors...
# KERNEL: UVM_INFO /home/runner/accel_scoreboard.sv(230) @ 0: uvm_test_top.env.sco [SCO] Queues flushed
# KERNEL: ===================================================Test_018 : Dense 32 Vectors - Start=================================================================
# KERNEL:                 Step 1 : Soft Reset + Clear                 
# KERNEL: UVM_INFO /home/runner/accel_axil_agent.sv(42) @ 102500: uvm_test_top.env.axil_a.drv [axil_csr_drv] DUT RESET COMPLETED
# KERNEL: =========================================================================================================================================
# KERNEL: UVM_INFO /home/runner/accel_axis_weight_agent.sv(35) @ 102500: uvm_test_top.env.weight_a.drv [WEIGHT_DRV] Reset done
# KERNEL: =========================================================================================================================================
# KERNEL: UVM_INFO /home/runner/accel_axis_act_agent.sv(35) @ 102500: uvm_test_top.env.act_a.drv [ACT_DRV] Reset done
# KERNEL: =========================================================================================================================================
# KERNEL: UVM_INFO /home/runner/accel_axil_agent.sv(56) @ 102500: uvm_test_top.env.axil_a.drv [axil_csr_drv] WRITE addr=0x0 data=0x48
# KERNEL: UVM_INFO /home/runner/accel_scoreboard.sv(71) @ 127500: uvm_test_top.env.sco [SCO] WRITE addr=0x0 data=0x48
# KERNEL: UVM_INFO /home/runner/accel_axil_agent.sv(121) @ 127500: uvm_test_top.env.axil_a.drv [axil_csr_drv] [CSR] Write Data transaction completed
# KERNEL: UVM_INFO /home/runner/accel_sequences.sv(31) @ 127500: uvm_test_top.env.axil_a.seqr@@wr_seq [CSR_WRITE_SEQ] Written addr=0x0 data=0x48
# KERNEL: UVM_INFO /home/runner/accel_axil_agent.sv(56) @ 177500: uvm_test_top.env.axil_a.drv [axil_csr_drv] WRITE addr=0x0 data=0x8
# KERNEL: UVM_INFO /home/runner/accel_scoreboard.sv(71) @ 202500: uvm_test_top.env.sco [SCO] WRITE addr=0x0 data=0x8
# KERNEL: UVM_INFO /home/runner/accel_axil_agent.sv(121) @ 202500: uvm_test_top.env.axil_a.drv [axil_csr_drv] [CSR] Write Data transaction completed
# KERNEL: UVM_INFO /home/runner/accel_sequences.sv(31) @ 202500: uvm_test_top.env.axil_a.seqr@@wr_seq [CSR_WRITE_SEQ] Written addr=0x0 data=0x8
# KERNEL:                 Step 2 : Configure  CSR_TILE_CFG, CSR_ACT_TILE_CFG, CSR_SPARSITY, CSR_CTRL              
# KERNEL: UVM_INFO /home/runner/accel_axil_agent.sv(56) @ 227500: uvm_test_top.env.axil_a.drv [axil_csr_drv] WRITE addr=0x8 data=0x10020
# KERNEL: UVM_INFO /home/runner/accel_scoreboard.sv(71) @ 252500: uvm_test_top.env.sco [SCO] WRITE addr=0x8 data=0x10020
# KERNEL: UVM_INFO /home/runner/accel_axil_agent.sv(121) @ 252500: uvm_test_top.env.axil_a.drv [axil_csr_drv] [CSR] Write Data transaction completed
# KERNEL: UVM_INFO /home/runner/accel_sequences.sv(31) @ 252500: uvm_test_top.env.axil_a.seqr@@wr_seq [CSR_WRITE_SEQ] Written addr=0x8 data=0x10020
# KERNEL: UVM_INFO /home/runner/accel_axil_agent.sv(56) @ 257500: uvm_test_top.env.axil_a.drv [axil_csr_drv] WRITE addr=0xe4 data=0x10000
# KERNEL: UVM_INFO /home/runner/accel_scoreboard.sv(71) @ 282500: uvm_test_top.env.sco [SCO] WRITE addr=0xe4 data=0x10000
# KERNEL: UVM_INFO /home/runner/accel_axil_agent.sv(121) @ 282500: uvm_test_top.env.axil_a.drv [axil_csr_drv] [CSR] Write Data transaction completed
# KERNEL: UVM_INFO /home/runner/accel_sequences.sv(31) @ 282500: uvm_test_top.env.axil_a.seqr@@wr_seq [CSR_WRITE_SEQ] Written addr=0xe4 data=0x10000
# KERNEL: UVM_INFO /home/runner/accel_axil_agent.sv(56) @ 287500: uvm_test_top.env.axil_a.drv [axil_csr_drv] WRITE addr=0xc data=0x1
# KERNEL: UVM_INFO /home/runner/accel_scoreboard.sv(71) @ 312500: uvm_test_top.env.sco [SCO] WRITE addr=0xc data=0x1
# KERNEL: UVM_INFO /home/runner/accel_axil_agent.sv(121) @ 312500: uvm_test_top.env.axil_a.drv [axil_csr_drv] [CSR] Write Data transaction completed
# KERNEL: UVM_INFO /home/runner/accel_sequences.sv(31) @ 312500: uvm_test_top.env.axil_a.seqr@@wr_seq [CSR_WRITE_SEQ] Written addr=0xc data=0x1
# KERNEL: UVM_INFO /home/runner/accel_axil_agent.sv(56) @ 317500: uvm_test_top.env.axil_a.drv [axil_csr_drv] WRITE addr=0x0 data=0x1
# KERNEL: UVM_INFO /home/runner/accel_scoreboard.sv(71) @ 342500: uvm_test_top.env.sco [SCO] WRITE addr=0x0 data=0x1
# KERNEL: UVM_INFO /home/runner/accel_axil_agent.sv(121) @ 342500: uvm_test_top.env.axil_a.drv [axil_csr_drv] [CSR] Write Data transaction completed
# KERNEL: UVM_INFO /home/runner/accel_sequences.sv(31) @ 342500: uvm_test_top.env.axil_a.seqr@@wr_seq [CSR_WRITE_SEQ] Written addr=0x0 data=0x1
# KERNEL:                 Step 3 : Stream weights                 
# KERNEL: UVM_INFO /home/runner/accel_axis_weight_agent.sv(179) @ 607500: uvm_test_top.env.weight_a.mon [WEIGHT_MON] w0[0]=1 w1[0]=1 idx0[0]=0 idx1[0]=1
# KERNEL: UVM_INFO /home/runner/accel_axis_weight_agent.sv(180) @ 607500: uvm_test_top.env.weight_a.mon [WEIGHT_MON] Weight tile captured
# KERNEL: UVM_INFO /home/runner/accel_scoreboard.sv(120) @ 607500: uvm_test_top.env.sco [SCO] Weight tile stored â€” queue=1
# KERNEL: UVM_INFO /home/runner/accel_axis_weight_agent.sv(101) @ 607500: uvm_test_top.env.weight_a.drv [WEIGHT_DRV] Tile complete
# KERNEL: UVM_INFO /home/runner/accel_sequences.sv(89) @ 607500: uvm_test_top.env.weight_a.seqr@@w_tile_seq [WEIGHT_TILE_SEQ] Weight tile streamed
# KERNEL:                 Step 4 : Enable + Start                 
# KERNEL: UVM_INFO /home/runner/accel_axil_agent.sv(56) @ 622500: uvm_test_top.env.axil_a.drv [axil_csr_drv] WRITE addr=0x0 data=0x3
# KERNEL: UVM_INFO /home/runner/accel_scoreboard.sv(71) @ 647500: uvm_test_top.env.sco [SCO] WRITE addr=0x0 data=0x3
# KERNEL: UVM_INFO /home/runner/accel_axil_agent.sv(121) @ 647500: uvm_test_top.env.axil_a.drv [axil_csr_drv] [CSR] Write Data transaction completed
# KERNEL: UVM_INFO /home/runner/accel_sequences.sv(31) @ 647500: uvm_test_top.env.axil_a.seqr@@wr_seq [CSR_WRITE_SEQ] Written addr=0x0 data=0x3
# KERNEL:                 Step 5 : Stream activations (one per vector)                 
# KERNEL: UVM_INFO /home/runner/accel_axis_act_agent.sv(69) @ 737500: uvm_test_top.env.act_a.drv [ACT_DRV] Beat 1/2 sent mode=DENSE last=0
# KERNEL: UVM_INFO /home/runner/accel_scoreboard.sv(130) @ 742500: uvm_test_top.env.sco [SCO] Act vector stored â€” queue=1
# KERNEL: UVM_INFO /home/runner/accel_axis_act_agent.sv(143) @ 742500: uvm_test_top.env.act_a.mon [ACT_MON] Vector captured a0=3 a1=3 a2=3 a3=3 last=0 mode=DENSE
# KERNEL: UVM_INFO /home/runner/accel_axis_act_agent.sv(69) @ 742500: uvm_test_top.env.act_a.drv [ACT_DRV] Beat 2/2 sent mode=DENSE last=0
# KERNEL: UVM_INFO /home/runner/accel_sequences.sv(115) @ 742500: uvm_test_top.env.act_a.seqr@@a_stream_seq [ACT_STREAM_SEQ] Activation vector streamed
# KERNEL: UVM_INFO /home/runner/accel_axis_act_agent.sv(69) @ 747500: uvm_test_top.env.act_a.drv [ACT_DRV] Beat 1/2 sent mode=DENSE last=0
# KERNEL: UVM_INFO /home/runner/accel_scoreboard.sv(130) @ 752500: uvm_test_top.env.sco [SCO] Act vector stored â€” queue=2
# KERNEL: UVM_INFO /home/runner/accel_axis_act_agent.sv(143) @ 752500: uvm_test_top.env.act_a.mon [ACT_MON] Vector captured a0=3 a1=3 a2=3 a3=3 last=0 mode=DENSE
# KERNEL: UVM_INFO /home/runner/accel_axis_act_agent.sv(69) @ 752500: uvm_test_top.env.act_a.drv [ACT_DRV] Beat 2/2 sent mode=DENSE last=0
# KERNEL: UVM_INFO /home/runner/accel_sequences.sv(115) @ 752500: uvm_test_top.env.act_a.seqr@@a_stream_seq [ACT_STREAM_SEQ] Activation vector streamed
# KERNEL: UVM_INFO /home/runner/accel_axis_act_agent.sv(69) @ 757500: uvm_test_top.env.act_a.drv [ACT_DRV] Beat 1/2 sent mode=DENSE last=0
# KERNEL: UVM_INFO /home/runner/accel_scoreboard.sv(130) @ 762500: uvm_test_top.env.sco [SCO] Act vector stored â€” queue=3
# KERNEL: UVM_INFO /home/runner/accel_axis_act_agent.sv(143) @ 762500: uvm_test_top.env.act_a.mon [ACT_MON] Vector captured a0=3 a1=3 a2=3 a3=3 last=0 mode=DENSE
# KERNEL: UVM_INFO /home/runner/accel_axis_act_agent.sv(69) @ 762500: uvm_test_top.env.act_a.drv [ACT_DRV] Beat 2/2 sent mode=DENSE last=0
# KERNEL: UVM_INFO /home/runner/accel_sequences.sv(115) @ 762500: uvm_test_top.env.act_a.seqr@@a_stream_seq [ACT_STREAM_SEQ] Activation vector streamed
# KERNEL: UVM_INFO /home/runner/accel_axis_act_agent.sv(69) @ 767500: uvm_test_top.env.act_a.drv [ACT_DRV] Beat 1/2 sent mode=DENSE last=0
# KERNEL: UVM_INFO /home/runner/accel_scoreboard.sv(130) @ 772500: uvm_test_top.env.sco [SCO] Act vector stored â€” queue=4
# KERNEL: UVM_INFO /home/runner/accel_axis_act_agent.sv(143) @ 772500: uvm_test_top.env.act_a.mon [ACT_MON] Vector captured a0=3 a1=3 a2=3 a3=3 last=0 mode=DENSE
# KERNEL: UVM_INFO /home/runner/accel_axis_act_agent.sv(69) @ 772500: uvm_test_top.env.act_a.drv [ACT_DRV] Beat 2/2 sent mode=DENSE last=0
# KERNEL: UVM_INFO /home/runner/accel_sequences.sv(115) @ 772500: uvm_test_top.env.act_a.seqr@@a_stream_seq [ACT_STREAM_SEQ] Activation vector streamed
# KERNEL: UVM_INFO /home/runner/accel_axis_act_agent.sv(69) @ 777500: uvm_test_top.env.act_a.drv [ACT_DRV] Beat 1/2 sent mode=DENSE last=0
# KERNEL: UVM_INFO /home/runner/accel_scoreboard.sv(130) @ 782500: uvm_test_top.env.sco [SCO] Act vector stored â€” queue=5
# KERNEL: UVM_INFO /home/runner/accel_axis_act_agent.sv(143) @ 782500: uvm_test_top.env.act_a.mon [ACT_MON] Vector captured a0=3 a1=3 a2=3 a3=3 last=0 mode=DENSE
# KERNEL: UVM_INFO /home/runner/accel_axis_act_agent.sv(69) @ 782500: uvm_test_top.env.act_a.drv [ACT_DRV] Beat 2/2 sent mode=DENSE last=0
# KERNEL: UVM_INFO /home/runner/accel_sequences.sv(115) @ 782500: uvm_test_top.env.act_a.seqr@@a_stream_seq [ACT_STREAM_SEQ] Activation vector streamed
# KERNEL: UVM_INFO /home/runner/accel_axis_act_agent.sv(69) @ 787500: uvm_test_top.env.act_a.drv [ACT_DRV] Beat 1/2 sent mode=DENSE last=0
# KERNEL: UVM_INFO /home/runner/accel_scoreboard.sv(130) @ 792500: uvm_test_top.env.sco [SCO] Act vector stored â€” queue=6
# KERNEL: UVM_INFO /home/runner/accel_axis_act_agent.sv(143) @ 792500: uvm_test_top.env.act_a.mon [ACT_MON] Vector captured a0=3 a1=3 a2=3 a3=3 last=0 mode=DENSE
# KERNEL: UVM_INFO /home/runner/accel_axis_act_agent.sv(69) @ 792500: uvm_test_top.env.act_a.drv [ACT_DRV] Beat 2/2 sent mode=DENSE last=0
# KERNEL: UVM_INFO /home/runner/accel_sequences.sv(115) @ 792500: uvm_test_top.env.act_a.seqr@@a_stream_seq [ACT_STREAM_SEQ] Activation vector streamed
# KERNEL: UVM_INFO /home/runner/accel_axis_act_agent.sv(69) @ 797500: uvm_test_top.env.act_a.drv [ACT_DRV] Beat 1/2 sent mode=DENSE last=0
# KERNEL: UVM_INFO /home/runner/accel_scoreboard.sv(130) @ 802500: uvm_test_top.env.sco [SCO] Act vector stored â€” queue=7
# KERNEL: UVM_INFO /home/runner/accel_axis_act_agent.sv(143) @ 802500: uvm_test_top.env.act_a.mon [ACT_MON] Vector captured a0=3 a1=3 a2=3 a3=3 last=0 mode=DENSE
# KERNEL: UVM_INFO /home/runner/accel_axis_act_agent.sv(69) @ 802500: uvm_test_top.env.act_a.drv [ACT_DRV] Beat 2/2 sent mode=DENSE last=0
# KERNEL: UVM_INFO /home/runner/accel_sequences.sv(115) @ 802500: uvm_test_top.env.act_a.seqr@@a_stream_seq [ACT_STREAM_SEQ] Activation vector streamed
# KERNEL: UVM_INFO /home/runner/accel_axis_act_agent.sv(69) @ 807500: uvm_test_top.env.act_a.drv [ACT_DRV] Beat 1/2 sent mode=DENSE last=0
# KERNEL: UVM_INFO /home/runner/accel_scoreboard.sv(130) @ 812500: uvm_test_top.env.sco [SCO] Act vector stored â€” queue=8
# KERNEL: UVM_INFO /home/runner/accel_axis_act_agent.sv(143) @ 812500: uvm_test_top.env.act_a.mon [ACT_MON] Vector captured a0=3 a1=3 a2=3 a3=3 last=0 mode=DENSE
# KERNEL: UVM_INFO /home/runner/accel_axis_act_agent.sv(69) @ 812500: uvm_test_top.env.act_a.drv [ACT_DRV] Beat 2/2 sent mode=DENSE last=0
# KERNEL: UVM_INFO /home/runner/accel_sequences.sv(115) @ 812500: uvm_test_top.env.act_a.seqr@@a_stream_seq [ACT_STREAM_SEQ] Activation vector streamed
# KERNEL: UVM_INFO /home/runner/accel_axis_act_agent.sv(69) @ 817500: uvm_test_top.env.act_a.drv [ACT_DRV] Beat 1/2 sent mode=DENSE last=0
# KERNEL: UVM_INFO /home/runner/accel_scoreboard.sv(130) @ 822500: uvm_test_top.env.sco [SCO] Act vector stored â€” queue=9
# KERNEL: UVM_INFO /home/runner/accel_axis_act_agent.sv(143) @ 822500: uvm_test_top.env.act_a.mon [ACT_MON] Vector captured a0=3 a1=3 a2=3 a3=3 last=0 mode=DENSE
# KERNEL: UVM_INFO /home/runner/accel_axis_act_agent.sv(69) @ 822500: uvm_test_top.env.act_a.drv [ACT_DRV] Beat 2/2 sent mode=DENSE last=0
# KERNEL: UVM_INFO /home/runner/accel_sequences.sv(115) @ 822500: uvm_test_top.env.act_a.seqr@@a_stream_seq [ACT_STREAM_SEQ] Activation vector streamed
# KERNEL: UVM_INFO /home/runner/accel_axis_act_agent.sv(69) @ 827500: uvm_test_top.env.act_a.drv [ACT_DRV] Beat 1/2 sent mode=DENSE last=0
# KERNEL: UVM_INFO /home/runner/accel_scoreboard.sv(130) @ 832500: uvm_test_top.env.sco [SCO] Act vector stored â€” queue=10
# KERNEL: UVM_INFO /home/runner/accel_axis_act_agent.sv(143) @ 832500: uvm_test_top.env.act_a.mon [ACT_MON] Vector captured a0=3 a1=3 a2=3 a3=3 last=0 mode=DENSE
# KERNEL: UVM_INFO /home/runner/accel_axis_act_agent.sv(69) @ 832500: uvm_test_top.env.act_a.drv [ACT_DRV] Beat 2/2 sent mode=DENSE last=0
# KERNEL: UVM_INFO /home/runner/accel_sequences.sv(115) @ 832500: uvm_test_top.env.act_a.seqr@@a_stream_seq [ACT_STREAM_SEQ] Activation vector streamed
# KERNEL: UVM_INFO /home/runner/accel_axis_act_agent.sv(69) @ 837500: uvm_test_top.env.act_a.drv [ACT_DRV] Beat 1/2 sent mode=DENSE last=0
# KERNEL: UVM_INFO /home/runner/accel_scoreboard.sv(130) @ 842500: uvm_test_top.env.sco [SCO] Act vector stored â€” queue=11
# KERNEL: UVM_INFO /home/runner/accel_axis_act_agent.sv(143) @ 842500: uvm_test_top.env.act_a.mon [ACT_MON] Vector captured a0=3 a1=3 a2=3 a3=3 last=0 mode=DENSE
# KERNEL: UVM_INFO /home/runner/accel_axis_act_agent.sv(69) @ 842500: uvm_test_top.env.act_a.drv [ACT_DRV] Beat 2/2 sent mode=DENSE last=0
# KERNEL: UVM_INFO /home/runner/accel_sequences.sv(115) @ 842500: uvm_test_top.env.act_a.seqr@@a_stream_seq [ACT_STREAM_SEQ] Activation vector streamed
# KERNEL: UVM_INFO /home/runner/accel_axis_act_agent.sv(69) @ 847500: uvm_test_top.env.act_a.drv [ACT_DRV] Beat 1/2 sent mode=DENSE last=0
# KERNEL: UVM_INFO /home/runner/accel_scoreboard.sv(130) @ 852500: uvm_test_top.env.sco [SCO] Act vector stored â€” queue=12
# KERNEL: UVM_INFO /home/runner/accel_axis_act_agent.sv(143) @ 852500: uvm_test_top.env.act_a.mon [ACT_MON] Vector captured a0=3 a1=3 a2=3 a3=3 last=0 mode=DENSE
# KERNEL: UVM_INFO /home/runner/accel_axis_act_agent.sv(69) @ 852500: uvm_test_top.env.act_a.drv [ACT_DRV] Beat 2/2 sent mode=DENSE last=0
# KERNEL: UVM_INFO /home/runner/accel_sequences.sv(115) @ 852500: uvm_test_top.env.act_a.seqr@@a_stream_seq [ACT_STREAM_SEQ] Activation vector streamed
# KERNEL: UVM_INFO /home/runner/accel_axis_act_agent.sv(69) @ 857500: uvm_test_top.env.act_a.drv [ACT_DRV] Beat 1/2 sent mode=DENSE last=0
# KERNEL: UVM_INFO /home/runner/accel_scoreboard.sv(130) @ 862500: uvm_test_top.env.sco [SCO] Act vector stored â€” queue=13
# KERNEL: UVM_INFO /home/runner/accel_axis_act_agent.sv(143) @ 862500: uvm_test_top.env.act_a.mon [ACT_MON] Vector captured a0=3 a1=3 a2=3 a3=3 last=0 mode=DENSE
# KERNEL: UVM_INFO /home/runner/accel_axis_act_agent.sv(69) @ 862500: uvm_test_top.env.act_a.drv [ACT_DRV] Beat 2/2 sent mode=DENSE last=0
# KERNEL: UVM_INFO /home/runner/accel_sequences.sv(115) @ 862500: uvm_test_top.env.act_a.seqr@@a_stream_seq [ACT_STREAM_SEQ] Activation vector streamed
# KERNEL: UVM_INFO /home/runner/accel_axis_act_agent.sv(69) @ 867500: uvm_test_top.env.act_a.drv [ACT_DRV] Beat 1/2 sent mode=DENSE last=0
# KERNEL: UVM_INFO /home/runner/accel_scoreboard.sv(130) @ 872500: uvm_test_top.env.sco [SCO] Act vector stored â€” queue=14
# KERNEL: UVM_INFO /home/runner/accel_axis_act_agent.sv(143) @ 872500: uvm_test_top.env.act_a.mon [ACT_MON] Vector captured a0=3 a1=3 a2=3 a3=3 last=0 mode=DENSE
# KERNEL: UVM_INFO /home/runner/accel_axis_act_agent.sv(69) @ 872500: uvm_test_top.env.act_a.drv [ACT_DRV] Beat 2/2 sent mode=DENSE last=0
# KERNEL: UVM_INFO /home/runner/accel_sequences.sv(115) @ 872500: uvm_test_top.env.act_a.seqr@@a_stream_seq [ACT_STREAM_SEQ] Activation vector streamed
# KERNEL: UVM_INFO /home/runner/accel_axis_act_agent.sv(69) @ 877500: uvm_test_top.env.act_a.drv [ACT_DRV] Beat 1/2 sent mode=DENSE last=0
# KERNEL: UVM_INFO /home/runner/accel_scoreboard.sv(130) @ 882500: uvm_test_top.env.sco [SCO] Act vector stored â€” queue=15
# KERNEL: UVM_INFO /home/runner/accel_axis_act_agent.sv(143) @ 882500: uvm_test_top.env.act_a.mon [ACT_MON] Vector captured a0=3 a1=3 a2=3 a3=3 last=0 mode=DENSE
# KERNEL: UVM_INFO /home/runner/accel_axis_act_agent.sv(69) @ 882500: uvm_test_top.env.act_a.drv [ACT_DRV] Beat 2/2 sent mode=DENSE last=0
# KERNEL: UVM_INFO /home/runner/accel_sequences.sv(115) @ 882500: uvm_test_top.env.act_a.seqr@@a_stream_seq [ACT_STREAM_SEQ] Activation vector streamed
# KERNEL: UVM_INFO /home/runner/accel_axis_act_agent.sv(69) @ 887500: uvm_test_top.env.act_a.drv [ACT_DRV] Beat 1/2 sent mode=DENSE last=0
# KERNEL: UVM_INFO /home/runner/accel_scoreboard.sv(130) @ 892500: uvm_test_top.env.sco [SCO] Act vector stored â€” queue=16
# KERNEL: UVM_INFO /home/runner/accel_axis_act_agent.sv(143) @ 892500: uvm_test_top.env.act_a.mon [ACT_MON] Vector captured a0=3 a1=3 a2=3 a3=3 last=0 mode=DENSE
# KERNEL: UVM_INFO /home/runner/accel_axis_act_agent.sv(69) @ 892500: uvm_test_top.env.act_a.drv [ACT_DRV] Beat 2/2 sent mode=DENSE last=0
# KERNEL: UVM_INFO /home/runner/accel_sequences.sv(115) @ 892500: uvm_test_top.env.act_a.seqr@@a_stream_seq [ACT_STREAM_SEQ] Activation vector streamed
# KERNEL: UVM_INFO /home/runner/accel_axis_act_agent.sv(69) @ 897500: uvm_test_top.env.act_a.drv [ACT_DRV] Beat 1/2 sent mode=DENSE last=0
# KERNEL: UVM_INFO /home/runner/accel_scoreboard.sv(130) @ 902500: uvm_test_top.env.sco [SCO] Act vector stored â€” queue=17
# KERNEL: UVM_INFO /home/runner/accel_axis_act_agent.sv(143) @ 902500: uvm_test_top.env.act_a.mon [ACT_MON] Vector captured a0=3 a1=3 a2=3 a3=3 last=0 mode=DENSE
# KERNEL: UVM_INFO /home/runner/accel_axis_act_agent.sv(69) @ 902500: uvm_test_top.env.act_a.drv [ACT_DRV] Beat 2/2 sent mode=DENSE last=0
# KERNEL: UVM_INFO /home/runner/accel_sequences.sv(115) @ 902500: uvm_test_top.env.act_a.seqr@@a_stream_seq [ACT_STREAM_SEQ] Activation vector streamed
# KERNEL: UVM_INFO /home/runner/accel_axis_act_agent.sv(69) @ 907500: uvm_test_top.env.act_a.drv [ACT_DRV] Beat 1/2 sent mode=DENSE last=0
# KERNEL: UVM_INFO /home/runner/accel_scoreboard.sv(130) @ 912500: uvm_test_top.env.sco [SCO] Act vector stored â€” queue=18
# KERNEL: UVM_INFO /home/runner/accel_axis_act_agent.sv(143) @ 912500: uvm_test_top.env.act_a.mon [ACT_MON] Vector captured a0=3 a1=3 a2=3 a3=3 last=0 mode=DENSE
# KERNEL: UVM_INFO /home/runner/accel_axis_act_agent.sv(69) @ 912500: uvm_test_top.env.act_a.drv [ACT_DRV] Beat 2/2 sent mode=DENSE last=0
# KERNEL: UVM_INFO /home/runner/accel_sequences.sv(115) @ 912500: uvm_test_top.env.act_a.seqr@@a_stream_seq [ACT_STREAM_SEQ] Activation vector streamed
# KERNEL: UVM_INFO /home/runner/accel_axis_act_agent.sv(69) @ 917500: uvm_test_top.env.act_a.drv [ACT_DRV] Beat 1/2 sent mode=DENSE last=0
# KERNEL: UVM_INFO /home/runner/accel_scoreboard.sv(130) @ 922500: uvm_test_top.env.sco [SCO] Act vector stored â€” queue=19
# KERNEL: UVM_INFO /home/runner/accel_axis_act_agent.sv(143) @ 922500: uvm_test_top.env.act_a.mon [ACT_MON] Vector captured a0=3 a1=3 a2=3 a3=3 last=0 mode=DENSE
# KERNEL: UVM_INFO /home/runner/accel_axis_act_agent.sv(69) @ 922500: uvm_test_top.env.act_a.drv [ACT_DRV] Beat 2/2 sent mode=DENSE last=0
# KERNEL: UVM_INFO /home/runner/accel_sequences.sv(115) @ 922500: uvm_test_top.env.act_a.seqr@@a_stream_seq [ACT_STREAM_SEQ] Activation vector streamed
# KERNEL: UVM_INFO /home/runner/accel_axis_act_agent.sv(69) @ 927500: uvm_test_top.env.act_a.drv [ACT_DRV] Beat 1/2 sent mode=DENSE last=0
# KERNEL: UVM_INFO /home/runner/accel_scoreboard.sv(130) @ 932500: uvm_test_top.env.sco [SCO] Act vector stored â€” queue=20
# KERNEL: UVM_INFO /home/runner/accel_axis_act_agent.sv(143) @ 932500: uvm_test_top.env.act_a.mon [ACT_MON] Vector captured a0=3 a1=3 a2=3 a3=3 last=0 mode=DENSE
# KERNEL: UVM_INFO /home/runner/accel_axis_act_agent.sv(69) @ 932500: uvm_test_top.env.act_a.drv [ACT_DRV] Beat 2/2 sent mode=DENSE last=0
# KERNEL: UVM_INFO /home/runner/accel_sequences.sv(115) @ 932500: uvm_test_top.env.act_a.seqr@@a_stream_seq [ACT_STREAM_SEQ] Activation vector streamed
# KERNEL: UVM_INFO /home/runner/accel_axis_act_agent.sv(69) @ 937500: uvm_test_top.env.act_a.drv [ACT_DRV] Beat 1/2 sent mode=DENSE last=0
# KERNEL: UVM_INFO /home/runner/accel_scoreboard.sv(130) @ 942500: uvm_test_top.env.sco [SCO] Act vector stored â€” queue=21
# KERNEL: UVM_INFO /home/runner/accel_axis_act_agent.sv(143) @ 942500: uvm_test_top.env.act_a.mon [ACT_MON] Vector captured a0=3 a1=3 a2=3 a3=3 last=0 mode=DENSE
# KERNEL: UVM_INFO /home/runner/accel_axis_act_agent.sv(69) @ 942500: uvm_test_top.env.act_a.drv [ACT_DRV] Beat 2/2 sent mode=DENSE last=0
# KERNEL: UVM_INFO /home/runner/accel_sequences.sv(115) @ 942500: uvm_test_top.env.act_a.seqr@@a_stream_seq [ACT_STREAM_SEQ] Activation vector streamed
# KERNEL: UVM_INFO /home/runner/accel_axis_act_agent.sv(69) @ 947500: uvm_test_top.env.act_a.drv [ACT_DRV] Beat 1/2 sent mode=DENSE last=0
# KERNEL: UVM_INFO /home/runner/accel_scoreboard.sv(130) @ 952500: uvm_test_top.env.sco [SCO] Act vector stored â€” queue=22
# KERNEL: UVM_INFO /home/runner/accel_axis_act_agent.sv(143) @ 952500: uvm_test_top.env.act_a.mon [ACT_MON] Vector captured a0=3 a1=3 a2=3 a3=3 last=0 mode=DENSE
# KERNEL: UVM_INFO /home/runner/accel_axis_act_agent.sv(69) @ 952500: uvm_test_top.env.act_a.drv [ACT_DRV] Beat 2/2 sent mode=DENSE last=0
# KERNEL: UVM_INFO /home/runner/accel_sequences.sv(115) @ 952500: uvm_test_top.env.act_a.seqr@@a_stream_seq [ACT_STREAM_SEQ] Activation vector streamed
# KERNEL: UVM_INFO /home/runner/accel_axis_act_agent.sv(69) @ 957500: uvm_test_top.env.act_a.drv [ACT_DRV] Beat 1/2 sent mode=DENSE last=0
# KERNEL: UVM_INFO /home/runner/accel_scoreboard.sv(130) @ 962500: uvm_test_top.env.sco [SCO] Act vector stored â€” queue=23
# KERNEL: UVM_INFO /home/runner/accel_axis_act_agent.sv(143) @ 962500: uvm_test_top.env.act_a.mon [ACT_MON] Vector captured a0=3 a1=3 a2=3 a3=3 last=0 mode=DENSE
# KERNEL: UVM_INFO /home/runner/accel_axis_act_agent.sv(69) @ 962500: uvm_test_top.env.act_a.drv [ACT_DRV] Beat 2/2 sent mode=DENSE last=0
# KERNEL: UVM_INFO /home/runner/accel_sequences.sv(115) @ 962500: uvm_test_top.env.act_a.seqr@@a_stream_seq [ACT_STREAM_SEQ] Activation vector streamed
# KERNEL: UVM_INFO /home/runner/accel_axis_act_agent.sv(69) @ 967500: uvm_test_top.env.act_a.drv [ACT_DRV] Beat 1/2 sent mode=DENSE last=0
# KERNEL: UVM_INFO /home/runner/accel_scoreboard.sv(130) @ 972500: uvm_test_top.env.sco [SCO] Act vector stored â€” queue=24
# KERNEL: UVM_INFO /home/runner/accel_axis_act_agent.sv(143) @ 972500: uvm_test_top.env.act_a.mon [ACT_MON] Vector captured a0=3 a1=3 a2=3 a3=3 last=0 mode=DENSE
# KERNEL: UVM_INFO /home/runner/accel_axis_act_agent.sv(69) @ 972500: uvm_test_top.env.act_a.drv [ACT_DRV] Beat 2/2 sent mode=DENSE last=0
# KERNEL: UVM_INFO /home/runner/accel_sequences.sv(115) @ 972500: uvm_test_top.env.act_a.seqr@@a_stream_seq [ACT_STREAM_SEQ] Activation vector streamed
# KERNEL: UVM_INFO /home/runner/accel_axis_act_agent.sv(69) @ 977500: uvm_test_top.env.act_a.drv [ACT_DRV] Beat 1/2 sent mode=DENSE last=0
# KERNEL: UVM_INFO /home/runner/accel_scoreboard.sv(130) @ 982500: uvm_test_top.env.sco [SCO] Act vector stored â€” queue=25
# KERNEL: UVM_INFO /home/runner/accel_axis_act_agent.sv(143) @ 982500: uvm_test_top.env.act_a.mon [ACT_MON] Vector captured a0=3 a1=3 a2=3 a3=3 last=0 mode=DENSE
# KERNEL: UVM_INFO /home/runner/accel_axis_act_agent.sv(69) @ 982500: uvm_test_top.env.act_a.drv [ACT_DRV] Beat 2/2 sent mode=DENSE last=0
# KERNEL: UVM_INFO /home/runner/accel_sequences.sv(115) @ 982500: uvm_test_top.env.act_a.seqr@@a_stream_seq [ACT_STREAM_SEQ] Activation vector streamed
# KERNEL: UVM_INFO /home/runner/accel_axis_act_agent.sv(69) @ 987500: uvm_test_top.env.act_a.drv [ACT_DRV] Beat 1/2 sent mode=DENSE last=0
# KERNEL: UVM_INFO /home/runner/accel_scoreboard.sv(130) @ 992500: uvm_test_top.env.sco [SCO] Act vector stored â€” queue=26
# KERNEL: UVM_INFO /home/runner/accel_axis_act_agent.sv(143) @ 992500: uvm_test_top.env.act_a.mon [ACT_MON] Vector captured a0=3 a1=3 a2=3 a3=3 last=0 mode=DENSE
# KERNEL: UVM_INFO /home/runner/accel_axis_act_agent.sv(69) @ 992500: uvm_test_top.env.act_a.drv [ACT_DRV] Beat 2/2 sent mode=DENSE last=0
# KERNEL: UVM_INFO /home/runner/accel_sequences.sv(115) @ 992500: uvm_test_top.env.act_a.seqr@@a_stream_seq [ACT_STREAM_SEQ] Activation vector streamed
# KERNEL: UVM_INFO /home/runner/accel_axis_act_agent.sv(69) @ 997500: uvm_test_top.env.act_a.drv [ACT_DRV] Beat 1/2 sent mode=DENSE last=0
# KERNEL: UVM_INFO /home/runner/accel_scoreboard.sv(130) @ 1002500: uvm_test_top.env.sco [SCO] Act vector stored â€” queue=27
# KERNEL: UVM_INFO /home/runner/accel_axis_act_agent.sv(143) @ 1002500: uvm_test_top.env.act_a.mon [ACT_MON] Vector captured a0=3 a1=3 a2=3 a3=3 last=0 mode=DENSE
# KERNEL: UVM_INFO /home/runner/accel_axis_act_agent.sv(69) @ 1002500: uvm_test_top.env.act_a.drv [ACT_DRV] Beat 2/2 sent mode=DENSE last=0
# KERNEL: UVM_INFO /home/runner/accel_sequences.sv(115) @ 1002500: uvm_test_top.env.act_a.seqr@@a_stream_seq [ACT_STREAM_SEQ] Activation vector streamed
# KERNEL: UVM_INFO /home/runner/accel_axis_act_agent.sv(69) @ 1007500: uvm_test_top.env.act_a.drv [ACT_DRV] Beat 1/2 sent mode=DENSE last=0
# KERNEL: UVM_INFO /home/runner/accel_scoreboard.sv(130) @ 1012500: uvm_test_top.env.sco [SCO] Act vector stored â€” queue=28
# KERNEL: UVM_INFO /home/runner/accel_axis_act_agent.sv(143) @ 1012500: uvm_test_top.env.act_a.mon [ACT_MON] Vector captured a0=3 a1=3 a2=3 a3=3 last=0 mode=DENSE
# KERNEL: UVM_INFO /home/runner/accel_axis_act_agent.sv(69) @ 1012500: uvm_test_top.env.act_a.drv [ACT_DRV] Beat 2/2 sent mode=DENSE last=0
# KERNEL: UVM_INFO /home/runner/accel_sequences.sv(115) @ 1012500: uvm_test_top.env.act_a.seqr@@a_stream_seq [ACT_STREAM_SEQ] Activation vector streamed
# KERNEL: UVM_INFO /home/runner/accel_axis_act_agent.sv(69) @ 1017500: uvm_test_top.env.act_a.drv [ACT_DRV] Beat 1/2 sent mode=DENSE last=0
# KERNEL: UVM_INFO /home/runner/accel_scoreboard.sv(130) @ 1022500: uvm_test_top.env.sco [SCO] Act vector stored â€” queue=29
# KERNEL: UVM_INFO /home/runner/accel_axis_act_agent.sv(143) @ 1022500: uvm_test_top.env.act_a.mon [ACT_MON] Vector captured a0=3 a1=3 a2=3 a3=3 last=0 mode=DENSE
# KERNEL: UVM_INFO /home/runner/accel_axis_act_agent.sv(69) @ 1022500: uvm_test_top.env.act_a.drv [ACT_DRV] Beat 2/2 sent mode=DENSE last=0
# KERNEL: UVM_INFO /home/runner/accel_sequences.sv(115) @ 1022500: uvm_test_top.env.act_a.seqr@@a_stream_seq [ACT_STREAM_SEQ] Activation vector streamed
# KERNEL: UVM_INFO /home/runner/accel_axis_act_agent.sv(69) @ 1027500: uvm_test_top.env.act_a.drv [ACT_DRV] Beat 1/2 sent mode=DENSE last=0
# KERNEL: UVM_INFO /home/runner/accel_scoreboard.sv(130) @ 1032500: uvm_test_top.env.sco [SCO] Act vector stored â€” queue=30
# KERNEL: UVM_INFO /home/runner/accel_axis_act_agent.sv(143) @ 1032500: uvm_test_top.env.act_a.mon [ACT_MON] Vector captured a0=3 a1=3 a2=3 a3=3 last=0 mode=DENSE
# KERNEL: UVM_INFO /home/runner/accel_axis_act_agent.sv(69) @ 1032500: uvm_test_top.env.act_a.drv [ACT_DRV] Beat 2/2 sent mode=DENSE last=0
# KERNEL: UVM_INFO /home/runner/accel_sequences.sv(115) @ 1032500: uvm_test_top.env.act_a.seqr@@a_stream_seq [ACT_STREAM_SEQ] Activation vector streamed
# KERNEL: UVM_INFO /home/runner/accel_axis_act_agent.sv(69) @ 1037500: uvm_test_top.env.act_a.drv [ACT_DRV] Beat 1/2 sent mode=DENSE last=0
# KERNEL: UVM_INFO /home/runner/accel_scoreboard.sv(130) @ 1042500: uvm_test_top.env.sco [SCO] Act vector stored â€” queue=31
# KERNEL: UVM_INFO /home/runner/accel_axis_act_agent.sv(143) @ 1042500: uvm_test_top.env.act_a.mon [ACT_MON] Vector captured a0=3 a1=3 a2=3 a3=3 last=0 mode=DENSE
# KERNEL: UVM_INFO /home/runner/accel_axis_act_agent.sv(69) @ 1042500: uvm_test_top.env.act_a.drv [ACT_DRV] Beat 2/2 sent mode=DENSE last=0
# KERNEL: UVM_INFO /home/runner/accel_sequences.sv(115) @ 1042500: uvm_test_top.env.act_a.seqr@@a_stream_seq [ACT_STREAM_SEQ] Activation vector streamed
# KERNEL: UVM_INFO /home/runner/accel_axis_act_agent.sv(69) @ 1047500: uvm_test_top.env.act_a.drv [ACT_DRV] Beat 1/2 sent mode=DENSE last=1
# KERNEL: UVM_INFO /home/runner/accel_scoreboard.sv(130) @ 1052500: uvm_test_top.env.sco [SCO] Act vector stored â€” queue=32
# KERNEL: UVM_INFO /home/runner/accel_axis_act_agent.sv(143) @ 1052500: uvm_test_top.env.act_a.mon [ACT_MON] Vector captured a0=3 a1=3 a2=3 a3=3 last=1 mode=DENSE
# KERNEL: UVM_INFO /home/runner/accel_axis_act_agent.sv(69) @ 1052500: uvm_test_top.env.act_a.drv [ACT_DRV] Beat 2/2 sent mode=DENSE last=1
# KERNEL: UVM_INFO /home/runner/accel_sequences.sv(115) @ 1052500: uvm_test_top.env.act_a.seqr@@a_stream_seq [ACT_STREAM_SEQ] Activation vector streamed
# KERNEL:                 Step 6 : Wait for computation done                 
# KERNEL: UVM_INFO /home/runner/accel_axis_result_agent.sv(69) @ 1097500: uvm_test_top.env.result_a.mon [RESULT_MON] Result vector captured â€” last=0
# KERNEL: UVM_INFO /home/runner/accel_scoreboard.sv(160) @ 1097500: uvm_test_top.env.sco [SCO] Computing: w0[0]=1 w1[0]=1 a0=3 a1=3
# KERNEL: UVM_INFO /home/runner/accel_axis_result_agent.sv(69) @ 1117500: uvm_test_top.env.result_a.mon [RESULT_MON] Result vector captured â€” last=0
# KERNEL: UVM_INFO /home/runner/accel_scoreboard.sv(160) @ 1117500: uvm_test_top.env.sco [SCO] Computing: w0[0]=1 w1[0]=1 a0=3 a1=3
# KERNEL: UVM_INFO /home/runner/accel_axis_result_agent.sv(69) @ 1137500: uvm_test_top.env.result_a.mon [RESULT_MON] Result vector captured â€” last=0
# KERNEL: UVM_INFO /home/runner/accel_scoreboard.sv(160) @ 1137500: uvm_test_top.env.sco [SCO] Computing: w0[0]=1 w1[0]=1 a0=3 a1=3
# KERNEL: UVM_INFO /home/runner/accel_axis_result_agent.sv(69) @ 1157500: uvm_test_top.env.result_a.mon [RESULT_MON] Result vector captured â€” last=0
# KERNEL: UVM_INFO /home/runner/accel_scoreboard.sv(160) @ 1157500: uvm_test_top.env.sco [SCO] Computing: w0[0]=1 w1[0]=1 a0=3 a1=3
# KERNEL: UVM_INFO /home/runner/accel_axis_result_agent.sv(69) @ 1177500: uvm_test_top.env.result_a.mon [RESULT_MON] Result vector captured â€” last=0
# KERNEL: UVM_INFO /home/runner/accel_scoreboard.sv(160) @ 1177500: uvm_test_top.env.sco [SCO] Computing: w0[0]=1 w1[0]=1 a0=3 a1=3
# KERNEL: UVM_INFO /home/runner/accel_axis_result_agent.sv(69) @ 1197500: uvm_test_top.env.result_a.mon [RESULT_MON] Result vector captured â€” last=0
# KERNEL: UVM_INFO /home/runner/accel_scoreboard.sv(160) @ 1197500: uvm_test_top.env.sco [SCO] Computing: w0[0]=1 w1[0]=1 a0=3 a1=3
# KERNEL: UVM_INFO /home/runner/accel_axis_result_agent.sv(69) @ 1217500: uvm_test_top.env.result_a.mon [RESULT_MON] Result vector captured â€” last=0
# KERNEL: UVM_INFO /home/runner/accel_scoreboard.sv(160) @ 1217500: uvm_test_top.env.sco [SCO] Computing: w0[0]=1 w1[0]=1 a0=3 a1=3
# KERNEL: UVM_INFO /home/runner/accel_axis_result_agent.sv(69) @ 1237500: uvm_test_top.env.result_a.mon [RESULT_MON] Result vector captured â€” last=0
# KERNEL: UVM_INFO /home/runner/accel_scoreboard.sv(160) @ 1237500: uvm_test_top.env.sco [SCO] Computing: w0[0]=1 w1[0]=1 a0=3 a1=3
# KERNEL: UVM_INFO /home/runner/accel_axis_result_agent.sv(69) @ 1257500: uvm_test_top.env.result_a.mon [RESULT_MON] Result vector captured â€” last=0
# KERNEL: UVM_INFO /home/runner/accel_scoreboard.sv(160) @ 1257500: uvm_test_top.env.sco [SCO] Computing: w0[0]=1 w1[0]=1 a0=3 a1=3
# KERNEL: UVM_INFO /home/runner/accel_axis_result_agent.sv(69) @ 1277500: uvm_test_top.env.result_a.mon [RESULT_MON] Result vector captured â€” last=0
# KERNEL: UVM_INFO /home/runner/accel_scoreboard.sv(160) @ 1277500: uvm_test_top.env.sco [SCO] Computing: w0[0]=1 w1[0]=1 a0=3 a1=3
# KERNEL: UVM_INFO /home/runner/accel_axis_result_agent.sv(69) @ 1297500: uvm_test_top.env.result_a.mon [RESULT_MON] Result vector captured â€” last=0
# KERNEL: UVM_INFO /home/runner/accel_scoreboard.sv(160) @ 1297500: uvm_test_top.env.sco [SCO] Computing: w0[0]=1 w1[0]=1 a0=3 a1=3
# KERNEL: UVM_INFO /home/runner/accel_axis_result_agent.sv(69) @ 1317500: uvm_test_top.env.result_a.mon [RESULT_MON] Result vector captured â€” last=0
# KERNEL: UVM_INFO /home/runner/accel_scoreboard.sv(160) @ 1317500: uvm_test_top.env.sco [SCO] Computing: w0[0]=1 w1[0]=1 a0=3 a1=3
# KERNEL: UVM_INFO /home/runner/accel_axis_result_agent.sv(69) @ 1337500: uvm_test_top.env.result_a.mon [RESULT_MON] Result vector captured â€” last=0
# KERNEL: UVM_INFO /home/runner/accel_scoreboard.sv(160) @ 1337500: uvm_test_top.env.sco [SCO] Computing: w0[0]=1 w1[0]=1 a0=3 a1=3
# KERNEL: UVM_INFO /home/runner/accel_axis_result_agent.sv(69) @ 1357500: uvm_test_top.env.result_a.mon [RESULT_MON] Result vector captured â€” last=0
# KERNEL: UVM_INFO /home/runner/accel_scoreboard.sv(160) @ 1357500: uvm_test_top.env.sco [SCO] Computing: w0[0]=1 w1[0]=1 a0=3 a1=3
# KERNEL: UVM_INFO /home/runner/accel_axis_result_agent.sv(69) @ 1377500: uvm_test_top.env.result_a.mon [RESULT_MON] Result vector captured â€” last=0
# KERNEL: UVM_INFO /home/runner/accel_scoreboard.sv(160) @ 1377500: uvm_test_top.env.sco [SCO] Computing: w0[0]=1 w1[0]=1 a0=3 a1=3
# KERNEL: UVM_INFO /home/runner/accel_axis_result_agent.sv(69) @ 1397500: uvm_test_top.env.result_a.mon [RESULT_MON] Result vector captured â€” last=0
# KERNEL: UVM_INFO /home/runner/accel_scoreboard.sv(160) @ 1397500: uvm_test_top.env.sco [SCO] Computing: w0[0]=1 w1[0]=1 a0=3 a1=3
# KERNEL: UVM_INFO /home/runner/accel_axis_result_agent.sv(69) @ 1417500: uvm_test_top.env.result_a.mon [RESULT_MON] Result vector captured â€” last=0
# KERNEL: UVM_INFO /home/runner/accel_scoreboard.sv(160) @ 1417500: uvm_test_top.env.sco [SCO] Computing: w0[0]=1 w1[0]=1 a0=3 a1=3
# KERNEL: UVM_INFO /home/runner/accel_axis_result_agent.sv(69) @ 1437500: uvm_test_top.env.result_a.mon [RESULT_MON] Result vector captured â€” last=0
# KERNEL: UVM_INFO /home/runner/accel_scoreboard.sv(160) @ 1437500: uvm_test_top.env.sco [SCO] Computing: w0[0]=1 w1[0]=1 a0=3 a1=3
# KERNEL: UVM_INFO /home/runner/accel_axis_result_agent.sv(69) @ 1457500: uvm_test_top.env.result_a.mon [RESULT_MON] Result vector captured â€” last=0
# KERNEL: UVM_INFO /home/runner/accel_scoreboard.sv(160) @ 1457500: uvm_test_top.env.sco [SCO] Computing: w0[0]=1 w1[0]=1 a0=3 a1=3
# KERNEL: UVM_INFO /home/runner/accel_axis_result_agent.sv(69) @ 1477500: uvm_test_top.env.result_a.mon [RESULT_MON] Result vector captured â€” last=0
# KERNEL: UVM_INFO /home/runner/accel_scoreboard.sv(160) @ 1477500: uvm_test_top.env.sco [SCO] Computing: w0[0]=1 w1[0]=1 a0=3 a1=3
# KERNEL: UVM_INFO /home/runner/accel_axis_result_agent.sv(69) @ 1497500: uvm_test_top.env.result_a.mon [RESULT_MON] Result vector captured â€” last=0
# KERNEL: UVM_INFO /home/runner/accel_scoreboard.sv(160) @ 1497500: uvm_test_top.env.sco [SCO] Computing: w0[0]=1 w1[0]=1 a0=3 a1=3
# KERNEL: UVM_INFO /home/runner/accel_axis_result_agent.sv(69) @ 1517500: uvm_test_top.env.result_a.mon [RESULT_MON] Result vector captured â€” last=0
# KERNEL: UVM_INFO /home/runner/accel_scoreboard.sv(160) @ 1517500: uvm_test_top.env.sco [SCO] Computing: w0[0]=1 w1[0]=1 a0=3 a1=3
# KERNEL: UVM_INFO /home/runner/accel_axis_result_agent.sv(69) @ 1537500: uvm_test_top.env.result_a.mon [RESULT_MON] Result vector captured â€” last=0
# KERNEL: UVM_INFO /home/runner/accel_scoreboard.sv(160) @ 1537500: uvm_test_top.env.sco [SCO] Computing: w0[0]=1 w1[0]=1 a0=3 a1=3
# KERNEL: UVM_INFO /home/runner/accel_axis_result_agent.sv(69) @ 1557500: uvm_test_top.env.result_a.mon [RESULT_MON] Result vector captured â€” last=0
# KERNEL: UVM_INFO /home/runner/accel_scoreboard.sv(160) @ 1557500: uvm_test_top.env.sco [SCO] Computing: w0[0]=1 w1[0]=1 a0=3 a1=3
# KERNEL: UVM_INFO /home/runner/accel_axis_result_agent.sv(69) @ 1577500: uvm_test_top.env.result_a.mon [RESULT_MON] Result vector captured â€” last=0
# KERNEL: UVM_INFO /home/runner/accel_scoreboard.sv(160) @ 1577500: uvm_test_top.env.sco [SCO] Computing: w0[0]=1 w1[0]=1 a0=3 a1=3
# KERNEL: UVM_INFO /home/runner/accel_axis_result_agent.sv(69) @ 1597500: uvm_test_top.env.result_a.mon [RESULT_MON] Result vector captured â€” last=0
# KERNEL: UVM_INFO /home/runner/accel_scoreboard.sv(160) @ 1597500: uvm_test_top.env.sco [SCO] Computing: w0[0]=1 w1[0]=1 a0=3 a1=3
# KERNEL: UVM_INFO /home/runner/accel_axis_result_agent.sv(69) @ 1617500: uvm_test_top.env.result_a.mon [RESULT_MON] Result vector captured â€” last=0
# KERNEL: UVM_INFO /home/runner/accel_scoreboard.sv(160) @ 1617500: uvm_test_top.env.sco [SCO] Computing: w0[0]=1 w1[0]=1 a0=3 a1=3
# KERNEL: UVM_INFO /home/runner/accel_axis_result_agent.sv(69) @ 1637500: uvm_test_top.env.result_a.mon [RESULT_MON] Result vector captured â€” last=0
# KERNEL: UVM_INFO /home/runner/accel_scoreboard.sv(160) @ 1637500: uvm_test_top.env.sco [SCO] Computing: w0[0]=1 w1[0]=1 a0=3 a1=3
# KERNEL: UVM_INFO /home/runner/accel_axis_result_agent.sv(69) @ 1657500: uvm_test_top.env.result_a.mon [RESULT_MON] Result vector captured â€” last=0
# KERNEL: UVM_INFO /home/runner/accel_scoreboard.sv(160) @ 1657500: uvm_test_top.env.sco [SCO] Computing: w0[0]=1 w1[0]=1 a0=3 a1=3
# KERNEL: UVM_INFO /home/runner/accel_axis_result_agent.sv(69) @ 1677500: uvm_test_top.env.result_a.mon [RESULT_MON] Result vector captured â€” last=0
# KERNEL: UVM_INFO /home/runner/accel_scoreboard.sv(160) @ 1677500: uvm_test_top.env.sco [SCO] Computing: w0[0]=1 w1[0]=1 a0=3 a1=3
# KERNEL: UVM_INFO /home/runner/accel_axis_result_agent.sv(69) @ 1697500: uvm_test_top.env.result_a.mon [RESULT_MON] Result vector captured â€” last=0
# KERNEL: UVM_INFO /home/runner/accel_scoreboard.sv(160) @ 1697500: uvm_test_top.env.sco [SCO] Computing: w0[0]=1 w1[0]=1 a0=3 a1=3
# KERNEL: UVM_INFO /home/runner/accel_axis_result_agent.sv(69) @ 1717500: uvm_test_top.env.result_a.mon [RESULT_MON] Result vector captured â€” last=1
# KERNEL: UVM_INFO /home/runner/accel_scoreboard.sv(160) @ 1717500: uvm_test_top.env.sco [SCO] Computing: w0[0]=1 w1[0]=1 a0=3 a1=3
# KERNEL: UVM_INFO /home/runner/accel_axil_agent.sv(90) @ 1757500: uvm_test_top.env.axil_a.drv [AXIL_DRV] READ addr=0x30
# KERNEL: UVM_INFO /home/runner/accel_axil_agent.sv(126) @ 1772500: uvm_test_top.env.axil_a.drv [axil_csr_drv] [CSR] Read Data transaction completed
# KERNEL: UVM_INFO /home/runner/accel_axil_agent.sv(90) @ 1777500: uvm_test_top.env.axil_a.drv [AXIL_DRV] READ addr=0x34
# KERNEL: UVM_INFO /home/runner/accel_axil_agent.sv(126) @ 1792500: uvm_test_top.env.axil_a.drv [axil_csr_drv] [CSR] Read Data transaction completed
# KERNEL: UVM_INFO /home/runner/accel_axil_agent.sv(90) @ 1797500: uvm_test_top.env.axil_a.drv [AXIL_DRV] READ addr=0x38
# KERNEL: UVM_INFO /home/runner/accel_axil_agent.sv(126) @ 1812500: uvm_test_top.env.axil_a.drv [axil_csr_drv] [CSR] Read Data transaction completed
# KERNEL: UVM_INFO /home/runner/accel_axil_agent.sv(90) @ 1817500: uvm_test_top.env.axil_a.drv [AXIL_DRV] READ addr=0x3c
# KERNEL: UVM_INFO /home/runner/accel_axil_agent.sv(126) @ 1832500: uvm_test_top.env.axil_a.drv [axil_csr_drv] [CSR] Read Data transaction completed
# KERNEL: UVM_INFO /home/runner/accel_axil_agent.sv(90) @ 1837500: uvm_test_top.env.axil_a.drv [AXIL_DRV] READ addr=0x40
# KERNEL: UVM_INFO /home/runner/accel_axil_agent.sv(126) @ 1852500: uvm_test_top.env.axil_a.drv [axil_csr_drv] [CSR] Read Data transaction completed
# KERNEL: 
# KERNEL: ==============================================================
# KERNEL:   PERFORMANCE REPORT : Test_018 : Dense 32 Vectors
# KERNEL: ==============================================================
# KERNEL:   Vectors processed   : 32
# KERNEL:   Mode                : DENSE
# KERNEL:   Array size          : 16x16 PEs
# KERNEL: --------------------------------------------------------------
# KERNEL:   Total cycles        : 155
# KERNEL:   Stall cycles        : 0
# KERNEL:   Active cycles       : 155
# KERNEL:   Utilization         : 100.0%
# KERNEL: --------------------------------------------------------------
# KERNEL:   Useful MACs         : 31744
# KERNEL:   Zero weight skips   : 0
# KERNEL:   Zero act skips      : 7936
# KERNEL:   Total PE ops        : 39680
# KERNEL:   Compute efficiency  : 80.0%
# KERNEL: --------------------------------------------------------------
# KERNEL:   Throughput (MACs/cycle) : 204.80
# KERNEL: --------------------------------------------------------------
# KERNEL:   Peak MACs/cycle     : 512
# KERNEL:   Peak GMACS          : 102.40
# KERNEL:   Peak GOPS          : 204.80
# KERNEL: --------------------------------------------------------------
# KERNEL:   Achieved GMACS      : 81.92
# KERNEL:   Achieved GOPS      : 163.84
# KERNEL: ==============================================================
# KERNEL: 
# KERNEL: ===================================================Test_018 : End of the test=================================================================
# KERNEL: UVM_INFO /home/runner/test_018_dense_32vectors.sv(56) @ 1852500: uvm_test_top [COVERAGE] Coverage = 100.00%
# KERNEL: UVM_INFO ./uvm-1.2/src/base/uvm_objection.svh(1271) @ 1852500: reporter [TEST_DONE] 'run' phase is ready to proceed to the 'extract' phase
# KERNEL: UVM_INFO /home/runner/accel_scoreboard.sv(239) @ 1852500: uvm_test_top.env.sco [SCO] FINAL: pass=512 fail=0
# KERNEL: UVM_INFO /home/runner/accel_scoreboard.sv(244) @ 1852500: uvm_test_top.env.sco [SCO] TEST PASSED
# KERNEL: UVM_INFO ./uvm-1.2/src/base/uvm_report_server.svh(869) @ 1852500: reporter [UVM/REPORT/SERVER] 
# KERNEL: --- UVM Report Summary ---
# KERNEL: 
# KERNEL: ** Report counts by severity
# KERNEL: UVM_INFO :  277
# KERNEL: UVM_WARNING :    0
# KERNEL: UVM_ERROR :    0
# KERNEL: UVM_FATAL :    0
# KERNEL: ** Report counts by id
# KERNEL: [ACT_DRV]    65
# KERNEL: [ACT_MON]    32
# KERNEL: [ACT_STREAM_SEQ]    32
# KERNEL: [AXIL_DRV]     5
# KERNEL: [COVERAGE]     1
# KERNEL: [CSR_WRITE_SEQ]     7
# KERNEL: [RESULT_MON]    32
# KERNEL: [RNTST]     1
# KERNEL: [SCO]    75
# KERNEL: [TEST_DONE]     1
# KERNEL: [UVM/RELNOTES]     1
# KERNEL: [WEIGHT_DRV]     2
# KERNEL: [WEIGHT_MON]     2
# KERNEL: [WEIGHT_TILE_SEQ]     1
# KERNEL: [axil_csr_drv]    20
# KERNEL: 
# RUNTIME: Info: RUNTIME_0068 uvm_root.svh (521): $finish called.