# KERNEL: ASDB file was created in location /home/runner/dataset.asdb
# KERNEL: UVM_INFO @ 0: reporter [RNTST] Running test test_023_sparse_1_4_100vectors...
# KERNEL: UVM_INFO @ 0: reporter [MAXQUITSET] '+UVM_MAX_QUIT_COUNT=1,YES' provided on the command line is being applied.
# KERNEL: UVM_INFO /home/runner/accel_scoreboard.sv(297) @ 0: uvm_test_top.env.sco [SCO] Queues flushed
# KERNEL: ===================================================Test_023 : Sparse 1:4 - 100 Vectors - Start=================================================================
# KERNEL:                 Step 1 : Soft Reset + Clear                 
# KERNEL: UVM_INFO /home/runner/accel_axil_agent.sv(42) @ 102500: uvm_test_top.env.axil_a.drv [axil_csr_drv] DUT RESET COMPLETED
# KERNEL: =========================================================================================================================================
# KERNEL: UVM_INFO /home/runner/accel_axis_weight_agent.sv(35) @ 102500: uvm_test_top.env.weight_a.drv [WEIGHT_DRV] Reset done
# KERNEL: =========================================================================================================================================
# KERNEL: UVM_INFO /home/runner/accel_axis_act_agent.sv(35) @ 102500: uvm_test_top.env.act_a.drv [ACT_DRV] Reset done
# KERNEL: =========================================================================================================================================
# KERNEL: UVM_INFO /home/runner/accel_axil_agent.sv(56) @ 102500: uvm_test_top.env.axil_a.drv [axil_csr_drv] WRITE addr=0x0 data=0x48
# KERNEL: UVM_INFO /home/runner/accel_scoreboard.sv(109) @ 127500: uvm_test_top.env.sco [SCO] WRITE addr=0x0 data=0x48
# KERNEL: UVM_INFO /home/runner/accel_axil_agent.sv(121) @ 127500: uvm_test_top.env.axil_a.drv [axil_csr_drv] [CSR] Write Data transaction completed
# KERNEL: UVM_INFO /home/runner/accel_sequences.sv(31) @ 127500: uvm_test_top.env.axil_a.seqr@@wr_seq [CSR_WRITE_SEQ] Written addr=0x0 data=0x48
# KERNEL: UVM_INFO /home/runner/accel_axil_agent.sv(56) @ 177500: uvm_test_top.env.axil_a.drv [axil_csr_drv] WRITE addr=0x0 data=0x8
# KERNEL: UVM_INFO /home/runner/accel_scoreboard.sv(109) @ 202500: uvm_test_top.env.sco [SCO] WRITE addr=0x0 data=0x8
# KERNEL: UVM_INFO /home/runner/accel_axil_agent.sv(121) @ 202500: uvm_test_top.env.axil_a.drv [axil_csr_drv] [CSR] Write Data transaction completed
# KERNEL: UVM_INFO /home/runner/accel_sequences.sv(31) @ 202500: uvm_test_top.env.axil_a.seqr@@wr_seq [CSR_WRITE_SEQ] Written addr=0x0 data=0x8
# KERNEL:                 Step 2 : Configure  CSR_TILE_CFG, CSR_ACT_TILE_CFG, CSR_SPARSITY, CSR_CTRL              
# KERNEL: UVM_INFO /home/runner/accel_axil_agent.sv(56) @ 227500: uvm_test_top.env.axil_a.drv [axil_csr_drv] WRITE addr=0x8 data=0x10064
# KERNEL: UVM_INFO /home/runner/accel_scoreboard.sv(109) @ 252500: uvm_test_top.env.sco [SCO] WRITE addr=0x8 data=0x10064
# KERNEL: UVM_INFO /home/runner/accel_axil_agent.sv(121) @ 252500: uvm_test_top.env.axil_a.drv [axil_csr_drv] [CSR] Write Data transaction completed
# KERNEL: UVM_INFO /home/runner/accel_sequences.sv(31) @ 252500: uvm_test_top.env.axil_a.seqr@@wr_seq [CSR_WRITE_SEQ] Written addr=0x8 data=0x10064
# KERNEL: UVM_INFO /home/runner/accel_axil_agent.sv(56) @ 257500: uvm_test_top.env.axil_a.drv [axil_csr_drv] WRITE addr=0xe4 data=0x10000
# KERNEL: UVM_INFO /home/runner/accel_scoreboard.sv(109) @ 282500: uvm_test_top.env.sco [SCO] WRITE addr=0xe4 data=0x10000
# KERNEL: UVM_INFO /home/runner/accel_axil_agent.sv(121) @ 282500: uvm_test_top.env.axil_a.drv [axil_csr_drv] [CSR] Write Data transaction completed
# KERNEL: UVM_INFO /home/runner/accel_sequences.sv(31) @ 282500: uvm_test_top.env.axil_a.seqr@@wr_seq [CSR_WRITE_SEQ] Written addr=0xe4 data=0x10000
# KERNEL: UVM_INFO /home/runner/accel_axil_agent.sv(56) @ 287500: uvm_test_top.env.axil_a.drv [axil_csr_drv] WRITE addr=0xc data=0x2
# KERNEL: UVM_INFO /home/runner/accel_scoreboard.sv(109) @ 312500: uvm_test_top.env.sco [SCO] WRITE addr=0xc data=0x2
# KERNEL: UVM_INFO /home/runner/accel_axil_agent.sv(121) @ 312500: uvm_test_top.env.axil_a.drv [axil_csr_drv] [CSR] Write Data transaction completed
# KERNEL: UVM_INFO /home/runner/accel_sequences.sv(31) @ 312500: uvm_test_top.env.axil_a.seqr@@wr_seq [CSR_WRITE_SEQ] Written addr=0xc data=0x2
# KERNEL: UVM_INFO /home/runner/accel_axil_agent.sv(56) @ 317500: uvm_test_top.env.axil_a.drv [axil_csr_drv] WRITE addr=0x0 data=0x1
# KERNEL: UVM_INFO /home/runner/accel_scoreboard.sv(109) @ 342500: uvm_test_top.env.sco [SCO] WRITE addr=0x0 data=0x1
# KERNEL: UVM_INFO /home/runner/accel_axil_agent.sv(121) @ 342500: uvm_test_top.env.axil_a.drv [axil_csr_drv] [CSR] Write Data transaction completed
# KERNEL: UVM_INFO /home/runner/accel_sequences.sv(31) @ 342500: uvm_test_top.env.axil_a.seqr@@wr_seq [CSR_WRITE_SEQ] Written addr=0x0 data=0x1
# KERNEL:                 Step 3 : Stream weights                 
# KERNEL: UVM_INFO /home/runner/accel_axis_weight_agent.sv(179) @ 607500: uvm_test_top.env.weight_a.mon [WEIGHT_MON] w0[0]=1 w1[0]=1 idx0[0]=1 idx1[0]=0
# KERNEL: UVM_INFO /home/runner/accel_axis_weight_agent.sv(180) @ 607500: uvm_test_top.env.weight_a.mon [WEIGHT_MON] Weight tile captured
# KERNEL: UVM_INFO /home/runner/accel_scoreboard.sv(149) @ 607500: uvm_test_top.env.sco [SCO] Weight tile stored â€” queue=1
# KERNEL: UVM_INFO /home/runner/accel_axis_weight_agent.sv(101) @ 607500: uvm_test_top.env.weight_a.drv [WEIGHT_DRV] Tile complete
# KERNEL: UVM_INFO /home/runner/accel_sequences.sv(89) @ 607500: uvm_test_top.env.weight_a.seqr@@w_tile_seq [WEIGHT_TILE_SEQ] Weight tile streamed
# KERNEL:                 Step 4 : Enable + Start                 
# KERNEL: UVM_INFO /home/runner/accel_axil_agent.sv(56) @ 622500: uvm_test_top.env.axil_a.drv [axil_csr_drv] WRITE addr=0x0 data=0x3
# KERNEL: UVM_INFO /home/runner/accel_scoreboard.sv(109) @ 647500: uvm_test_top.env.sco [SCO] WRITE addr=0x0 data=0x3
# KERNEL: UVM_INFO /home/runner/accel_axil_agent.sv(121) @ 647500: uvm_test_top.env.axil_a.drv [axil_csr_drv] [CSR] Write Data transaction completed
# KERNEL: UVM_INFO /home/runner/accel_sequences.sv(31) @ 647500: uvm_test_top.env.axil_a.seqr@@wr_seq [CSR_WRITE_SEQ] Written addr=0x0 data=0x3
# KERNEL:                 Step 5 : Stream activations (one per vector)                 
# KERNEL: UVM_INFO /home/runner/accel_scoreboard.sv(154) @ 737500: uvm_test_top.env.sco [SCO] Act vector stored â€” queue=1
# KERNEL: UVM_INFO /home/runner/accel_axis_act_agent.sv(143) @ 737500: uvm_test_top.env.act_a.mon [ACT_MON] Vector captured a0=2 a1=2 a2=2 a3=2 last=0 mode=SPARSE
# KERNEL: UVM_INFO /home/runner/accel_axis_act_agent.sv(69) @ 737500: uvm_test_top.env.act_a.drv [ACT_DRV] Beat 1/1 sent mode=SPARSE last=0
# KERNEL: UVM_INFO /home/runner/accel_sequences.sv(115) @ 737500: uvm_test_top.env.act_a.seqr@@a_stream_seq [ACT_STREAM_SEQ] Activation vector streamed
# KERNEL: UVM_INFO /home/runner/accel_scoreboard.sv(154) @ 742500: uvm_test_top.env.sco [SCO] Act vector stored â€” queue=2
# KERNEL: UVM_INFO /home/runner/accel_axis_act_agent.sv(143) @ 742500: uvm_test_top.env.act_a.mon [ACT_MON] Vector captured a0=2 a1=2 a2=2 a3=2 last=0 mode=SPARSE
# KERNEL: UVM_INFO /home/runner/accel_axis_act_agent.sv(69) @ 742500: uvm_test_top.env.act_a.drv [ACT_DRV] Beat 1/1 sent mode=SPARSE last=0
# KERNEL: UVM_INFO /home/runner/accel_sequences.sv(115) @ 742500: uvm_test_top.env.act_a.seqr@@a_stream_seq [ACT_STREAM_SEQ] Activation vector streamed
# KERNEL: UVM_INFO /home/runner/accel_scoreboard.sv(154) @ 747500: uvm_test_top.env.sco [SCO] Act vector stored â€” queue=3
# KERNEL: UVM_INFO /home/runner/accel_axis_act_agent.sv(143) @ 747500: uvm_test_top.env.act_a.mon [ACT_MON] Vector captured a0=2 a1=2 a2=2 a3=2 last=0 mode=SPARSE
# KERNEL: UVM_INFO /home/runner/accel_axis_act_agent.sv(69) @ 747500: uvm_test_top.env.act_a.drv [ACT_DRV] Beat 1/1 sent mode=SPARSE last=0
# KERNEL: UVM_INFO /home/runner/accel_sequences.sv(115) @ 747500: uvm_test_top.env.act_a.seqr@@a_stream_seq [ACT_STREAM_SEQ] Activation vector streamed
# KERNEL: UVM_INFO /home/runner/accel_scoreboard.sv(154) @ 752500: uvm_test_top.env.sco [SCO] Act vector stored â€” queue=4
# KERNEL: UVM_INFO /home/runner/accel_axis_act_agent.sv(143) @ 752500: uvm_test_top.env.act_a.mon [ACT_MON] Vector captured a0=2 a1=2 a2=2 a3=2 last=0 mode=SPARSE
# KERNEL: UVM_INFO /home/runner/accel_axis_act_agent.sv(69) @ 752500: uvm_test_top.env.act_a.drv [ACT_DRV] Beat 1/1 sent mode=SPARSE last=0
# KERNEL: UVM_INFO /home/runner/accel_sequences.sv(115) @ 752500: uvm_test_top.env.act_a.seqr@@a_stream_seq [ACT_STREAM_SEQ] Activation vector streamed
# KERNEL: UVM_INFO /home/runner/accel_scoreboard.sv(154) @ 757500: uvm_test_top.env.sco [SCO] Act vector stored â€” queue=5
# KERNEL: UVM_INFO /home/runner/accel_axis_act_agent.sv(143) @ 757500: uvm_test_top.env.act_a.mon [ACT_MON] Vector captured a0=2 a1=2 a2=2 a3=2 last=0 mode=SPARSE
# KERNEL: UVM_INFO /home/runner/accel_axis_act_agent.sv(69) @ 757500: uvm_test_top.env.act_a.drv [ACT_DRV] Beat 1/1 sent mode=SPARSE last=0
# KERNEL: UVM_INFO /home/runner/accel_sequences.sv(115) @ 757500: uvm_test_top.env.act_a.seqr@@a_stream_seq [ACT_STREAM_SEQ] Activation vector streamed
# KERNEL: UVM_INFO /home/runner/accel_scoreboard.sv(154) @ 762500: uvm_test_top.env.sco [SCO] Act vector stored â€” queue=6
# KERNEL: UVM_INFO /home/runner/accel_axis_act_agent.sv(143) @ 762500: uvm_test_top.env.act_a.mon [ACT_MON] Vector captured a0=2 a1=2 a2=2 a3=2 last=0 mode=SPARSE
# KERNEL: UVM_INFO /home/runner/accel_axis_act_agent.sv(69) @ 762500: uvm_test_top.env.act_a.drv [ACT_DRV] Beat 1/1 sent mode=SPARSE last=0
# KERNEL: UVM_INFO /home/runner/accel_sequences.sv(115) @ 762500: uvm_test_top.env.act_a.seqr@@a_stream_seq [ACT_STREAM_SEQ] Activation vector streamed
# KERNEL: UVM_INFO /home/runner/accel_scoreboard.sv(154) @ 767500: uvm_test_top.env.sco [SCO] Act vector stored â€” queue=7
# KERNEL: UVM_INFO /home/runner/accel_axis_act_agent.sv(143) @ 767500: uvm_test_top.env.act_a.mon [ACT_MON] Vector captured a0=2 a1=2 a2=2 a3=2 last=0 mode=SPARSE
# KERNEL: UVM_INFO /home/runner/accel_axis_act_agent.sv(69) @ 767500: uvm_test_top.env.act_a.drv [ACT_DRV] Beat 1/1 sent mode=SPARSE last=0
# KERNEL: UVM_INFO /home/runner/accel_sequences.sv(115) @ 767500: uvm_test_top.env.act_a.seqr@@a_stream_seq [ACT_STREAM_SEQ] Activation vector streamed
# KERNEL: UVM_INFO /home/runner/accel_scoreboard.sv(154) @ 772500: uvm_test_top.env.sco [SCO] Act vector stored â€” queue=8
# KERNEL: UVM_INFO /home/runner/accel_axis_act_agent.sv(143) @ 772500: uvm_test_top.env.act_a.mon [ACT_MON] Vector captured a0=2 a1=2 a2=2 a3=2 last=0 mode=SPARSE
# KERNEL: UVM_INFO /home/runner/accel_axis_act_agent.sv(69) @ 772500: uvm_test_top.env.act_a.drv [ACT_DRV] Beat 1/1 sent mode=SPARSE last=0
# KERNEL: UVM_INFO /home/runner/accel_sequences.sv(115) @ 772500: uvm_test_top.env.act_a.seqr@@a_stream_seq [ACT_STREAM_SEQ] Activation vector streamed
# KERNEL: UVM_INFO /home/runner/accel_scoreboard.sv(154) @ 777500: uvm_test_top.env.sco [SCO] Act vector stored â€” queue=9
# KERNEL: UVM_INFO /home/runner/accel_axis_act_agent.sv(143) @ 777500: uvm_test_top.env.act_a.mon [ACT_MON] Vector captured a0=2 a1=2 a2=2 a3=2 last=0 mode=SPARSE
# KERNEL: UVM_INFO /home/runner/accel_axis_act_agent.sv(69) @ 777500: uvm_test_top.env.act_a.drv [ACT_DRV] Beat 1/1 sent mode=SPARSE last=0
# KERNEL: UVM_INFO /home/runner/accel_sequences.sv(115) @ 777500: uvm_test_top.env.act_a.seqr@@a_stream_seq [ACT_STREAM_SEQ] Activation vector streamed
# KERNEL: UVM_INFO /home/runner/accel_scoreboard.sv(154) @ 782500: uvm_test_top.env.sco [SCO] Act vector stored â€” queue=10
# KERNEL: UVM_INFO /home/runner/accel_axis_act_agent.sv(143) @ 782500: uvm_test_top.env.act_a.mon [ACT_MON] Vector captured a0=2 a1=2 a2=2 a3=2 last=0 mode=SPARSE
# KERNEL: UVM_INFO /home/runner/accel_axis_act_agent.sv(69) @ 782500: uvm_test_top.env.act_a.drv [ACT_DRV] Beat 1/1 sent mode=SPARSE last=0
# KERNEL: UVM_INFO /home/runner/accel_sequences.sv(115) @ 782500: uvm_test_top.env.act_a.seqr@@a_stream_seq [ACT_STREAM_SEQ] Activation vector streamed
# KERNEL: UVM_INFO /home/runner/accel_scoreboard.sv(154) @ 787500: uvm_test_top.env.sco [SCO] Act vector stored â€” queue=11
# KERNEL: UVM_INFO /home/runner/accel_axis_act_agent.sv(143) @ 787500: uvm_test_top.env.act_a.mon [ACT_MON] Vector captured a0=2 a1=2 a2=2 a3=2 last=0 mode=SPARSE
# KERNEL: UVM_INFO /home/runner/accel_axis_act_agent.sv(69) @ 787500: uvm_test_top.env.act_a.drv [ACT_DRV] Beat 1/1 sent mode=SPARSE last=0
# KERNEL: UVM_INFO /home/runner/accel_sequences.sv(115) @ 787500: uvm_test_top.env.act_a.seqr@@a_stream_seq [ACT_STREAM_SEQ] Activation vector streamed
# KERNEL: UVM_INFO /home/runner/accel_scoreboard.sv(154) @ 792500: uvm_test_top.env.sco [SCO] Act vector stored â€” queue=12
# KERNEL: UVM_INFO /home/runner/accel_axis_act_agent.sv(143) @ 792500: uvm_test_top.env.act_a.mon [ACT_MON] Vector captured a0=2 a1=2 a2=2 a3=2 last=0 mode=SPARSE
# KERNEL: UVM_INFO /home/runner/accel_axis_act_agent.sv(69) @ 792500: uvm_test_top.env.act_a.drv [ACT_DRV] Beat 1/1 sent mode=SPARSE last=0
# KERNEL: UVM_INFO /home/runner/accel_sequences.sv(115) @ 792500: uvm_test_top.env.act_a.seqr@@a_stream_seq [ACT_STREAM_SEQ] Activation vector streamed
# KERNEL: UVM_INFO /home/runner/accel_scoreboard.sv(154) @ 797500: uvm_test_top.env.sco [SCO] Act vector stored â€” queue=13
# KERNEL: UVM_INFO /home/runner/accel_axis_act_agent.sv(143) @ 797500: uvm_test_top.env.act_a.mon [ACT_MON] Vector captured a0=2 a1=2 a2=2 a3=2 last=0 mode=SPARSE
# KERNEL: UVM_INFO /home/runner/accel_axis_act_agent.sv(69) @ 797500: uvm_test_top.env.act_a.drv [ACT_DRV] Beat 1/1 sent mode=SPARSE last=0
# KERNEL: UVM_INFO /home/runner/accel_sequences.sv(115) @ 797500: uvm_test_top.env.act_a.seqr@@a_stream_seq [ACT_STREAM_SEQ] Activation vector streamed
# KERNEL: UVM_INFO /home/runner/accel_scoreboard.sv(154) @ 802500: uvm_test_top.env.sco [SCO] Act vector stored â€” queue=14
# KERNEL: UVM_INFO /home/runner/accel_axis_act_agent.sv(143) @ 802500: uvm_test_top.env.act_a.mon [ACT_MON] Vector captured a0=2 a1=2 a2=2 a3=2 last=0 mode=SPARSE
# KERNEL: UVM_INFO /home/runner/accel_axis_act_agent.sv(69) @ 802500: uvm_test_top.env.act_a.drv [ACT_DRV] Beat 1/1 sent mode=SPARSE last=0
# KERNEL: UVM_INFO /home/runner/accel_sequences.sv(115) @ 802500: uvm_test_top.env.act_a.seqr@@a_stream_seq [ACT_STREAM_SEQ] Activation vector streamed
# KERNEL: UVM_INFO /home/runner/accel_scoreboard.sv(154) @ 807500: uvm_test_top.env.sco [SCO] Act vector stored â€” queue=15
# KERNEL: UVM_INFO /home/runner/accel_axis_act_agent.sv(143) @ 807500: uvm_test_top.env.act_a.mon [ACT_MON] Vector captured a0=2 a1=2 a2=2 a3=2 last=0 mode=SPARSE
# KERNEL: UVM_INFO /home/runner/accel_axis_act_agent.sv(69) @ 807500: uvm_test_top.env.act_a.drv [ACT_DRV] Beat 1/1 sent mode=SPARSE last=0
# KERNEL: UVM_INFO /home/runner/accel_sequences.sv(115) @ 807500: uvm_test_top.env.act_a.seqr@@a_stream_seq [ACT_STREAM_SEQ] Activation vector streamed
# KERNEL: UVM_INFO /home/runner/accel_scoreboard.sv(154) @ 812500: uvm_test_top.env.sco [SCO] Act vector stored â€” queue=16
# KERNEL: UVM_INFO /home/runner/accel_axis_act_agent.sv(143) @ 812500: uvm_test_top.env.act_a.mon [ACT_MON] Vector captured a0=2 a1=2 a2=2 a3=2 last=0 mode=SPARSE
# KERNEL: UVM_INFO /home/runner/accel_axis_act_agent.sv(69) @ 812500: uvm_test_top.env.act_a.drv [ACT_DRV] Beat 1/1 sent mode=SPARSE last=0
# KERNEL: UVM_INFO /home/runner/accel_sequences.sv(115) @ 812500: uvm_test_top.env.act_a.seqr@@a_stream_seq [ACT_STREAM_SEQ] Activation vector streamed
# KERNEL: UVM_INFO /home/runner/accel_scoreboard.sv(154) @ 817500: uvm_test_top.env.sco [SCO] Act vector stored â€” queue=17
# KERNEL: UVM_INFO /home/runner/accel_axis_act_agent.sv(143) @ 817500: uvm_test_top.env.act_a.mon [ACT_MON] Vector captured a0=2 a1=2 a2=2 a3=2 last=0 mode=SPARSE
# KERNEL: UVM_INFO /home/runner/accel_axis_act_agent.sv(69) @ 817500: uvm_test_top.env.act_a.drv [ACT_DRV] Beat 1/1 sent mode=SPARSE last=0
# KERNEL: UVM_INFO /home/runner/accel_sequences.sv(115) @ 817500: uvm_test_top.env.act_a.seqr@@a_stream_seq [ACT_STREAM_SEQ] Activation vector streamed
# KERNEL: UVM_INFO /home/runner/accel_scoreboard.sv(154) @ 822500: uvm_test_top.env.sco [SCO] Act vector stored â€” queue=18
# KERNEL: UVM_INFO /home/runner/accel_axis_act_agent.sv(143) @ 822500: uvm_test_top.env.act_a.mon [ACT_MON] Vector captured a0=2 a1=2 a2=2 a3=2 last=0 mode=SPARSE
# KERNEL: UVM_INFO /home/runner/accel_axis_act_agent.sv(69) @ 822500: uvm_test_top.env.act_a.drv [ACT_DRV] Beat 1/1 sent mode=SPARSE last=0
# KERNEL: UVM_INFO /home/runner/accel_sequences.sv(115) @ 822500: uvm_test_top.env.act_a.seqr@@a_stream_seq [ACT_STREAM_SEQ] Activation vector streamed
# KERNEL: UVM_INFO /home/runner/accel_scoreboard.sv(154) @ 827500: uvm_test_top.env.sco [SCO] Act vector stored â€” queue=19
# KERNEL: UVM_INFO /home/runner/accel_axis_act_agent.sv(143) @ 827500: uvm_test_top.env.act_a.mon [ACT_MON] Vector captured a0=2 a1=2 a2=2 a3=2 last=0 mode=SPARSE
# KERNEL: UVM_INFO /home/runner/accel_axis_act_agent.sv(69) @ 827500: uvm_test_top.env.act_a.drv [ACT_DRV] Beat 1/1 sent mode=SPARSE last=0
# KERNEL: UVM_INFO /home/runner/accel_sequences.sv(115) @ 827500: uvm_test_top.env.act_a.seqr@@a_stream_seq [ACT_STREAM_SEQ] Activation vector streamed
# KERNEL: UVM_INFO /home/runner/accel_scoreboard.sv(154) @ 832500: uvm_test_top.env.sco [SCO] Act vector stored â€” queue=20
# KERNEL: UVM_INFO /home/runner/accel_axis_act_agent.sv(143) @ 832500: uvm_test_top.env.act_a.mon [ACT_MON] Vector captured a0=2 a1=2 a2=2 a3=2 last=0 mode=SPARSE
# KERNEL: UVM_INFO /home/runner/accel_axis_act_agent.sv(69) @ 832500: uvm_test_top.env.act_a.drv [ACT_DRV] Beat 1/1 sent mode=SPARSE last=0
# KERNEL: UVM_INFO /home/runner/accel_sequences.sv(115) @ 832500: uvm_test_top.env.act_a.seqr@@a_stream_seq [ACT_STREAM_SEQ] Activation vector streamed
# KERNEL: UVM_INFO /home/runner/accel_scoreboard.sv(154) @ 837500: uvm_test_top.env.sco [SCO] Act vector stored â€” queue=21
# KERNEL: UVM_INFO /home/runner/accel_axis_act_agent.sv(143) @ 837500: uvm_test_top.env.act_a.mon [ACT_MON] Vector captured a0=2 a1=2 a2=2 a3=2 last=0 mode=SPARSE
# KERNEL: UVM_INFO /home/runner/accel_axis_act_agent.sv(69) @ 837500: uvm_test_top.env.act_a.drv [ACT_DRV] Beat 1/1 sent mode=SPARSE last=0
# KERNEL: UVM_INFO /home/runner/accel_sequences.sv(115) @ 837500: uvm_test_top.env.act_a.seqr@@a_stream_seq [ACT_STREAM_SEQ] Activation vector streamed
# KERNEL: UVM_INFO /home/runner/accel_scoreboard.sv(154) @ 842500: uvm_test_top.env.sco [SCO] Act vector stored â€” queue=22
# KERNEL: UVM_INFO /home/runner/accel_axis_act_agent.sv(143) @ 842500: uvm_test_top.env.act_a.mon [ACT_MON] Vector captured a0=2 a1=2 a2=2 a3=2 last=0 mode=SPARSE
# KERNEL: UVM_INFO /home/runner/accel_axis_act_agent.sv(69) @ 842500: uvm_test_top.env.act_a.drv [ACT_DRV] Beat 1/1 sent mode=SPARSE last=0
# KERNEL: UVM_INFO /home/runner/accel_sequences.sv(115) @ 842500: uvm_test_top.env.act_a.seqr@@a_stream_seq [ACT_STREAM_SEQ] Activation vector streamed
# KERNEL: UVM_INFO /home/runner/accel_scoreboard.sv(154) @ 847500: uvm_test_top.env.sco [SCO] Act vector stored â€” queue=23
# KERNEL: UVM_INFO /home/runner/accel_axis_act_agent.sv(143) @ 847500: uvm_test_top.env.act_a.mon [ACT_MON] Vector captured a0=2 a1=2 a2=2 a3=2 last=0 mode=SPARSE
# KERNEL: UVM_INFO /home/runner/accel_axis_act_agent.sv(69) @ 847500: uvm_test_top.env.act_a.drv [ACT_DRV] Beat 1/1 sent mode=SPARSE last=0
# KERNEL: UVM_INFO /home/runner/accel_sequences.sv(115) @ 847500: uvm_test_top.env.act_a.seqr@@a_stream_seq [ACT_STREAM_SEQ] Activation vector streamed
# KERNEL: UVM_INFO /home/runner/accel_scoreboard.sv(154) @ 852500: uvm_test_top.env.sco [SCO] Act vector stored â€” queue=24
# KERNEL: UVM_INFO /home/runner/accel_axis_act_agent.sv(143) @ 852500: uvm_test_top.env.act_a.mon [ACT_MON] Vector captured a0=2 a1=2 a2=2 a3=2 last=0 mode=SPARSE
# KERNEL: UVM_INFO /home/runner/accel_axis_act_agent.sv(69) @ 852500: uvm_test_top.env.act_a.drv [ACT_DRV] Beat 1/1 sent mode=SPARSE last=0
# KERNEL: UVM_INFO /home/runner/accel_sequences.sv(115) @ 852500: uvm_test_top.env.act_a.seqr@@a_stream_seq [ACT_STREAM_SEQ] Activation vector streamed
# KERNEL: UVM_INFO /home/runner/accel_scoreboard.sv(154) @ 857500: uvm_test_top.env.sco [SCO] Act vector stored â€” queue=25
# KERNEL: UVM_INFO /home/runner/accel_axis_act_agent.sv(143) @ 857500: uvm_test_top.env.act_a.mon [ACT_MON] Vector captured a0=2 a1=2 a2=2 a3=2 last=0 mode=SPARSE
# KERNEL: UVM_INFO /home/runner/accel_axis_act_agent.sv(69) @ 857500: uvm_test_top.env.act_a.drv [ACT_DRV] Beat 1/1 sent mode=SPARSE last=0
# KERNEL: UVM_INFO /home/runner/accel_sequences.sv(115) @ 857500: uvm_test_top.env.act_a.seqr@@a_stream_seq [ACT_STREAM_SEQ] Activation vector streamed
# KERNEL: UVM_INFO /home/runner/accel_scoreboard.sv(154) @ 862500: uvm_test_top.env.sco [SCO] Act vector stored â€” queue=26
# KERNEL: UVM_INFO /home/runner/accel_axis_act_agent.sv(143) @ 862500: uvm_test_top.env.act_a.mon [ACT_MON] Vector captured a0=2 a1=2 a2=2 a3=2 last=0 mode=SPARSE
# KERNEL: UVM_INFO /home/runner/accel_axis_act_agent.sv(69) @ 862500: uvm_test_top.env.act_a.drv [ACT_DRV] Beat 1/1 sent mode=SPARSE last=0
# KERNEL: UVM_INFO /home/runner/accel_sequences.sv(115) @ 862500: uvm_test_top.env.act_a.seqr@@a_stream_seq [ACT_STREAM_SEQ] Activation vector streamed
# KERNEL: UVM_INFO /home/runner/accel_scoreboard.sv(154) @ 867500: uvm_test_top.env.sco [SCO] Act vector stored â€” queue=27
# KERNEL: UVM_INFO /home/runner/accel_axis_act_agent.sv(143) @ 867500: uvm_test_top.env.act_a.mon [ACT_MON] Vector captured a0=2 a1=2 a2=2 a3=2 last=0 mode=SPARSE
# KERNEL: UVM_INFO /home/runner/accel_axis_act_agent.sv(69) @ 867500: uvm_test_top.env.act_a.drv [ACT_DRV] Beat 1/1 sent mode=SPARSE last=0
# KERNEL: UVM_INFO /home/runner/accel_sequences.sv(115) @ 867500: uvm_test_top.env.act_a.seqr@@a_stream_seq [ACT_STREAM_SEQ] Activation vector streamed
# KERNEL: UVM_INFO /home/runner/accel_scoreboard.sv(154) @ 872500: uvm_test_top.env.sco [SCO] Act vector stored â€” queue=28
# KERNEL: UVM_INFO /home/runner/accel_axis_act_agent.sv(143) @ 872500: uvm_test_top.env.act_a.mon [ACT_MON] Vector captured a0=2 a1=2 a2=2 a3=2 last=0 mode=SPARSE
# KERNEL: UVM_INFO /home/runner/accel_axis_act_agent.sv(69) @ 872500: uvm_test_top.env.act_a.drv [ACT_DRV] Beat 1/1 sent mode=SPARSE last=0
# KERNEL: UVM_INFO /home/runner/accel_sequences.sv(115) @ 872500: uvm_test_top.env.act_a.seqr@@a_stream_seq [ACT_STREAM_SEQ] Activation vector streamed
# KERNEL: UVM_INFO /home/runner/accel_scoreboard.sv(154) @ 877500: uvm_test_top.env.sco [SCO] Act vector stored â€” queue=29
# KERNEL: UVM_INFO /home/runner/accel_axis_act_agent.sv(143) @ 877500: uvm_test_top.env.act_a.mon [ACT_MON] Vector captured a0=2 a1=2 a2=2 a3=2 last=0 mode=SPARSE
# KERNEL: UVM_INFO /home/runner/accel_axis_act_agent.sv(69) @ 877500: uvm_test_top.env.act_a.drv [ACT_DRV] Beat 1/1 sent mode=SPARSE last=0
# KERNEL: UVM_INFO /home/runner/accel_sequences.sv(115) @ 877500: uvm_test_top.env.act_a.seqr@@a_stream_seq [ACT_STREAM_SEQ] Activation vector streamed
# KERNEL: UVM_INFO /home/runner/accel_scoreboard.sv(154) @ 882500: uvm_test_top.env.sco [SCO] Act vector stored â€” queue=30
# KERNEL: UVM_INFO /home/runner/accel_axis_act_agent.sv(143) @ 882500: uvm_test_top.env.act_a.mon [ACT_MON] Vector captured a0=2 a1=2 a2=2 a3=2 last=0 mode=SPARSE
# KERNEL: UVM_INFO /home/runner/accel_axis_act_agent.sv(69) @ 882500: uvm_test_top.env.act_a.drv [ACT_DRV] Beat 1/1 sent mode=SPARSE last=0
# KERNEL: UVM_INFO /home/runner/accel_sequences.sv(115) @ 882500: uvm_test_top.env.act_a.seqr@@a_stream_seq [ACT_STREAM_SEQ] Activation vector streamed
# KERNEL: UVM_INFO /home/runner/accel_scoreboard.sv(154) @ 887500: uvm_test_top.env.sco [SCO] Act vector stored â€” queue=31
# KERNEL: UVM_INFO /home/runner/accel_axis_act_agent.sv(143) @ 887500: uvm_test_top.env.act_a.mon [ACT_MON] Vector captured a0=2 a1=2 a2=2 a3=2 last=0 mode=SPARSE
# KERNEL: UVM_INFO /home/runner/accel_axis_act_agent.sv(69) @ 887500: uvm_test_top.env.act_a.drv [ACT_DRV] Beat 1/1 sent mode=SPARSE last=0
# KERNEL: UVM_INFO /home/runner/accel_sequences.sv(115) @ 887500: uvm_test_top.env.act_a.seqr@@a_stream_seq [ACT_STREAM_SEQ] Activation vector streamed
# KERNEL: UVM_INFO /home/runner/accel_scoreboard.sv(154) @ 892500: uvm_test_top.env.sco [SCO] Act vector stored â€” queue=32
# KERNEL: UVM_INFO /home/runner/accel_axis_act_agent.sv(143) @ 892500: uvm_test_top.env.act_a.mon [ACT_MON] Vector captured a0=2 a1=2 a2=2 a3=2 last=0 mode=SPARSE
# KERNEL: UVM_INFO /home/runner/accel_axis_act_agent.sv(69) @ 892500: uvm_test_top.env.act_a.drv [ACT_DRV] Beat 1/1 sent mode=SPARSE last=0
# KERNEL: UVM_INFO /home/runner/accel_sequences.sv(115) @ 892500: uvm_test_top.env.act_a.seqr@@a_stream_seq [ACT_STREAM_SEQ] Activation vector streamed
# KERNEL: UVM_INFO /home/runner/accel_scoreboard.sv(154) @ 897500: uvm_test_top.env.sco [SCO] Act vector stored â€” queue=33
# KERNEL: UVM_INFO /home/runner/accel_axis_act_agent.sv(143) @ 897500: uvm_test_top.env.act_a.mon [ACT_MON] Vector captured a0=2 a1=2 a2=2 a3=2 last=0 mode=SPARSE
# KERNEL: UVM_INFO /home/runner/accel_axis_act_agent.sv(69) @ 897500: uvm_test_top.env.act_a.drv [ACT_DRV] Beat 1/1 sent mode=SPARSE last=0
# KERNEL: UVM_INFO /home/runner/accel_sequences.sv(115) @ 897500: uvm_test_top.env.act_a.seqr@@a_stream_seq [ACT_STREAM_SEQ] Activation vector streamed
# KERNEL: UVM_INFO /home/runner/accel_scoreboard.sv(154) @ 902500: uvm_test_top.env.sco [SCO] Act vector stored â€” queue=34
# KERNEL: UVM_INFO /home/runner/accel_axis_act_agent.sv(143) @ 902500: uvm_test_top.env.act_a.mon [ACT_MON] Vector captured a0=2 a1=2 a2=2 a3=2 last=0 mode=SPARSE
# KERNEL: UVM_INFO /home/runner/accel_axis_act_agent.sv(69) @ 902500: uvm_test_top.env.act_a.drv [ACT_DRV] Beat 1/1 sent mode=SPARSE last=0
# KERNEL: UVM_INFO /home/runner/accel_sequences.sv(115) @ 902500: uvm_test_top.env.act_a.seqr@@a_stream_seq [ACT_STREAM_SEQ] Activation vector streamed
# KERNEL: UVM_INFO /home/runner/accel_scoreboard.sv(154) @ 907500: uvm_test_top.env.sco [SCO] Act vector stored â€” queue=35
# KERNEL: UVM_INFO /home/runner/accel_axis_act_agent.sv(143) @ 907500: uvm_test_top.env.act_a.mon [ACT_MON] Vector captured a0=2 a1=2 a2=2 a3=2 last=0 mode=SPARSE
# KERNEL: UVM_INFO /home/runner/accel_axis_act_agent.sv(69) @ 907500: uvm_test_top.env.act_a.drv [ACT_DRV] Beat 1/1 sent mode=SPARSE last=0
# KERNEL: UVM_INFO /home/runner/accel_sequences.sv(115) @ 907500: uvm_test_top.env.act_a.seqr@@a_stream_seq [ACT_STREAM_SEQ] Activation vector streamed
# KERNEL: UVM_INFO /home/runner/accel_scoreboard.sv(154) @ 912500: uvm_test_top.env.sco [SCO] Act vector stored â€” queue=36
# KERNEL: UVM_INFO /home/runner/accel_axis_act_agent.sv(143) @ 912500: uvm_test_top.env.act_a.mon [ACT_MON] Vector captured a0=2 a1=2 a2=2 a3=2 last=0 mode=SPARSE
# KERNEL: UVM_INFO /home/runner/accel_axis_act_agent.sv(69) @ 912500: uvm_test_top.env.act_a.drv [ACT_DRV] Beat 1/1 sent mode=SPARSE last=0
# KERNEL: UVM_INFO /home/runner/accel_sequences.sv(115) @ 912500: uvm_test_top.env.act_a.seqr@@a_stream_seq [ACT_STREAM_SEQ] Activation vector streamed
# KERNEL: UVM_INFO /home/runner/accel_scoreboard.sv(154) @ 917500: uvm_test_top.env.sco [SCO] Act vector stored â€” queue=37
# KERNEL: UVM_INFO /home/runner/accel_axis_act_agent.sv(143) @ 917500: uvm_test_top.env.act_a.mon [ACT_MON] Vector captured a0=2 a1=2 a2=2 a3=2 last=0 mode=SPARSE
# KERNEL: UVM_INFO /home/runner/accel_axis_act_agent.sv(69) @ 917500: uvm_test_top.env.act_a.drv [ACT_DRV] Beat 1/1 sent mode=SPARSE last=0
# KERNEL: UVM_INFO /home/runner/accel_sequences.sv(115) @ 917500: uvm_test_top.env.act_a.seqr@@a_stream_seq [ACT_STREAM_SEQ] Activation vector streamed
# KERNEL: UVM_INFO /home/runner/accel_scoreboard.sv(154) @ 922500: uvm_test_top.env.sco [SCO] Act vector stored â€” queue=38
# KERNEL: UVM_INFO /home/runner/accel_axis_act_agent.sv(143) @ 922500: uvm_test_top.env.act_a.mon [ACT_MON] Vector captured a0=2 a1=2 a2=2 a3=2 last=0 mode=SPARSE
# KERNEL: UVM_INFO /home/runner/accel_axis_act_agent.sv(69) @ 922500: uvm_test_top.env.act_a.drv [ACT_DRV] Beat 1/1 sent mode=SPARSE last=0
# KERNEL: UVM_INFO /home/runner/accel_sequences.sv(115) @ 922500: uvm_test_top.env.act_a.seqr@@a_stream_seq [ACT_STREAM_SEQ] Activation vector streamed
# KERNEL: UVM_INFO /home/runner/accel_scoreboard.sv(154) @ 927500: uvm_test_top.env.sco [SCO] Act vector stored â€” queue=39
# KERNEL: UVM_INFO /home/runner/accel_axis_act_agent.sv(143) @ 927500: uvm_test_top.env.act_a.mon [ACT_MON] Vector captured a0=2 a1=2 a2=2 a3=2 last=0 mode=SPARSE
# KERNEL: UVM_INFO /home/runner/accel_axis_act_agent.sv(69) @ 927500: uvm_test_top.env.act_a.drv [ACT_DRV] Beat 1/1 sent mode=SPARSE last=0
# KERNEL: UVM_INFO /home/runner/accel_sequences.sv(115) @ 927500: uvm_test_top.env.act_a.seqr@@a_stream_seq [ACT_STREAM_SEQ] Activation vector streamed
# KERNEL: UVM_INFO /home/runner/accel_scoreboard.sv(154) @ 932500: uvm_test_top.env.sco [SCO] Act vector stored â€” queue=40
# KERNEL: UVM_INFO /home/runner/accel_axis_act_agent.sv(143) @ 932500: uvm_test_top.env.act_a.mon [ACT_MON] Vector captured a0=2 a1=2 a2=2 a3=2 last=0 mode=SPARSE
# KERNEL: UVM_INFO /home/runner/accel_axis_act_agent.sv(69) @ 932500: uvm_test_top.env.act_a.drv [ACT_DRV] Beat 1/1 sent mode=SPARSE last=0
# KERNEL: UVM_INFO /home/runner/accel_sequences.sv(115) @ 932500: uvm_test_top.env.act_a.seqr@@a_stream_seq [ACT_STREAM_SEQ] Activation vector streamed
# KERNEL: UVM_INFO /home/runner/accel_scoreboard.sv(154) @ 937500: uvm_test_top.env.sco [SCO] Act vector stored â€” queue=41
# KERNEL: UVM_INFO /home/runner/accel_axis_act_agent.sv(143) @ 937500: uvm_test_top.env.act_a.mon [ACT_MON] Vector captured a0=2 a1=2 a2=2 a3=2 last=0 mode=SPARSE
# KERNEL: UVM_INFO /home/runner/accel_axis_act_agent.sv(69) @ 937500: uvm_test_top.env.act_a.drv [ACT_DRV] Beat 1/1 sent mode=SPARSE last=0
# KERNEL: UVM_INFO /home/runner/accel_sequences.sv(115) @ 937500: uvm_test_top.env.act_a.seqr@@a_stream_seq [ACT_STREAM_SEQ] Activation vector streamed
# KERNEL: UVM_INFO /home/runner/accel_scoreboard.sv(154) @ 942500: uvm_test_top.env.sco [SCO] Act vector stored â€” queue=42
# KERNEL: UVM_INFO /home/runner/accel_axis_act_agent.sv(143) @ 942500: uvm_test_top.env.act_a.mon [ACT_MON] Vector captured a0=2 a1=2 a2=2 a3=2 last=0 mode=SPARSE
# KERNEL: UVM_INFO /home/runner/accel_axis_act_agent.sv(69) @ 942500: uvm_test_top.env.act_a.drv [ACT_DRV] Beat 1/1 sent mode=SPARSE last=0
# KERNEL: UVM_INFO /home/runner/accel_sequences.sv(115) @ 942500: uvm_test_top.env.act_a.seqr@@a_stream_seq [ACT_STREAM_SEQ] Activation vector streamed
# KERNEL: UVM_INFO /home/runner/accel_scoreboard.sv(154) @ 947500: uvm_test_top.env.sco [SCO] Act vector stored â€” queue=43
# KERNEL: UVM_INFO /home/runner/accel_axis_act_agent.sv(143) @ 947500: uvm_test_top.env.act_a.mon [ACT_MON] Vector captured a0=2 a1=2 a2=2 a3=2 last=0 mode=SPARSE
# KERNEL: UVM_INFO /home/runner/accel_axis_act_agent.sv(69) @ 947500: uvm_test_top.env.act_a.drv [ACT_DRV] Beat 1/1 sent mode=SPARSE last=0
# KERNEL: UVM_INFO /home/runner/accel_sequences.sv(115) @ 947500: uvm_test_top.env.act_a.seqr@@a_stream_seq [ACT_STREAM_SEQ] Activation vector streamed
# KERNEL: UVM_INFO /home/runner/accel_scoreboard.sv(154) @ 952500: uvm_test_top.env.sco [SCO] Act vector stored â€” queue=44
# KERNEL: UVM_INFO /home/runner/accel_axis_act_agent.sv(143) @ 952500: uvm_test_top.env.act_a.mon [ACT_MON] Vector captured a0=2 a1=2 a2=2 a3=2 last=0 mode=SPARSE
# KERNEL: UVM_INFO /home/runner/accel_axis_act_agent.sv(69) @ 952500: uvm_test_top.env.act_a.drv [ACT_DRV] Beat 1/1 sent mode=SPARSE last=0
# KERNEL: UVM_INFO /home/runner/accel_sequences.sv(115) @ 952500: uvm_test_top.env.act_a.seqr@@a_stream_seq [ACT_STREAM_SEQ] Activation vector streamed
# KERNEL: UVM_INFO /home/runner/accel_scoreboard.sv(154) @ 957500: uvm_test_top.env.sco [SCO] Act vector stored â€” queue=45
# KERNEL: UVM_INFO /home/runner/accel_axis_act_agent.sv(143) @ 957500: uvm_test_top.env.act_a.mon [ACT_MON] Vector captured a0=2 a1=2 a2=2 a3=2 last=0 mode=SPARSE
# KERNEL: UVM_INFO /home/runner/accel_axis_act_agent.sv(69) @ 957500: uvm_test_top.env.act_a.drv [ACT_DRV] Beat 1/1 sent mode=SPARSE last=0
# KERNEL: UVM_INFO /home/runner/accel_sequences.sv(115) @ 957500: uvm_test_top.env.act_a.seqr@@a_stream_seq [ACT_STREAM_SEQ] Activation vector streamed
# KERNEL: UVM_INFO /home/runner/accel_scoreboard.sv(154) @ 962500: uvm_test_top.env.sco [SCO] Act vector stored â€” queue=46
# KERNEL: UVM_INFO /home/runner/accel_axis_act_agent.sv(143) @ 962500: uvm_test_top.env.act_a.mon [ACT_MON] Vector captured a0=2 a1=2 a2=2 a3=2 last=0 mode=SPARSE
# KERNEL: UVM_INFO /home/runner/accel_axis_act_agent.sv(69) @ 962500: uvm_test_top.env.act_a.drv [ACT_DRV] Beat 1/1 sent mode=SPARSE last=0
# KERNEL: UVM_INFO /home/runner/accel_sequences.sv(115) @ 962500: uvm_test_top.env.act_a.seqr@@a_stream_seq [ACT_STREAM_SEQ] Activation vector streamed
# KERNEL: UVM_INFO /home/runner/accel_scoreboard.sv(154) @ 967500: uvm_test_top.env.sco [SCO] Act vector stored â€” queue=47
# KERNEL: UVM_INFO /home/runner/accel_axis_act_agent.sv(143) @ 967500: uvm_test_top.env.act_a.mon [ACT_MON] Vector captured a0=2 a1=2 a2=2 a3=2 last=0 mode=SPARSE
# KERNEL: UVM_INFO /home/runner/accel_axis_act_agent.sv(69) @ 967500: uvm_test_top.env.act_a.drv [ACT_DRV] Beat 1/1 sent mode=SPARSE last=0
# KERNEL: UVM_INFO /home/runner/accel_sequences.sv(115) @ 967500: uvm_test_top.env.act_a.seqr@@a_stream_seq [ACT_STREAM_SEQ] Activation vector streamed
# KERNEL: UVM_INFO /home/runner/accel_scoreboard.sv(154) @ 972500: uvm_test_top.env.sco [SCO] Act vector stored â€” queue=48
# KERNEL: UVM_INFO /home/runner/accel_axis_act_agent.sv(143) @ 972500: uvm_test_top.env.act_a.mon [ACT_MON] Vector captured a0=2 a1=2 a2=2 a3=2 last=0 mode=SPARSE
# KERNEL: UVM_INFO /home/runner/accel_axis_act_agent.sv(69) @ 972500: uvm_test_top.env.act_a.drv [ACT_DRV] Beat 1/1 sent mode=SPARSE last=0
# KERNEL: UVM_INFO /home/runner/accel_sequences.sv(115) @ 972500: uvm_test_top.env.act_a.seqr@@a_stream_seq [ACT_STREAM_SEQ] Activation vector streamed
# KERNEL: UVM_INFO /home/runner/accel_scoreboard.sv(154) @ 977500: uvm_test_top.env.sco [SCO] Act vector stored â€” queue=49
# KERNEL: UVM_INFO /home/runner/accel_axis_act_agent.sv(143) @ 977500: uvm_test_top.env.act_a.mon [ACT_MON] Vector captured a0=2 a1=2 a2=2 a3=2 last=0 mode=SPARSE
# KERNEL: UVM_INFO /home/runner/accel_axis_act_agent.sv(69) @ 977500: uvm_test_top.env.act_a.drv [ACT_DRV] Beat 1/1 sent mode=SPARSE last=0
# KERNEL: UVM_INFO /home/runner/accel_sequences.sv(115) @ 977500: uvm_test_top.env.act_a.seqr@@a_stream_seq [ACT_STREAM_SEQ] Activation vector streamed
# KERNEL: UVM_INFO /home/runner/accel_scoreboard.sv(154) @ 982500: uvm_test_top.env.sco [SCO] Act vector stored â€” queue=50
# KERNEL: UVM_INFO /home/runner/accel_axis_act_agent.sv(143) @ 982500: uvm_test_top.env.act_a.mon [ACT_MON] Vector captured a0=2 a1=2 a2=2 a3=2 last=0 mode=SPARSE
# KERNEL: UVM_INFO /home/runner/accel_axis_act_agent.sv(69) @ 982500: uvm_test_top.env.act_a.drv [ACT_DRV] Beat 1/1 sent mode=SPARSE last=0
# KERNEL: UVM_INFO /home/runner/accel_sequences.sv(115) @ 982500: uvm_test_top.env.act_a.seqr@@a_stream_seq [ACT_STREAM_SEQ] Activation vector streamed
# KERNEL: UVM_INFO /home/runner/accel_scoreboard.sv(154) @ 987500: uvm_test_top.env.sco [SCO] Act vector stored â€” queue=51
# KERNEL: UVM_INFO /home/runner/accel_axis_act_agent.sv(143) @ 987500: uvm_test_top.env.act_a.mon [ACT_MON] Vector captured a0=2 a1=2 a2=2 a3=2 last=0 mode=SPARSE
# KERNEL: UVM_INFO /home/runner/accel_axis_act_agent.sv(69) @ 987500: uvm_test_top.env.act_a.drv [ACT_DRV] Beat 1/1 sent mode=SPARSE last=0
# KERNEL: UVM_INFO /home/runner/accel_sequences.sv(115) @ 987500: uvm_test_top.env.act_a.seqr@@a_stream_seq [ACT_STREAM_SEQ] Activation vector streamed
# KERNEL: UVM_INFO /home/runner/accel_scoreboard.sv(154) @ 992500: uvm_test_top.env.sco [SCO] Act vector stored â€” queue=52
# KERNEL: UVM_INFO /home/runner/accel_axis_act_agent.sv(143) @ 992500: uvm_test_top.env.act_a.mon [ACT_MON] Vector captured a0=2 a1=2 a2=2 a3=2 last=0 mode=SPARSE
# KERNEL: UVM_INFO /home/runner/accel_axis_act_agent.sv(69) @ 992500: uvm_test_top.env.act_a.drv [ACT_DRV] Beat 1/1 sent mode=SPARSE last=0
# KERNEL: UVM_INFO /home/runner/accel_sequences.sv(115) @ 992500: uvm_test_top.env.act_a.seqr@@a_stream_seq [ACT_STREAM_SEQ] Activation vector streamed
# KERNEL: UVM_INFO /home/runner/accel_scoreboard.sv(154) @ 997500: uvm_test_top.env.sco [SCO] Act vector stored â€” queue=53
# KERNEL: UVM_INFO /home/runner/accel_axis_act_agent.sv(143) @ 997500: uvm_test_top.env.act_a.mon [ACT_MON] Vector captured a0=2 a1=2 a2=2 a3=2 last=0 mode=SPARSE
# KERNEL: UVM_INFO /home/runner/accel_axis_act_agent.sv(69) @ 997500: uvm_test_top.env.act_a.drv [ACT_DRV] Beat 1/1 sent mode=SPARSE last=0
# KERNEL: UVM_INFO /home/runner/accel_sequences.sv(115) @ 997500: uvm_test_top.env.act_a.seqr@@a_stream_seq [ACT_STREAM_SEQ] Activation vector streamed
# KERNEL: UVM_INFO /home/runner/accel_scoreboard.sv(154) @ 1002500: uvm_test_top.env.sco [SCO] Act vector stored â€” queue=54
# KERNEL: UVM_INFO /home/runner/accel_axis_act_agent.sv(143) @ 1002500: uvm_test_top.env.act_a.mon [ACT_MON] Vector captured a0=2 a1=2 a2=2 a3=2 last=0 mode=SPARSE
# KERNEL: UVM_INFO /home/runner/accel_axis_act_agent.sv(69) @ 1002500: uvm_test_top.env.act_a.drv [ACT_DRV] Beat 1/1 sent mode=SPARSE last=0
# KERNEL: UVM_INFO /home/runner/accel_sequences.sv(115) @ 1002500: uvm_test_top.env.act_a.seqr@@a_stream_seq [ACT_STREAM_SEQ] Activation vector streamed
# KERNEL: UVM_INFO /home/runner/accel_scoreboard.sv(154) @ 1007500: uvm_test_top.env.sco [SCO] Act vector stored â€” queue=55
# KERNEL: UVM_INFO /home/runner/accel_axis_act_agent.sv(143) @ 1007500: uvm_test_top.env.act_a.mon [ACT_MON] Vector captured a0=2 a1=2 a2=2 a3=2 last=0 mode=SPARSE
# KERNEL: UVM_INFO /home/runner/accel_axis_act_agent.sv(69) @ 1007500: uvm_test_top.env.act_a.drv [ACT_DRV] Beat 1/1 sent mode=SPARSE last=0
# KERNEL: UVM_INFO /home/runner/accel_sequences.sv(115) @ 1007500: uvm_test_top.env.act_a.seqr@@a_stream_seq [ACT_STREAM_SEQ] Activation vector streamed
# KERNEL: UVM_INFO /home/runner/accel_scoreboard.sv(154) @ 1012500: uvm_test_top.env.sco [SCO] Act vector stored â€” queue=56
# KERNEL: UVM_INFO /home/runner/accel_axis_act_agent.sv(143) @ 1012500: uvm_test_top.env.act_a.mon [ACT_MON] Vector captured a0=2 a1=2 a2=2 a3=2 last=0 mode=SPARSE
# KERNEL: UVM_INFO /home/runner/accel_axis_act_agent.sv(69) @ 1012500: uvm_test_top.env.act_a.drv [ACT_DRV] Beat 1/1 sent mode=SPARSE last=0
# KERNEL: UVM_INFO /home/runner/accel_sequences.sv(115) @ 1012500: uvm_test_top.env.act_a.seqr@@a_stream_seq [ACT_STREAM_SEQ] Activation vector streamed
# KERNEL: UVM_INFO /home/runner/accel_scoreboard.sv(154) @ 1017500: uvm_test_top.env.sco [SCO] Act vector stored â€” queue=57
# KERNEL: UVM_INFO /home/runner/accel_axis_act_agent.sv(143) @ 1017500: uvm_test_top.env.act_a.mon [ACT_MON] Vector captured a0=2 a1=2 a2=2 a3=2 last=0 mode=SPARSE
# KERNEL: UVM_INFO /home/runner/accel_axis_act_agent.sv(69) @ 1017500: uvm_test_top.env.act_a.drv [ACT_DRV] Beat 1/1 sent mode=SPARSE last=0
# KERNEL: UVM_INFO /home/runner/accel_sequences.sv(115) @ 1017500: uvm_test_top.env.act_a.seqr@@a_stream_seq [ACT_STREAM_SEQ] Activation vector streamed
# KERNEL: UVM_INFO /home/runner/accel_scoreboard.sv(154) @ 1022500: uvm_test_top.env.sco [SCO] Act vector stored â€” queue=58
# KERNEL: UVM_INFO /home/runner/accel_axis_act_agent.sv(143) @ 1022500: uvm_test_top.env.act_a.mon [ACT_MON] Vector captured a0=2 a1=2 a2=2 a3=2 last=0 mode=SPARSE
# KERNEL: UVM_INFO /home/runner/accel_axis_act_agent.sv(69) @ 1022500: uvm_test_top.env.act_a.drv [ACT_DRV] Beat 1/1 sent mode=SPARSE last=0
# KERNEL: UVM_INFO /home/runner/accel_sequences.sv(115) @ 1022500: uvm_test_top.env.act_a.seqr@@a_stream_seq [ACT_STREAM_SEQ] Activation vector streamed
# KERNEL: UVM_INFO /home/runner/accel_scoreboard.sv(154) @ 1027500: uvm_test_top.env.sco [SCO] Act vector stored â€” queue=59
# KERNEL: UVM_INFO /home/runner/accel_axis_act_agent.sv(143) @ 1027500: uvm_test_top.env.act_a.mon [ACT_MON] Vector captured a0=2 a1=2 a2=2 a3=2 last=0 mode=SPARSE
# KERNEL: UVM_INFO /home/runner/accel_axis_act_agent.sv(69) @ 1027500: uvm_test_top.env.act_a.drv [ACT_DRV] Beat 1/1 sent mode=SPARSE last=0
# KERNEL: UVM_INFO /home/runner/accel_sequences.sv(115) @ 1027500: uvm_test_top.env.act_a.seqr@@a_stream_seq [ACT_STREAM_SEQ] Activation vector streamed
# KERNEL: UVM_INFO /home/runner/accel_scoreboard.sv(154) @ 1032500: uvm_test_top.env.sco [SCO] Act vector stored â€” queue=60
# KERNEL: UVM_INFO /home/runner/accel_axis_act_agent.sv(143) @ 1032500: uvm_test_top.env.act_a.mon [ACT_MON] Vector captured a0=2 a1=2 a2=2 a3=2 last=0 mode=SPARSE
# KERNEL: UVM_INFO /home/runner/accel_axis_act_agent.sv(69) @ 1032500: uvm_test_top.env.act_a.drv [ACT_DRV] Beat 1/1 sent mode=SPARSE last=0
# KERNEL: UVM_INFO /home/runner/accel_sequences.sv(115) @ 1032500: uvm_test_top.env.act_a.seqr@@a_stream_seq [ACT_STREAM_SEQ] Activation vector streamed
# KERNEL: UVM_INFO /home/runner/accel_scoreboard.sv(154) @ 1037500: uvm_test_top.env.sco [SCO] Act vector stored â€” queue=61
# KERNEL: UVM_INFO /home/runner/accel_axis_act_agent.sv(143) @ 1037500: uvm_test_top.env.act_a.mon [ACT_MON] Vector captured a0=2 a1=2 a2=2 a3=2 last=0 mode=SPARSE
# KERNEL: UVM_INFO /home/runner/accel_axis_act_agent.sv(69) @ 1037500: uvm_test_top.env.act_a.drv [ACT_DRV] Beat 1/1 sent mode=SPARSE last=0
# KERNEL: UVM_INFO /home/runner/accel_sequences.sv(115) @ 1037500: uvm_test_top.env.act_a.seqr@@a_stream_seq [ACT_STREAM_SEQ] Activation vector streamed
# KERNEL: UVM_INFO /home/runner/accel_scoreboard.sv(154) @ 1042500: uvm_test_top.env.sco [SCO] Act vector stored â€” queue=62
# KERNEL: UVM_INFO /home/runner/accel_axis_act_agent.sv(143) @ 1042500: uvm_test_top.env.act_a.mon [ACT_MON] Vector captured a0=2 a1=2 a2=2 a3=2 last=0 mode=SPARSE
# KERNEL: UVM_INFO /home/runner/accel_axis_act_agent.sv(69) @ 1042500: uvm_test_top.env.act_a.drv [ACT_DRV] Beat 1/1 sent mode=SPARSE last=0
# KERNEL: UVM_INFO /home/runner/accel_sequences.sv(115) @ 1042500: uvm_test_top.env.act_a.seqr@@a_stream_seq [ACT_STREAM_SEQ] Activation vector streamed
# KERNEL: UVM_INFO /home/runner/accel_scoreboard.sv(154) @ 1047500: uvm_test_top.env.sco [SCO] Act vector stored â€” queue=63
# KERNEL: UVM_INFO /home/runner/accel_axis_act_agent.sv(143) @ 1047500: uvm_test_top.env.act_a.mon [ACT_MON] Vector captured a0=2 a1=2 a2=2 a3=2 last=0 mode=SPARSE
# KERNEL: UVM_INFO /home/runner/accel_axis_act_agent.sv(69) @ 1047500: uvm_test_top.env.act_a.drv [ACT_DRV] Beat 1/1 sent mode=SPARSE last=0
# KERNEL: UVM_INFO /home/runner/accel_sequences.sv(115) @ 1047500: uvm_test_top.env.act_a.seqr@@a_stream_seq [ACT_STREAM_SEQ] Activation vector streamed
# KERNEL: UVM_INFO /home/runner/accel_scoreboard.sv(154) @ 1052500: uvm_test_top.env.sco [SCO] Act vector stored â€” queue=64
# KERNEL: UVM_INFO /home/runner/accel_axis_act_agent.sv(143) @ 1052500: uvm_test_top.env.act_a.mon [ACT_MON] Vector captured a0=2 a1=2 a2=2 a3=2 last=0 mode=SPARSE
# KERNEL: UVM_INFO /home/runner/accel_axis_act_agent.sv(69) @ 1052500: uvm_test_top.env.act_a.drv [ACT_DRV] Beat 1/1 sent mode=SPARSE last=0
# KERNEL: UVM_INFO /home/runner/accel_sequences.sv(115) @ 1052500: uvm_test_top.env.act_a.seqr@@a_stream_seq [ACT_STREAM_SEQ] Activation vector streamed
# KERNEL: UVM_INFO /home/runner/accel_scoreboard.sv(154) @ 1057500: uvm_test_top.env.sco [SCO] Act vector stored â€” queue=65
# KERNEL: UVM_INFO /home/runner/accel_axis_act_agent.sv(143) @ 1057500: uvm_test_top.env.act_a.mon [ACT_MON] Vector captured a0=2 a1=2 a2=2 a3=2 last=0 mode=SPARSE
# KERNEL: UVM_INFO /home/runner/accel_axis_act_agent.sv(69) @ 1057500: uvm_test_top.env.act_a.drv [ACT_DRV] Beat 1/1 sent mode=SPARSE last=0
# KERNEL: UVM_INFO /home/runner/accel_sequences.sv(115) @ 1057500: uvm_test_top.env.act_a.seqr@@a_stream_seq [ACT_STREAM_SEQ] Activation vector streamed
# KERNEL: UVM_INFO /home/runner/accel_scoreboard.sv(154) @ 1062500: uvm_test_top.env.sco [SCO] Act vector stored â€” queue=66
# KERNEL: UVM_INFO /home/runner/accel_axis_act_agent.sv(143) @ 1062500: uvm_test_top.env.act_a.mon [ACT_MON] Vector captured a0=2 a1=2 a2=2 a3=2 last=0 mode=SPARSE
# KERNEL: UVM_INFO /home/runner/accel_axis_act_agent.sv(69) @ 1062500: uvm_test_top.env.act_a.drv [ACT_DRV] Beat 1/1 sent mode=SPARSE last=0
# KERNEL: UVM_INFO /home/runner/accel_sequences.sv(115) @ 1062500: uvm_test_top.env.act_a.seqr@@a_stream_seq [ACT_STREAM_SEQ] Activation vector streamed
# KERNEL: UVM_INFO /home/runner/accel_scoreboard.sv(154) @ 1067500: uvm_test_top.env.sco [SCO] Act vector stored â€” queue=67
# KERNEL: UVM_INFO /home/runner/accel_axis_act_agent.sv(143) @ 1067500: uvm_test_top.env.act_a.mon [ACT_MON] Vector captured a0=2 a1=2 a2=2 a3=2 last=0 mode=SPARSE
# KERNEL: UVM_INFO /home/runner/accel_axis_act_agent.sv(69) @ 1067500: uvm_test_top.env.act_a.drv [ACT_DRV] Beat 1/1 sent mode=SPARSE last=0
# KERNEL: UVM_INFO /home/runner/accel_sequences.sv(115) @ 1067500: uvm_test_top.env.act_a.seqr@@a_stream_seq [ACT_STREAM_SEQ] Activation vector streamed
# KERNEL: UVM_INFO /home/runner/accel_scoreboard.sv(154) @ 1072500: uvm_test_top.env.sco [SCO] Act vector stored â€” queue=68
# KERNEL: UVM_INFO /home/runner/accel_axis_act_agent.sv(143) @ 1072500: uvm_test_top.env.act_a.mon [ACT_MON] Vector captured a0=2 a1=2 a2=2 a3=2 last=0 mode=SPARSE
# KERNEL: UVM_INFO /home/runner/accel_axis_act_agent.sv(69) @ 1072500: uvm_test_top.env.act_a.drv [ACT_DRV] Beat 1/1 sent mode=SPARSE last=0
# KERNEL: UVM_INFO /home/runner/accel_sequences.sv(115) @ 1072500: uvm_test_top.env.act_a.seqr@@a_stream_seq [ACT_STREAM_SEQ] Activation vector streamed
# KERNEL: UVM_INFO /home/runner/accel_scoreboard.sv(154) @ 1077500: uvm_test_top.env.sco [SCO] Act vector stored â€” queue=69
# KERNEL: UVM_INFO /home/runner/accel_axis_act_agent.sv(143) @ 1077500: uvm_test_top.env.act_a.mon [ACT_MON] Vector captured a0=2 a1=2 a2=2 a3=2 last=0 mode=SPARSE
# KERNEL: UVM_INFO /home/runner/accel_axis_act_agent.sv(69) @ 1077500: uvm_test_top.env.act_a.drv [ACT_DRV] Beat 1/1 sent mode=SPARSE last=0
# KERNEL: UVM_INFO /home/runner/accel_sequences.sv(115) @ 1077500: uvm_test_top.env.act_a.seqr@@a_stream_seq [ACT_STREAM_SEQ] Activation vector streamed
# KERNEL: UVM_INFO /home/runner/accel_scoreboard.sv(154) @ 1082500: uvm_test_top.env.sco [SCO] Act vector stored â€” queue=70
# KERNEL: UVM_INFO /home/runner/accel_axis_act_agent.sv(143) @ 1082500: uvm_test_top.env.act_a.mon [ACT_MON] Vector captured a0=2 a1=2 a2=2 a3=2 last=0 mode=SPARSE
# KERNEL: UVM_INFO /home/runner/accel_axis_act_agent.sv(69) @ 1082500: uvm_test_top.env.act_a.drv [ACT_DRV] Beat 1/1 sent mode=SPARSE last=0
# KERNEL: UVM_INFO /home/runner/accel_sequences.sv(115) @ 1082500: uvm_test_top.env.act_a.seqr@@a_stream_seq [ACT_STREAM_SEQ] Activation vector streamed
# KERNEL: UVM_INFO /home/runner/accel_scoreboard.sv(154) @ 1087500: uvm_test_top.env.sco [SCO] Act vector stored â€” queue=71
# KERNEL: UVM_INFO /home/runner/accel_axis_act_agent.sv(143) @ 1087500: uvm_test_top.env.act_a.mon [ACT_MON] Vector captured a0=2 a1=2 a2=2 a3=2 last=0 mode=SPARSE
# KERNEL: UVM_INFO /home/runner/accel_axis_act_agent.sv(69) @ 1087500: uvm_test_top.env.act_a.drv [ACT_DRV] Beat 1/1 sent mode=SPARSE last=0
# KERNEL: UVM_INFO /home/runner/accel_sequences.sv(115) @ 1087500: uvm_test_top.env.act_a.seqr@@a_stream_seq [ACT_STREAM_SEQ] Activation vector streamed
# KERNEL: UVM_INFO /home/runner/accel_scoreboard.sv(154) @ 1092500: uvm_test_top.env.sco [SCO] Act vector stored â€” queue=72
# KERNEL: UVM_INFO /home/runner/accel_axis_act_agent.sv(143) @ 1092500: uvm_test_top.env.act_a.mon [ACT_MON] Vector captured a0=2 a1=2 a2=2 a3=2 last=0 mode=SPARSE
# KERNEL: UVM_INFO /home/runner/accel_axis_act_agent.sv(69) @ 1092500: uvm_test_top.env.act_a.drv [ACT_DRV] Beat 1/1 sent mode=SPARSE last=0
# KERNEL: UVM_INFO /home/runner/accel_sequences.sv(115) @ 1092500: uvm_test_top.env.act_a.seqr@@a_stream_seq [ACT_STREAM_SEQ] Activation vector streamed
# KERNEL: UVM_INFO /home/runner/accel_axis_result_agent.sv(69) @ 1092500: uvm_test_top.env.result_a.mon [RESULT_MON] Result vector captured â€” last=0
# KERNEL: UVM_INFO /home/runner/accel_scoreboard.sv(174) @ 1092500: uvm_test_top.env.sco [SCO] Computing: w0[0]=1 w1[0]=1 a0=2 a1=2
# KERNEL: UVM_ERROR /home/runner/accel_scoreboard.sv(187) @ 1092500: uvm_test_top.env.sco [SCO] MISMATCH col=0 exp=0x20 got=0x40
# KERNEL: UVM_INFO ./uvm-1.2/src/base/uvm_report_server.svh(869) @ 1092500: reporter [UVM/REPORT/SERVER] 
# KERNEL: --- UVM Report Summary ---
# KERNEL: 
# KERNEL: Quit count reached!
# KERNEL: Quit count :     1 of     1
# KERNEL: ** Report counts by severity
# KERNEL: UVM_INFO :  330
# KERNEL: UVM_WARNING :    0
# KERNEL: UVM_ERROR :    1
# KERNEL: UVM_FATAL :    0
# KERNEL: ** Report counts by id
# KERNEL: [ACT_DRV]    73
# KERNEL: [ACT_MON]    72
# KERNEL: [ACT_STREAM_SEQ]    72
# KERNEL: [CSR_WRITE_SEQ]     7
# KERNEL: [MAXQUITSET]     1
# KERNEL: [RESULT_MON]     1
# KERNEL: [RNTST]     1
# KERNEL: [SCO]    83
# KERNEL: [UVM/RELNOTES]     1
# KERNEL: [WEIGHT_DRV]     2
# KERNEL: [WEIGHT_MON]     2
# KERNEL: [WEIGHT_TILE_SEQ]     1
# KERNEL: [axil_csr_drv]    15
# KERNEL: 
# RUNTIME: Info: RUNTIME_0068 uvm_root.svh (135): $finish called.
# KERNEL: Time: 1092500 ps,  Iteration: 11,  Instance: /\package uvm_1_2.uvm_pkg\/uvm_task_phase,  Process: @INTERNAL#143_0@.
# KERNEL: stopped at time: 1092500 ps
# VSIM: Simulation has finished. There are no more test vectors to simulate.
# ACDB: Covergroup Coverage data has been saved to "coverage/test_023_sparse_1_4_100vectors.acdb" database.
# VSIM: Simulation has finished.
set total [expr {$pass_count + $fail_count}]
# 1
puts "========================================="
# =========================================
puts "         REGRESSION COMPLETE             "
#          REGRESSION COMPLETE             
puts "========================================="
# =========================================
foreach line $result_lines {
    puts "  $line"
}
#   FAIL  test_023_sparse_1_4_100vectors
puts "-----------------------------------------"
# -----------------------------------------
puts "  PASSED : $pass_count / $total"
#   PASSED : 0 / 1
puts "  FAILED : $fail_count / $total"
#   FAILED : 1 / 1
puts "========================================="
# =========================================
if {[llength $acdb_files] > 0} {

    puts ""
    puts "========================================="
    puts "  Merging Coverage ([llength $acdb_files] tests)"
    puts "========================================="

    # ? Correct Aldec acdb merge syntax: -i per file, -o for output
    set merge_cmd "acdb merge -o coverage/merged.acdb"
    foreach f $acdb_files {
        append merge_cmd " -i $f"
    }

    if {[catch {eval $merge_cmd} err]} {
        puts "WARN: Merge failed: $err"
    } else {
        puts "Merged OK: coverage/merged.acdb"

        # ? Correct Aldec report syntax
        if {[catch {
            acdb report -i coverage/merged.acdb -o coverage/merged_report.txt -txt
        } err]} {
            puts "WARN: Report failed: $err"
            puts "Try opening coverage/merged.acdb in Aldec GUI manually"
        } else {
            # Print report to console
            if {[catch {open coverage/merged_report.txt r} fid]} {
                puts "Could not read report file"
            } else {
                puts ""
                puts "========================================="
                puts "     OVERALL COVERAGE SUMMARY            "
                puts "========================================="
                while {[gets $fid line] >= 0} {
                    puts $line
                }
                close $fid
                puts "========================================="
            }
        }
    }

} else {
    puts "No coverage databases found to merge"
}
# 
# =========================================
#   Merging Coverage (1 tests)
# =========================================
# Merged OK: coverage/merged.acdb
# 
# =========================================
#      OVERALL COVERAGE SUMMARY            
# =========================================
# +++++++++++++++++++++++++++++++++++++++++++++
# ++++++++++       REPORT INFO       ++++++++++
# +++++++++++++++++++++++++++++++++++++++++++++
# 
# 
# SUMMARY
# ==============================================================
# |     Property     |                  Value                  |
# ==============================================================
# | User             | runner                                  |
# | Host             | 4298c033181a                            |
# | Tool             | Riviera-PRO 2025.04                     |
# | Report file      | /home/runner/coverage/merged_report.txt |
# | Report date      | 2026-05-02 10:48                        |
# | Report arguments |                                         |
# | Input file       | /home/runner/coverage/merged.acdb       |
# | Input file date  | 2026-05-02 10:48                        |
# | Number of tests  | 1                                       |
# ==============================================================
# 
# 
# TEST DETAILS
# ====================================================================================================================
# | Property |                                                 Value                                                 |
# ====================================================================================================================
# | Test     | test_023_sparse_1_4_100vectors.acdb:test_023_sparse_1_4_100vectors                                    |
# | Status   | Error                                                                                                 |
# | Args     | asim -c work.tb_top +access +r +UVM_TESTNAME=test_023_sparse_1_4_100vectors +UVM_MAX_QUIT_COUNT=1,YES |
# |          | -acdb_file coverage/test_023_sparse_1_4_100vectors.acdb -l results/test_023_sparse_1_4_100vectors.log |
# | Simtime  | 1092500 ps                                                                                            |
# | Cputime  | 2.197 s                                                                                               |
# | Seed     | 1                                                                                                     |
# | Date     | 2026-05-02 10:48                                                                                      |
# | User     | runner                                                                                                |
# | Host     | 4298c033181a                                                                                          |
# | Host os  | Linux64                                                                                               |
# | Tool     | Riviera-PRO 2025.04 (simulator)                                                                       |
# ====================================================================================================================
# 
# 
# +++++++++++++++++++++++++++++++++++++++++++++
# ++++++++++     DESIGN HIERARCHY    ++++++++++
# +++++++++++++++++++++++++++++++++++++++++++++
# 
# 
# CUMULATIVE SUMMARY
# =============================================
# |    Coverage Type    | Weight | Hits/Total |
# =============================================
# | Covergroup Coverage |      1 |    43.290% |
# |---------------------|--------|------------|
# | Types               |        |      0 / 5 |
# =============================================
# CUMULATIVE INSTANCE-BASED COVERAGE: 43.290%
# COVERED INSTANCES: 0 / 1
# FILES: 1
# 
# 
# CLASS - /accel_coverage_subscriber : work.accel_coverage_subscriber
# 
# 
#     SUMMARY
#     =============================================
#     |    Coverage Type    | Weight | Hits/Total |
#     =============================================
#     | Covergroup Coverage |      1 |    43.290% |
#     |---------------------|--------|------------|
#     | Types               |        |      0 / 5 |
#     =============================================
#     WEIGHTED AVERAGE LOCAL: 43.290%
# 
# 
#     COVERGROUP COVERAGE
#     ===================================================================================
#     |                  Covergroup                   |   Hits   |  Goal /  |  Status   |
#     |                                               |          | At Least |           |
#     ===================================================================================
#     | TYPE /accel_coverage_subscriber/cg_axil       |  46.428% | 100.000% | Uncovered |
#     ===================================================================================
#     | INSTANCE <UNNAMED1>                           |  46.428% | 100.000% | Uncovered |
#     |-----------------------------------------------|----------|----------|-----------|
#     | COVERPOINT <UNNAMED1>::cp_we                  |  50.000% | 100.000% | Uncovered |
#     |-----------------------------------------------|----------|----------|-----------|
#     | bin write                                     |        7 |        1 | Covered   |
#     | bin read                                      |        0 |        1 | Zero      |
#     |-----------------------------------------------|----------|----------|-----------|
#     | COVERPOINT <UNNAMED1>::cp_wdata_lsb           | 100.000% | 100.000% | Covered   |
#     |-----------------------------------------------|----------|----------|-----------|
#     | bin zero                                      |        5 |        1 | Covered   |
#     | bin one                                       |        2 |        1 | Covered   |
#     |-----------------------------------------------|----------|----------|-----------|
#     | COVERPOINT <UNNAMED1>::cp_rdata_lsb           |   0.000% | 100.000% | Zero      |
#     |-----------------------------------------------|----------|----------|-----------|
#     | bin zero                                      |        0 |        1 | Zero      |
#     | bin one                                       |        0 |        1 | Zero      |
#     |-----------------------------------------------|----------|----------|-----------|
#     | COVERPOINT <UNNAMED1>::cp_resp                |  50.000% | 100.000% | Uncovered |
#     |-----------------------------------------------|----------|----------|-----------|
#     | bin okay                                      |        7 |        1 | Covered   |
#     | bin slverr                                    |        0 |        1 | Zero      |
#     |-----------------------------------------------|----------|----------|-----------|
#     | CROSS <UNNAMED1>::cross_we_wdata              | 100.000% | 100.000% | Covered   |
#     |-----------------------------------------------|----------|----------|-----------|
#     | bin <write,zero>                              |        5 |        1 | Covered   |
#     | bin <write,one>                               |        2 |        1 | Covered   |
#     |-----------------------------------------------|----------|----------|-----------|
#     | CROSS <UNNAMED1>::cross_we_rdata              |   0.000% | 100.000% | Zero      |
#     |-----------------------------------------------|----------|----------|-----------|
#     | CROSS <UNNAMED1>::cross_we_resp               |  25.000% | 100.000% | Uncovered |
#     |-----------------------------------------------|----------|----------|-----------|
#     | bin <write,okay>                              |        7 |        1 | Covered   |
#     ===================================================================================
#     | TYPE /accel_coverage_subscriber/cg_weight     |  28.906% | 100.000% | Uncovered |
#     ===================================================================================
#     | INSTANCE <UNNAMED1>                           |  28.906% | 100.000% | Uncovered |
#     |-----------------------------------------------|----------|----------|-----------|
#     | COVERPOINT <UNNAMED1>::cp_sparsity            |  25.000% | 100.000% | Uncovered |
#     |-----------------------------------------------|----------|----------|-----------|
#     | bin dense                                     |        0 |        1 | Zero      |
#     | bin sp_2_4                                    |        0 |        1 | Zero      |
#     | bin sp_1_4                                    |        1 |        1 | Covered   |
#     | bin sp_4_8                                    |        0 |        1 | Zero      |
#     |-----------------------------------------------|----------|----------|-----------|
#     | COVERPOINT <UNNAMED1>::cp_w0_zero             |  50.000% | 100.000% | Uncovered |
#     |-----------------------------------------------|----------|----------|-----------|
#     | bin zero                                      |        0 |        1 | Zero      |
#     | bin non_zero                                  |        1 |        1 | Covered   |
#     |-----------------------------------------------|----------|----------|-----------|
#     | COVERPOINT <UNNAMED1>::cp_w1_zero             |  50.000% | 100.000% | Uncovered |
#     |-----------------------------------------------|----------|----------|-----------|
#     | bin zero                                      |        0 |        1 | Zero      |
#     | bin non_zero                                  |        1 |        1 | Covered   |
#     |-----------------------------------------------|----------|----------|-----------|
#     | COVERPOINT <UNNAMED1>::cp_sparse_mask         |  25.000% | 100.000% | Uncovered |
#     |-----------------------------------------------|----------|----------|-----------|
#     | bin mask_0000                                 |        0 |        1 | Zero      |
#     | bin mask_1111                                 |        1 |        1 | Covered   |
#     | bin mask_1010                                 |        0 |        1 | Zero      |
#     | bin mask_0101                                 |        0 |        1 | Zero      |
#     | default bin others                            |        0 |    -     | Zero      |
#     |-----------------------------------------------|----------|----------|-----------|
#     | COVERPOINT <UNNAMED1>::cp_idx0                |  50.000% | 100.000% | Uncovered |
#     |-----------------------------------------------|----------|----------|-----------|
#     | bin low                                       |        1 |        1 | Covered   |
#     | bin high                                      |        0 |        1 | Zero      |
#     |-----------------------------------------------|----------|----------|-----------|
#     | CROSS <UNNAMED1>::cross_sparsity_w0           |  12.500% | 100.000% | Uncovered |
#     |-----------------------------------------------|----------|----------|-----------|
#     | bin <sp_1_4,non_zero>                         |        1 |        1 | Covered   |
#     |-----------------------------------------------|----------|----------|-----------|
#     | CROSS <UNNAMED1>::cross_sparsity_mask         |   6.250% | 100.000% | Uncovered |
#     |-----------------------------------------------|----------|----------|-----------|
#     | bin <sp_1_4,mask_1111>                        |        1 |        1 | Covered   |
#     |-----------------------------------------------|----------|----------|-----------|
#     | CROSS <UNNAMED1>::cross_sparsity_idx0         |  12.500% | 100.000% | Uncovered |
#     |-----------------------------------------------|----------|----------|-----------|
#     | bin <sp_1_4,low>                              |        1 |        1 | Covered   |
#     ===================================================================================
#     | TYPE /accel_coverage_subscriber/cg_activation |  42.307% | 100.000% | Uncovered |
#     ===================================================================================
#     | INSTANCE <UNNAMED1>                           |  42.307% | 100.000% | Uncovered |
#     |-----------------------------------------------|----------|----------|-----------|
#     | COVERPOINT <UNNAMED1>::cp_mode_dense          |  50.000% | 100.000% | Uncovered |
#     |-----------------------------------------------|----------|----------|-----------|
#     | bin dense                                     |        0 |        1 | Zero      |
#     | bin sparse                                    |       72 |        1 | Covered   |
#     |-----------------------------------------------|----------|----------|-----------|
#     | COVERPOINT <UNNAMED1>::cp_is_last             |  50.000% | 100.000% | Uncovered |
#     |-----------------------------------------------|----------|----------|-----------|
#     | bin last                                      |        0 |        1 | Zero      |
#     | bin not_last                                  |       72 |        1 | Covered   |
#     |-----------------------------------------------|----------|----------|-----------|
#     | COVERPOINT <UNNAMED1>::cp_a0_zero             |  50.000% | 100.000% | Uncovered |
#     |-----------------------------------------------|----------|----------|-----------|
#     | bin zero                                      |        0 |        1 | Zero      |
#     | bin non_zero                                  |       72 |        1 | Covered   |
#     |-----------------------------------------------|----------|----------|-----------|
#     | COVERPOINT <UNNAMED1>::cp_a1_zero             |  50.000% | 100.000% | Uncovered |
#     |-----------------------------------------------|----------|----------|-----------|
#     | bin zero                                      |        0 |        1 | Zero      |
#     | bin non_zero                                  |       72 |        1 | Covered   |
#     |-----------------------------------------------|----------|----------|-----------|
#     | COVERPOINT <UNNAMED1>::cp_a2_zero             |  50.000% | 100.000% | Uncovered |
#     |-----------------------------------------------|----------|----------|-----------|
#     | bin zero                                      |        0 |        1 | Zero      |
#     | bin non_zero                                  |       72 |        1 | Covered   |
#     |-----------------------------------------------|----------|----------|-----------|
#     | COVERPOINT <UNNAMED1>::cp_a3_zero             |  50.000% | 100.000% | Uncovered |
#     |-----------------------------------------------|----------|----------|-----------|
#     | bin zero                                      |        0 |        1 | Zero      |
#     | bin non_zero                                  |       72 |        1 | Covered   |
#     |-----------------------------------------------|----------|----------|-----------|
#     | COVERPOINT <UNNAMED1>::cp_all_zero            |  50.000% | 100.000% | Uncovered |
#     |-----------------------------------------------|----------|----------|-----------|
#     | bin all_zero                                  |        0 |        1 | Zero      |
#     | bin non_zero                                  |       72 |        1 | Covered   |
#     |-----------------------------------------------|----------|----------|-----------|
#     | COVERPOINT <UNNAMED1>::cp_a0_neg              |  50.000% | 100.000% | Uncovered |
#     |-----------------------------------------------|----------|----------|-----------|
#     | bin positive                                  |       72 |        1 | Covered   |
#     | bin negative                                  |        0 |        1 | Zero      |
#     |-----------------------------------------------|----------|----------|-----------|
#     | COVERPOINT <UNNAMED1>::cp_a1_neg              |  50.000% | 100.000% | Uncovered |
#     |-----------------------------------------------|----------|----------|-----------|
#     | bin positive                                  |       72 |        1 | Covered   |
#     | bin negative                                  |        0 |        1 | Zero      |
#     |-----------------------------------------------|----------|----------|-----------|
#     | CROSS <UNNAMED1>::cross_mode_last             |  25.000% | 100.000% | Uncovered |
#     |-----------------------------------------------|----------|----------|-----------|
#     | bin <sparse,not_last>                         |       72 |        1 | Covered   |
#     |-----------------------------------------------|----------|----------|-----------|
#     | CROSS <UNNAMED1>::cross_mode_allzero          |  25.000% | 100.000% | Uncovered |
#     |-----------------------------------------------|----------|----------|-----------|
#     | bin <sparse,non_zero>                         |       72 |        1 | Covered   |
#     |-----------------------------------------------|----------|----------|-----------|
#     | CROSS <UNNAMED1>::cross_last_allzero          |  25.000% | 100.000% | Uncovered |
#     |-----------------------------------------------|----------|----------|-----------|
#     | bin <not_last,non_zero>                       |       72 |        1 | Covered   |
#     |-----------------------------------------------|----------|----------|-----------|
#     | CROSS <UNNAMED1>::cross_mode_a0sign           |  25.000% | 100.000% | Uncovered |
#     |-----------------------------------------------|----------|----------|-----------|
#     | bin <sparse,positive>                         |       72 |        1 | Covered   |
#     ===================================================================================
#     | TYPE /accel_coverage_subscriber/cg_result     |  41.666% | 100.000% | Uncovered |
#     ===================================================================================
#     | INSTANCE <UNNAMED1>                           |  41.666% | 100.000% | Uncovered |
#     |-----------------------------------------------|----------|----------|-----------|
#     | COVERPOINT <UNNAMED1>::cp_is_last             |  50.000% | 100.000% | Uncovered |
#     |-----------------------------------------------|----------|----------|-----------|
#     | bin last                                      |        0 |        1 | Zero      |
#     | bin not_last                                  |        1 |        1 | Covered   |
#     |-----------------------------------------------|----------|----------|-----------|
#     | COVERPOINT <UNNAMED1>::cp_result0_zero        |  50.000% | 100.000% | Uncovered |
#     |-----------------------------------------------|----------|----------|-----------|
#     | bin zero                                      |        0 |        1 | Zero      |
#     | bin non_zero                                  |        1 |        1 | Covered   |
#     |-----------------------------------------------|----------|----------|-----------|
#     | COVERPOINT <UNNAMED1>::cp_result_last_zero    |  50.000% | 100.000% | Uncovered |
#     |-----------------------------------------------|----------|----------|-----------|
#     | bin zero                                      |        0 |        1 | Zero      |
#     | bin non_zero                                  |        1 |        1 | Covered   |
#     |-----------------------------------------------|----------|----------|-----------|
#     | COVERPOINT <UNNAMED1>::cp_result0_neg         |  50.000% | 100.000% | Uncovered |
#     |-----------------------------------------------|----------|----------|-----------|
#     | bin positive                                  |        1 |        1 | Covered   |
#     | bin negative                                  |        0 |        1 | Zero      |
#     |-----------------------------------------------|----------|----------|-----------|
#     | CROSS <UNNAMED1>::cross_last_zero             |  25.000% | 100.000% | Uncovered |
#     |-----------------------------------------------|----------|----------|-----------|
#     | bin <not_last,non_zero>                       |        1 |        1 | Covered   |
#     |-----------------------------------------------|----------|----------|-----------|
#     | CROSS <UNNAMED1>::cross_last_neg              |  25.000% | 100.000% | Uncovered |
#     |-----------------------------------------------|----------|----------|-----------|
#     | bin <not_last,positive>                       |        1 |        1 | Covered   |
#     ===================================================================================
#     | TYPE /accel_coverage_subscriber/cg_fsm        |  57.142% | 100.000% | Uncovered |
#     ===================================================================================
#     | INSTANCE <UNNAMED1>                           |  57.142% | 100.000% | Uncovered |
#     |-----------------------------------------------|----------|----------|-----------|
#     | COVERPOINT <UNNAMED1>::cp_state               |  42.857% | 100.000% | Uncovered |
#     |-----------------------------------------------|----------|----------|-----------|
#     | bin idle                                      |      130 |        1 | Covered   |
#     | bin load                                      |       16 |        1 | Covered   |
#     | bin stream                                    |       73 |        1 | Covered   |
#     | bin drain                                     |        0 |        1 | Zero      |
#     | bin done_st                                   |        0 |        1 | Zero      |
#     | bin error                                     |        0 |        1 | Zero      |
#     | bin recovery                                  |        0 |        1 | Zero      |
#     |-----------------------------------------------|----------|----------|-----------|
#     | COVERPOINT <UNNAMED1>::cp_mode                | 100.000% | 100.000% | Covered   |
#     |-----------------------------------------------|----------|----------|-----------|
#     | bin dense                                     |       62 |        1 | Covered   |
#     | bin sparse                                    |      157 |        1 | Covered   |
#     |-----------------------------------------------|----------|----------|-----------|
#     | CROSS <UNNAMED1>::cross_state_mode            |  28.571% | 100.000% | Uncovered |
#     |-----------------------------------------------|----------|----------|-----------|
#     | bin <idle,dense>                              |       62 |        1 | Covered   |
#     | bin <idle,sparse>                             |       68 |        1 | Covered   |
#     | bin <load,sparse>                             |       16 |        1 | Covered   |
#     | bin <stream,sparse>                           |       73 |        1 | Covered   |
#     ===================================================================================
# 
# 
# +++++++++++++++++++++++++++++++++++++++++++++
# ++++++++++       DESIGN UNITS      ++++++++++
# +++++++++++++++++++++++++++++++++++++++++++++
# 
# 
# CUMULATIVE SUMMARY
# =============================================
# |    Coverage Type    | Weight | Hits/Total |
# =============================================
# | Covergroup Coverage |      1 |    43.290% |
# |---------------------|--------|------------|
# | Types               |        |      0 / 5 |
# =============================================
# CUMULATIVE DESIGN-BASED COVERAGE: 43.290%
# COVERED DESIGN UNITS: 0 / 1
# FILES: 1
# 
# 
# CLASS - work.accel_coverage_subscriber
# 
# 
#     SUMMARY
#     =============================================
#     |    Coverage Type    | Weight | Hits/Total |
#     =============================================
#     | Covergroup Coverage |      1 |    43.290% |
#     |---------------------|--------|------------|
#     | Types               |        |      0 / 5 |
#     =============================================
#     WEIGHTED AVERAGE: 43.290%
# 
# 
#     COVERGROUP COVERAGE
#     ===================================================================================
#     |                  Covergroup                   |   Hits   |  Goal /  |  Status   |
#     |                                               |          | At Least |           |
#     ===================================================================================
#     | TYPE /accel_coverage_subscriber/cg_axil       |  46.428% | 100.000% | Uncovered |
#     ===================================================================================
#     | INSTANCE <UNNAMED1>                           |  46.428% | 100.000% | Uncovered |
#     |-----------------------------------------------|----------|----------|-----------|
#     | COVERPOINT <UNNAMED1>::cp_we                  |  50.000% | 100.000% | Uncovered |
#     |-----------------------------------------------|----------|----------|-----------|
#     | bin write                                     |        7 |        1 | Covered   |
#     | bin read                                      |        0 |        1 | Zero      |
#     |-----------------------------------------------|----------|----------|-----------|
#     | COVERPOINT <UNNAMED1>::cp_wdata_lsb           | 100.000% | 100.000% | Covered   |
#     |-----------------------------------------------|----------|----------|-----------|
#     | bin zero                                      |        5 |        1 | Covered   |
#     | bin one                                       |        2 |        1 | Covered   |
#     |-----------------------------------------------|----------|----------|-----------|
#     | COVERPOINT <UNNAMED1>::cp_rdata_lsb           |   0.000% | 100.000% | Zero      |
#     |-----------------------------------------------|----------|----------|-----------|
#     | bin zero                                      |        0 |        1 | Zero      |
#     | bin one                                       |        0 |        1 | Zero      |
#     |-----------------------------------------------|----------|----------|-----------|
#     | COVERPOINT <UNNAMED1>::cp_resp                |  50.000% | 100.000% | Uncovered |
#     |-----------------------------------------------|----------|----------|-----------|
#     | bin okay                                      |        7 |        1 | Covered   |
#     | bin slverr                                    |        0 |        1 | Zero      |
#     |-----------------------------------------------|----------|----------|-----------|
#     | CROSS <UNNAMED1>::cross_we_wdata              | 100.000% | 100.000% | Covered   |
#     |-----------------------------------------------|----------|----------|-----------|
#     | bin <write,zero>                              |        5 |        1 | Covered   |
#     | bin <write,one>                               |        2 |        1 | Covered   |
#     |-----------------------------------------------|----------|----------|-----------|
#     | CROSS <UNNAMED1>::cross_we_rdata              |   0.000% | 100.000% | Zero      |
#     |-----------------------------------------------|----------|----------|-----------|
#     | CROSS <UNNAMED1>::cross_we_resp               |  25.000% | 100.000% | Uncovered |
#     |-----------------------------------------------|----------|----------|-----------|
#     | bin <write,okay>                              |        7 |        1 | Covered   |
#     ===================================================================================
#     | TYPE /accel_coverage_subscriber/cg_weight     |  28.906% | 100.000% | Uncovered |
#     ===================================================================================
#     | INSTANCE <UNNAMED1>                           |  28.906% | 100.000% | Uncovered |
#     |-----------------------------------------------|----------|----------|-----------|
#     | COVERPOINT <UNNAMED1>::cp_sparsity            |  25.000% | 100.000% | Uncovered |
#     |-----------------------------------------------|----------|----------|-----------|
#     | bin dense                                     |        0 |        1 | Zero      |
#     | bin sp_2_4                                    |        0 |        1 | Zero      |
#     | bin sp_1_4                                    |        1 |        1 | Covered   |
#     | bin sp_4_8                                    |        0 |        1 | Zero      |
#     |-----------------------------------------------|----------|----------|-----------|
#     | COVERPOINT <UNNAMED1>::cp_w0_zero             |  50.000% | 100.000% | Uncovered |
#     |-----------------------------------------------|----------|----------|-----------|
#     | bin zero                                      |        0 |        1 | Zero      |
#     | bin non_zero                                  |        1 |        1 | Covered   |
#     |-----------------------------------------------|----------|----------|-----------|
#     | COVERPOINT <UNNAMED1>::cp_w1_zero             |  50.000% | 100.000% | Uncovered |
#     |-----------------------------------------------|----------|----------|-----------|
#     | bin zero                                      |        0 |        1 | Zero      |
#     | bin non_zero                                  |        1 |        1 | Covered   |
#     |-----------------------------------------------|----------|----------|-----------|
#     | COVERPOINT <UNNAMED1>::cp_sparse_mask         |  25.000% | 100.000% | Uncovered |
#     |-----------------------------------------------|----------|----------|-----------|
#     | bin mask_0000                                 |        0 |        1 | Zero      |
#     | bin mask_1111                                 |        1 |        1 | Covered   |
#     | bin mask_1010                                 |        0 |        1 | Zero      |
#     | bin mask_0101                                 |        0 |        1 | Zero      |
#     | default bin others                            |        0 |    -     | Zero      |
#     |-----------------------------------------------|----------|----------|-----------|
#     | COVERPOINT <UNNAMED1>::cp_idx0                |  50.000% | 100.000% | Uncovered |
#     |-----------------------------------------------|----------|----------|-----------|
#     | bin low                                       |        1 |        1 | Covered   |
#     | bin high                                      |        0 |        1 | Zero      |
#     |-----------------------------------------------|----------|----------|-----------|
#     | CROSS <UNNAMED1>::cross_sparsity_w0           |  12.500% | 100.000% | Uncovered |
#     |-----------------------------------------------|----------|----------|-----------|
#     | bin <sp_1_4,non_zero>                         |        1 |        1 | Covered   |
#     |-----------------------------------------------|----------|----------|-----------|
#     | CROSS <UNNAMED1>::cross_sparsity_mask         |   6.250% | 100.000% | Uncovered |
#     |-----------------------------------------------|----------|----------|-----------|
#     | bin <sp_1_4,mask_1111>                        |        1 |        1 | Covered   |
#     |-----------------------------------------------|----------|----------|-----------|
#     | CROSS <UNNAMED1>::cross_sparsity_idx0         |  12.500% | 100.000% | Uncovered |
#     |-----------------------------------------------|----------|----------|-----------|
#     | bin <sp_1_4,low>                              |        1 |        1 | Covered   |
#     ===================================================================================
#     | TYPE /accel_coverage_subscriber/cg_activation |  42.307% | 100.000% | Uncovered |
#     ===================================================================================
#     | INSTANCE <UNNAMED1>                           |  42.307% | 100.000% | Uncovered |
#     |-----------------------------------------------|----------|----------|-----------|
#     | COVERPOINT <UNNAMED1>::cp_mode_dense          |  50.000% | 100.000% | Uncovered |
#     |-----------------------------------------------|----------|----------|-----------|
#     | bin dense                                     |        0 |        1 | Zero      |
#     | bin sparse                                    |       72 |        1 | Covered   |
#     |-----------------------------------------------|----------|----------|-----------|
#     | COVERPOINT <UNNAMED1>::cp_is_last             |  50.000% | 100.000% | Uncovered |
#     |-----------------------------------------------|----------|----------|-----------|
#     | bin last                                      |        0 |        1 | Zero      |
#     | bin not_last                                  |       72 |        1 | Covered   |
#     |-----------------------------------------------|----------|----------|-----------|
#     | COVERPOINT <UNNAMED1>::cp_a0_zero             |  50.000% | 100.000% | Uncovered |
#     |-----------------------------------------------|----------|----------|-----------|
#     | bin zero                                      |        0 |        1 | Zero      |
#     | bin non_zero                                  |       72 |        1 | Covered   |
#     |-----------------------------------------------|----------|----------|-----------|
#     | COVERPOINT <UNNAMED1>::cp_a1_zero             |  50.000% | 100.000% | Uncovered |
#     |-----------------------------------------------|----------|----------|-----------|
#     | bin zero                                      |        0 |        1 | Zero      |
#     | bin non_zero                                  |       72 |        1 | Covered   |
#     |-----------------------------------------------|----------|----------|-----------|
#     | COVERPOINT <UNNAMED1>::cp_a2_zero             |  50.000% | 100.000% | Uncovered |
#     |-----------------------------------------------|----------|----------|-----------|
#     | bin zero                                      |        0 |        1 | Zero      |
#     | bin non_zero                                  |       72 |        1 | Covered   |
#     |-----------------------------------------------|----------|----------|-----------|
#     | COVERPOINT <UNNAMED1>::cp_a3_zero             |  50.000% | 100.000% | Uncovered |
#     |-----------------------------------------------|----------|----------|-----------|
#     | bin zero                                      |        0 |        1 | Zero      |
#     | bin non_zero                                  |       72 |        1 | Covered   |
#     |-----------------------------------------------|----------|----------|-----------|
#     | COVERPOINT <UNNAMED1>::cp_all_zero            |  50.000% | 100.000% | Uncovered |
#     |-----------------------------------------------|----------|----------|-----------|
#     | bin all_zero                                  |        0 |        1 | Zero      |
#     | bin non_zero                                  |       72 |        1 | Covered   |
#     |-----------------------------------------------|----------|----------|-----------|
#     | COVERPOINT <UNNAMED1>::cp_a0_neg              |  50.000% | 100.000% | Uncovered |
#     |-----------------------------------------------|----------|----------|-----------|
#     | bin positive                                  |       72 |        1 | Covered   |
#     | bin negative                                  |        0 |        1 | Zero      |
#     |-----------------------------------------------|----------|----------|-----------|
#     | COVERPOINT <UNNAMED1>::cp_a1_neg              |  50.000% | 100.000% | Uncovered |
#     |-----------------------------------------------|----------|----------|-----------|
#     | bin positive                                  |       72 |        1 | Covered   |
#     | bin negative                                  |        0 |        1 | Zero      |
#     |-----------------------------------------------|----------|----------|-----------|
#     | CROSS <UNNAMED1>::cross_mode_last             |  25.000% | 100.000% | Uncovered |
#     |-----------------------------------------------|----------|----------|-----------|
#     | bin <sparse,not_last>                         |       72 |        1 | Covered   |
#     |-----------------------------------------------|----------|----------|-----------|
#     | CROSS <UNNAMED1>::cross_mode_allzero          |  25.000% | 100.000% | Uncovered |
#     |-----------------------------------------------|----------|----------|-----------|
#     | bin <sparse,non_zero>                         |       72 |        1 | Covered   |
#     |-----------------------------------------------|----------|----------|-----------|
#     | CROSS <UNNAMED1>::cross_last_allzero          |  25.000% | 100.000% | Uncovered |
#     |-----------------------------------------------|----------|----------|-----------|
#     | bin <not_last,non_zero>                       |       72 |        1 | Covered   |
#     |-----------------------------------------------|----------|----------|-----------|
#     | CROSS <UNNAMED1>::cross_mode_a0sign           |  25.000% | 100.000% | Uncovered |
#     |-----------------------------------------------|----------|----------|-----------|
#     | bin <sparse,positive>                         |       72 |        1 | Covered   |
#     ===================================================================================
#     | TYPE /accel_coverage_subscriber/cg_result     |  41.666% | 100.000% | Uncovered |
#     ===================================================================================
#     | INSTANCE <UNNAMED1>                           |  41.666% | 100.000% | Uncovered |
#     |-----------------------------------------------|----------|----------|-----------|
#     | COVERPOINT <UNNAMED1>::cp_is_last             |  50.000% | 100.000% | Uncovered |
#     |-----------------------------------------------|----------|----------|-----------|
#     | bin last                                      |        0 |        1 | Zero      |
#     | bin not_last                                  |        1 |        1 | Covered   |
#     |-----------------------------------------------|----------|----------|-----------|
#     | COVERPOINT <UNNAMED1>::cp_result0_zero        |  50.000% | 100.000% | Uncovered |
#     |-----------------------------------------------|----------|----------|-----------|
#     | bin zero                                      |        0 |        1 | Zero      |
#     | bin non_zero                                  |        1 |        1 | Covered   |
#     |-----------------------------------------------|----------|----------|-----------|
#     | COVERPOINT <UNNAMED1>::cp_result_last_zero    |  50.000% | 100.000% | Uncovered |
#     |-----------------------------------------------|----------|----------|-----------|
#     | bin zero                                      |        0 |        1 | Zero      |
#     | bin non_zero                                  |        1 |        1 | Covered   |
#     |-----------------------------------------------|----------|----------|-----------|
#     | COVERPOINT <UNNAMED1>::cp_result0_neg         |  50.000% | 100.000% | Uncovered |
#     |-----------------------------------------------|----------|----------|-----------|
#     | bin positive                                  |        1 |        1 | Covered   |
#     | bin negative                                  |        0 |        1 | Zero      |
#     |-----------------------------------------------|----------|----------|-----------|
#     | CROSS <UNNAMED1>::cross_last_zero             |  25.000% | 100.000% | Uncovered |
#     |-----------------------------------------------|----------|----------|-----------|
#     | bin <not_last,non_zero>                       |        1 |        1 | Covered   |
#     |-----------------------------------------------|----------|----------|-----------|
#     | CROSS <UNNAMED1>::cross_last_neg              |  25.000% | 100.000% | Uncovered |
#     |-----------------------------------------------|----------|----------|-----------|
#     | bin <not_last,positive>                       |        1 |        1 | Covered   |
#     ===================================================================================
#     | TYPE /accel_coverage_subscriber/cg_fsm        |  57.142% | 100.000% | Uncovered |
#     ===================================================================================
#     | INSTANCE <UNNAMED1>                           |  57.142% | 100.000% | Uncovered |
#     |-----------------------------------------------|----------|----------|-----------|
#     | COVERPOINT <UNNAMED1>::cp_state               |  42.857% | 100.000% | Uncovered |
#     |-----------------------------------------------|----------|----------|-----------|
#     | bin idle                                      |      130 |        1 | Covered   |
#     | bin load                                      |       16 |        1 | Covered   |
#     | bin stream                                    |       73 |        1 | Covered   |
#     | bin drain                                     |        0 |        1 | Zero      |
#     | bin done_st                                   |        0 |        1 | Zero      |
#     | bin error                                     |        0 |        1 | Zero      |
#     | bin recovery                                  |        0 |        1 | Zero      |
#     |-----------------------------------------------|----------|----------|-----------|
#     | COVERPOINT <UNNAMED1>::cp_mode                | 100.000% | 100.000% | Covered   |
#     |-----------------------------------------------|----------|----------|-----------|
#     | bin dense                                     |       62 |        1 | Covered   |
#     | bin sparse                                    |      157 |        1 | Covered   |
#     |-----------------------------------------------|----------|----------|-----------|
#     | CROSS <UNNAMED1>::cross_state_mode            |  28.571% | 100.000% | Uncovered |
#     |-----------------------------------------------|----------|----------|-----------|
#     | bin <idle,dense>                              |       62 |        1 | Covered   |
#     | bin <idle,sparse>                             |       68 |        1 | Covered   |
#     | bin <load,sparse>                             |       16 |        1 | Covered   |
#     | bin <stream,sparse>                           |       73 |        1 | Covered   |
#     ===================================================================================
# 
# 
# =========================================
Done